!Agilent Technologies,E8364A,US41440322,A.04.87.01
!Agilent E8364A: A.04.87.01
!Date: Thursday, July 18, 2024 08:44:08
!Correction: S11(Full 2 Port SOLT,1,2) S21(Full 2 Port SOLT,1,2) S12(Full 2 Port SOLT,1,2) S22(Full 2 Port SOLT,1,2)
!S2P File: Measurements: S11, S21, S12, S22:
# Hz S  dB   R 50
45000000 -2.925379e+001 2.535920e+001 -2.047150e+001 1.227439e+001 -1.917448e+001 -1.325823e+001 -3.389759e+001 3.873714e+001
48117968.75 -2.706055e+001 1.648194e+001 -1.988524e+001 -7.524011e+000 -1.902104e+001 3.021481e+000 -2.969883e+001 -1.284886e+001
51235937.5 -3.113320e+001 3.065286e+001 -2.164695e+001 -3.661400e+000 -2.053701e+001 3.130292e+000 -3.058038e+001 2.008362e+001
54353906.25 -3.112156e+001 3.376949e+001 -1.932818e+001 5.101938e+000 -2.038318e+001 4.136610e+000 -3.488023e+001 6.095500e+000
57471875 -3.408490e+001 2.483273e+001 -1.971792e+001 -6.737711e-001 -2.139426e+001 -6.170685e+000 -3.218353e+001 1.346672e+001
60589843.75 -3.445106e+001 -4.401189e+000 -2.025096e+001 6.238710e-003 -1.979240e+001 -2.264644e+000 -4.033794e+001 -2.427213e+001
63707812.5 -3.778201e+001 -2.033911e+001 -2.206811e+001 1.600365e+000 -1.950035e+001 -3.019131e+000 -3.882614e+001 -2.443005e+001
66825781.25 -3.201180e+001 -1.353521e+001 -1.978445e+001 -6.375092e+000 -1.969040e+001 2.049394e+000 -4.474241e+001 3.349124e+001
69943750 -3.133057e+001 -2.123978e+001 -1.981611e+001 6.611900e+000 -1.951413e+001 1.348235e+000 -4.002274e+001 -7.838621e+000
73061718.75 -3.185533e+001 1.794740e+000 -1.994307e+001 -3.721836e+000 -1.949623e+001 3.632409e+000 -3.401665e+001 2.448013e+001
76179687.5 -3.062166e+001 4.615501e-002 -2.017473e+001 1.160093e+000 -2.002278e+001 3.844310e+000 -3.139937e+001 9.053478e+000
79297656.25 -3.093871e+001 2.350046e+001 -2.050518e+001 3.202740e+000 -1.998573e+001 1.085185e-001 -2.978071e+001 2.156721e-002
82415625 -3.122454e+001 1.390565e+001 -2.041059e+001 -1.259315e+000 -2.050031e+001 4.717464e-001 -3.325489e+001 -2.554909e+000
85533593.75 -2.940072e+001 5.306854e+000 -2.040879e+001 4.239314e+000 -2.035941e+001 9.331692e-001 -3.550820e+001 1.030742e+001
88651562.5 -3.087936e+001 -1.161120e+001 -2.022788e+001 -2.505228e+000 -2.005253e+001 6.681881e-001 -3.625237e+001 8.657020e+000
91769531.25 -3.330561e+001 -9.190407e+000 -2.078817e+001 6.736679e-002 -2.058508e+001 2.510515e+000 -3.820703e+001 -3.870053e+001
94887500 -3.112041e+001 -8.723631e+000 -1.994905e+001 1.936204e+000 -1.987148e+001 7.743838e-002 -3.855191e+001 -7.422338e+000
98005468.75 -3.122843e+001 5.854948e-001 -2.031367e+001 -9.465443e-001 -2.019848e+001 1.745760e+000 -3.604903e+001 -7.693060e+000
101123437.5 -3.023544e+001 5.890725e+000 -1.987619e+001 2.684685e+000 -1.967014e+001 1.415323e+000 -3.600317e+001 1.680343e+001
104241406.25 -3.174315e+001 1.572542e-001 -2.033044e+001 2.088834e+000 -1.995662e+001 -1.038772e+000 -3.206392e+001 1.629453e+001
107359375 -3.228921e+001 2.897081e-001 -2.021125e+001 2.308622e+000 -1.987356e+001 1.015981e+000 -3.603466e+001 8.093005e-001
110477343.75 -3.269306e+001 -6.762397e+000 -2.002697e+001 9.767897e-002 -2.027027e+001 1.006835e+000 -3.491231e+001 -7.756834e+000
113595312.5 -3.066174e+001 -1.085373e+001 -2.020428e+001 2.982688e-001 -2.015662e+001 5.254099e-002 -3.385464e+001 -7.251135e+000
116713281.25 -3.177297e+001 -1.005264e+001 -1.987830e+001 1.057187e+000 -1.983256e+001 3.104079e-001 -3.403998e+001 -2.704942e+000
119831250 -3.130269e+001 -7.726517e+000 -1.982255e+001 3.068619e-001 -2.019042e+001 2.834799e-001 -3.467863e+001 -1.556852e+001
122949218.75 -2.977787e+001 -8.823187e+000 -2.048461e+001 3.400456e+000 -2.014833e+001 2.456189e+000 -3.513073e+001 -1.933010e+000
126067187.5 -3.054817e+001 -8.628045e+000 -1.988505e+001 5.497319e-001 -2.006668e+001 1.337731e+000 -3.389213e+001 -1.111998e+001
129185156.25 -2.986612e+001 -1.102808e+001 -2.024336e+001 1.443310e+000 -2.006388e+001 1.071644e+000 -3.658136e+001 -8.202393e+000
132303125 -3.127812e+001 -1.714882e+001 -1.987496e+001 1.158123e+000 -2.008435e+001 1.887246e+000 -3.554121e+001 -9.266798e+000
135421093.75 -3.040202e+001 -7.421913e+000 -2.018018e+001 2.155761e+000 -1.987780e+001 1.603723e+000 -3.713720e+001 1.805658e+000
138539062.5 -3.070712e+001 -6.222946e+000 -1.999038e+001 1.167702e+000 -1.976762e+001 2.365167e+000 -3.484175e+001 -6.534824e+000
141657031.25 -3.084059e+001 -3.288060e+000 -1.992563e+001 3.527364e+000 -2.011942e+001 2.729453e-001 -3.477810e+001 2.489937e+000
144775000 -3.080631e+001 -9.136480e+000 -1.998721e+001 1.233679e+000 -2.006921e+001 2.075016e+000 -3.569249e+001 -4.267361e+000
147892968.75 -3.064346e+001 -1.186113e+001 -1.996502e+001 2.530376e+000 -2.019293e+001 5.395648e-001 -3.528625e+001 -7.788354e-001
151010937.5 -3.112815e+001 -5.347279e+000 -2.012950e+001 2.415941e+000 -2.022443e+001 -3.452219e-002 -3.592373e+001 -3.845676e+000
154128906.25 -3.057484e+001 -1.185544e+001 -2.011432e+001 2.113774e+000 -2.012816e+001 1.308544e+000 -3.460099e+001 -1.050284e+001
157246875 -3.141202e+001 -2.288170e+000 -2.032998e+001 2.589385e+000 -1.996414e+001 5.798467e-001 -3.520218e+001 -1.305404e+001
160364843.75 -3.066172e+001 -7.579412e+000 -2.013238e+001 3.037554e+000 -2.006011e+001 2.044427e+000 -3.428729e+001 -1.034562e+001
163482812.5 -3.129166e+001 -8.147433e-001 -2.023841e+001 1.564789e+000 -2.016770e+001 1.320311e+000 -3.395504e+001 3.647873e+000
166600781.25 -3.138319e+001 -5.785381e+000 -2.024632e+001 3.737241e-001 -2.023123e+001 9.382846e-001 -3.309856e+001 -3.710189e-001
169718750 -3.062549e+001 -6.346055e+000 -2.023060e+001 9.083727e-001 -2.021620e+001 6.914634e-001 -3.358894e+001 2.519808e+000
172836718.75 -3.025606e+001 -8.775782e+000 -2.007470e+001 4.101569e-001 -2.013712e+001 2.044725e+000 -3.266800e+001 5.984958e+000
175954687.5 -3.051422e+001 -5.428418e+000 -2.015755e+001 1.867710e+000 -1.993133e+001 5.650434e-001 -3.260487e+001 4.256023e+000
179072656.25 -3.027257e+001 -4.646205e+000 -2.016331e+001 1.226597e+000 -2.002037e+001 1.799084e-001 -3.304416e+001 -4.647743e-001
182190625 -3.032386e+001 -7.609902e+000 -1.988226e+001 6.816458e-001 -2.006813e+001 5.464360e-001 -3.294995e+001 2.185517e-001
185308593.75 -3.122333e+001 -4.280144e+000 -2.010452e+001 2.159299e+000 -1.998809e+001 8.992884e-001 -3.277242e+001 4.169079e+000
188426562.5 -3.075904e+001 -4.828104e+000 -2.008594e+001 1.533552e+000 -2.009875e+001 1.641386e+000 -3.350991e+001 1.002612e+001
191544531.25 -3.121427e+001 -6.283227e+000 -2.019132e+001 2.413345e+000 -2.021771e+001 1.676561e+000 -3.403391e+001 5.632648e+000
194662500 -3.108790e+001 -5.258946e+000 -2.021716e+001 1.724184e+000 -2.015464e+001 2.356105e+000 -3.466335e+001 -3.185072e+000
197780468.75 -3.108851e+001 -4.351480e+000 -2.023103e+001 1.434702e+000 -2.003655e+001 2.145185e+000 -3.346121e+001 -4.095036e+000
200898437.5 -3.072635e+001 -1.385978e+000 -2.015331e+001 2.364962e+000 -2.007514e+001 1.316703e+000 -3.370760e+001 -1.759830e+000
204016406.25 -3.170718e+001 -7.348024e+000 -1.994116e+001 1.584309e+000 -2.004701e+001 1.313965e+000 -3.400771e+001 4.636818e+000
207134375 -3.109743e+001 -5.494805e+000 -2.010443e+001 2.823738e+000 -2.003710e+001 1.112155e+000 -3.468916e+001 -1.662503e+000
210252343.75 -3.052083e+001 -5.855634e+000 -1.986628e+001 1.590025e-001 -1.986180e+001 1.137455e+000 -3.559290e+001 -1.673342e+000
213370312.5 -3.099307e+001 -9.177035e+000 -2.005378e+001 1.544056e+000 -2.001904e+001 1.968011e+000 -3.546192e+001 9.662583e+000
216488281.25 -3.128437e+001 -6.803104e+000 -2.003623e+001 1.912114e+000 -1.996317e+001 2.315678e+000 -3.462714e+001 1.597082e+001
219606250 -3.063867e+001 -6.102885e+000 -2.005423e+001 2.174833e+000 -2.012557e+001 2.044223e+000 -3.425533e+001 2.024434e+001
222724218.75 -3.096983e+001 -7.113941e+000 -2.007240e+001 1.904948e+000 -2.008785e+001 1.883127e+000 -3.433105e+001 1.925337e+001
225842187.5 -3.125269e+001 -5.184785e+000 -2.018396e+001 2.955301e+000 -2.005172e+001 1.697068e+000 -3.448865e+001 1.922772e+001
228960156.25 -3.106728e+001 -3.538237e+000 -2.005918e+001 2.313138e+000 -2.021713e+001 1.149492e+000 -3.553833e+001 1.855308e+001
232078125 -3.179872e+001 -4.120957e+000 -1.989812e+001 2.431647e+000 -2.008685e+001 2.196126e+000 -3.622705e+001 -1.929334e+000
235196093.75 -3.161587e+001 -5.829831e+000 -2.026555e+001 2.142950e+000 -2.008114e+001 1.646432e+000 -3.587079e+001 7.425688e+000
238314062.5 -3.147700e+001 -4.364705e+000 -2.022450e+001 2.732075e+000 -1.996775e+001 1.397853e+000 -3.552191e+001 5.538763e+000
241432031.25 -3.110340e+001 -7.174413e+000 -2.008582e+001 2.826798e+000 -2.021657e+001 3.623458e+000 -3.472675e+001 5.040815e+000
244550000 -3.142616e+001 -7.935918e+000 -1.995423e+001 2.950201e+000 -2.016907e+001 2.252312e+000 -3.439243e+001 1.057199e+001
247667968.75 -3.110383e+001 -5.317482e+000 -2.004472e+001 2.302995e+000 -2.003631e+001 2.148466e+000 -3.462820e+001 1.113664e+001
250785937.5 -3.134437e+001 -6.886706e+000 -2.017424e+001 4.072615e+000 -1.992067e+001 1.516432e+000 -3.567350e+001 8.965650e+000
253903906.25 -3.131220e+001 -2.086465e+000 -2.024115e+001 3.099792e+000 -2.002977e+001 6.298710e-001 -3.489362e+001 3.674738e+000
257021875 -3.180906e+001 -3.995662e+000 -2.002175e+001 2.486699e+000 -2.008868e+001 7.302231e-001 -3.510688e+001 6.125329e+000
260139843.75 -3.165231e+001 -7.398839e+000 -2.010312e+001 2.380001e+000 -2.006298e+001 1.020574e+000 -3.542842e+001 9.750505e+000
263257812.5 -3.183848e+001 -9.661035e+000 -1.991903e+001 1.923099e+000 -1.999557e+001 1.732211e+000 -3.635067e+001 8.540833e+000
266375781.25 -3.200090e+001 -8.741501e+000 -1.999621e+001 9.611323e-001 -2.018343e+001 1.898485e+000 -3.568989e+001 5.989705e+000
269493750 -3.209694e+001 -1.096121e+001 -2.006853e+001 1.773968e+000 -2.022824e+001 3.735328e+000 -3.569853e+001 9.210308e-001
272611718.75 -3.222381e+001 -9.913791e+000 -2.017262e+001 1.538308e+000 -2.016365e+001 3.260846e+000 -3.568131e+001 -8.466256e+000
275729687.5 -3.204578e+001 -1.075731e+001 -2.002342e+001 2.200276e+000 -2.011353e+001 2.372462e+000 -3.490659e+001 -2.764734e+000
278847656.25 -3.181182e+001 -7.360350e+000 -2.017457e+001 2.930020e+000 -2.009721e+001 2.468381e+000 -3.487518e+001 -4.593542e+000
281965625 -3.167484e+001 -7.542126e+000 -2.017526e+001 3.318082e+000 -1.986676e+001 2.373381e+000 -3.585284e+001 7.549454e+000
285083593.75 -3.160065e+001 -7.473671e+000 -2.017061e+001 3.331824e+000 -2.009133e+001 2.974903e+000 -3.656428e+001 7.395962e+000
288201562.5 -3.193212e+001 -8.928676e+000 -2.020219e+001 3.378292e+000 -2.013129e+001 2.770127e+000 -3.546584e+001 1.029055e+001
291319531.25 -3.199475e+001 -1.062382e+001 -2.000514e+001 2.433194e+000 -2.000477e+001 2.239269e+000 -3.599233e+001 3.440349e+000
294437500 -3.145893e+001 -1.116981e+001 -2.011739e+001 3.769280e+000 -2.014285e+001 2.479635e+000 -3.617324e+001 7.062867e+000
297555468.75 -3.195859e+001 -1.364855e+001 -1.996856e+001 3.298412e+000 -2.015164e+001 1.561832e+000 -3.508778e+001 2.155028e+000
300673437.5 -3.180068e+001 -1.366735e+001 -2.000669e+001 2.549420e+000 -2.012140e+001 1.757548e+000 -3.504733e+001 3.132233e+000
303791406.25 -3.261203e+001 -1.243819e+001 -2.004279e+001 2.757663e+000 -2.012709e+001 2.225390e+000 -3.552649e+001 2.615928e+000
306909375 -3.202982e+001 -1.340520e+001 -2.006465e+001 3.325695e+000 -2.006671e+001 2.499709e+000 -3.489137e+001 3.207072e+000
310027343.75 -3.213886e+001 -1.185365e+001 -2.018538e+001 3.291597e+000 -1.993317e+001 2.580141e+000 -3.495857e+001 5.825800e+000
313145312.5 -3.201085e+001 -1.383638e+001 -2.016221e+001 3.451590e+000 -2.001903e+001 2.475125e+000 -3.485725e+001 1.754037e+000
316263281.25 -3.195048e+001 -1.352549e+001 -2.010895e+001 3.479153e+000 -2.010835e+001 2.443323e+000 -3.513374e+001 5.960838e-001
319381250 -3.178331e+001 -1.317312e+001 -2.002342e+001 3.155313e+000 -2.001807e+001 2.774780e+000 -3.481341e+001 2.307405e+000
322499218.75 -3.189966e+001 -1.215420e+001 -2.017305e+001 3.298511e+000 -2.009435e+001 2.807328e+000 -3.500765e+001 -4.607350e-001
325617187.5 -3.184454e+001 -1.389720e+001 -2.006353e+001 3.331325e+000 -2.006970e+001 2.759893e+000 -3.469428e+001 -8.723038e-001
328735156.25 -3.163676e+001 -1.614813e+001 -1.993113e+001 3.355811e+000 -2.008135e+001 2.696917e+000 -3.487844e+001 9.957659e-001
331853125 -3.164629e+001 -1.677902e+001 -2.015390e+001 3.614206e+000 -2.007874e+001 2.374650e+000 -3.463811e+001 1.336726e+000
334971093.75 -3.151549e+001 -1.759080e+001 -2.006711e+001 3.080600e+000 -2.010798e+001 2.956620e+000 -3.441175e+001 -4.327774e-004
338089062.5 -3.184842e+001 -1.312998e+001 -2.011371e+001 3.038286e+000 -2.008670e+001 2.721362e+000 -3.447478e+001 3.159365e+000
341207031.25 -3.210155e+001 -1.179404e+001 -2.015551e+001 3.835206e+000 -2.012120e+001 2.908486e+000 -3.383807e+001 9.811676e-001
344325000 -3.189709e+001 -1.567156e+001 -2.013235e+001 3.775966e+000 -2.008142e+001 3.414997e+000 -3.385557e+001 6.346798e+000
347442968.75 -3.181867e+001 -1.548397e+001 -2.011770e+001 3.485197e+000 -2.004284e+001 3.008779e+000 -3.405327e+001 5.070674e+000
350560937.5 -3.165478e+001 -1.685385e+001 -2.012807e+001 3.666817e+000 -2.007466e+001 3.236562e+000 -3.401538e+001 5.893484e+000
353678906.25 -3.150970e+001 -1.404574e+001 -2.015843e+001 3.899483e+000 -2.009565e+001 3.232912e+000 -3.369094e+001 3.893029e+000
356796875 -3.186922e+001 -1.594756e+001 -2.010242e+001 3.724647e+000 -2.009393e+001 3.282496e+000 -3.404104e+001 4.767215e+000
359914843.75 -3.150089e+001 -1.615250e+001 -2.002569e+001 3.314764e+000 -2.008077e+001 2.944714e+000 -3.382111e+001 7.741611e+000
363032812.5 -3.163339e+001 -1.491232e+001 -2.009970e+001 3.440295e+000 -2.015105e+001 3.609660e+000 -3.428160e+001 6.875106e+000
366150781.25 -3.160914e+001 -1.875953e+001 -2.007834e+001 3.933556e+000 -2.010116e+001 3.027054e+000 -3.404009e+001 6.154217e+000
369268750 -3.140362e+001 -1.670222e+001 -2.004019e+001 3.824018e+000 -2.003067e+001 3.029945e+000 -3.422992e+001 5.691792e+000
372386718.75 -3.120890e+001 -1.641524e+001 -2.010701e+001 3.927717e+000 -2.009245e+001 3.294820e+000 -3.445306e+001 1.061882e+001
375504687.5 -3.143048e+001 -1.859069e+001 -2.011789e+001 3.576321e+000 -2.009001e+001 2.933690e+000 -3.444275e+001 8.879857e+000
378622656.25 -3.100001e+001 -1.658812e+001 -2.016608e+001 3.757142e+000 -2.010810e+001 3.172487e+000 -3.429008e+001 9.906942e+000
381740625 -3.119077e+001 -1.753178e+001 -2.008207e+001 3.669301e+000 -2.005812e+001 2.901649e+000 -3.438599e+001 9.598071e+000
384858593.75 -3.100890e+001 -1.596000e+001 -2.015321e+001 3.950763e+000 -2.013401e+001 3.681329e+000 -3.435713e+001 8.694692e+000
387976562.5 -3.085192e+001 -1.700576e+001 -2.009713e+001 3.684115e+000 -2.007870e+001 3.247585e+000 -3.403783e+001 8.921052e+000
391094531.25 -3.094087e+001 -1.669534e+001 -2.013963e+001 4.075297e+000 -2.011483e+001 3.317140e+000 -3.386791e+001 1.039021e+001
394212500 -3.116557e+001 -1.703881e+001 -2.015354e+001 3.865357e+000 -2.006190e+001 3.659773e+000 -3.488719e+001 1.129333e+001
397330468.75 -3.116693e+001 -1.806287e+001 -2.015833e+001 4.065208e+000 -2.009841e+001 3.322985e+000 -3.462244e+001 1.152540e+001
400448437.5 -3.100867e+001 -1.643747e+001 -2.013862e+001 3.626263e+000 -2.004238e+001 3.984738e+000 -3.473397e+001 8.941320e+000
403566406.25 -3.116642e+001 -1.756498e+001 -2.006298e+001 4.236188e+000 -2.007141e+001 3.662934e+000 -3.448737e+001 9.305556e+000
406684375 -3.097416e+001 -1.822484e+001 -2.012882e+001 4.158590e+000 -2.007641e+001 3.486211e+000 -3.565549e+001 9.237118e+000
409802343.75 -3.098615e+001 -1.746266e+001 -2.005541e+001 4.234981e+000 -2.006022e+001 3.072171e+000 -3.556619e+001 1.068058e+001
412920312.5 -3.110119e+001 -1.730496e+001 -2.008185e+001 3.945927e+000 -2.009918e+001 3.825104e+000 -3.557011e+001 1.093307e+001
416038281.25 -3.110450e+001 -1.831997e+001 -2.006390e+001 3.892785e+000 -2.009426e+001 3.785385e+000 -3.520920e+001 1.404614e+001
419156250 -3.109170e+001 -1.738395e+001 -2.005601e+001 4.552485e+000 -2.009022e+001 3.883599e+000 -3.518572e+001 1.329761e+001
422274218.75 -3.131693e+001 -1.654067e+001 -2.015601e+001 4.493467e+000 -2.008265e+001 3.505005e+000 -3.523243e+001 1.343089e+001
425392187.5 -3.123451e+001 -1.564426e+001 -2.015545e+001 3.976852e+000 -2.008512e+001 4.060352e+000 -3.597858e+001 1.230656e+001
428510156.25 -3.109404e+001 -1.677288e+001 -2.007113e+001 4.357545e+000 -2.005836e+001 4.233143e+000 -3.576930e+001 1.345145e+001
431628125 -3.117573e+001 -1.514904e+001 -2.015582e+001 3.816894e+000 -2.009250e+001 3.744171e+000 -3.615524e+001 1.326508e+001
434746093.75 -3.120485e+001 -1.575524e+001 -2.008425e+001 4.096204e+000 -2.004709e+001 3.435516e+000 -3.616242e+001 1.271461e+001
437864062.5 -3.115400e+001 -1.510768e+001 -2.011652e+001 4.476641e+000 -2.009399e+001 3.608635e+000 -3.616148e+001 1.176151e+001
440982031.25 -3.116149e+001 -1.454438e+001 -2.002944e+001 4.864634e+000 -2.006971e+001 4.082385e+000 -3.596263e+001 1.154763e+001
444100000 -3.123818e+001 -1.578506e+001 -2.012744e+001 4.403328e+000 -2.012782e+001 4.209484e+000 -3.626020e+001 9.907948e+000
447217968.75 -3.137605e+001 -1.671765e+001 -2.010317e+001 4.203260e+000 -2.009608e+001 3.979916e+000 -3.625908e+001 9.977112e+000
450335937.5 -3.157590e+001 -1.914078e+001 -2.005041e+001 4.632663e+000 -2.005734e+001 3.806235e+000 -3.632528e+001 8.073193e+000
453453906.25 -3.121667e+001 -1.741187e+001 -2.010870e+001 4.664307e+000 -2.010980e+001 4.094099e+000 -3.625498e+001 7.727987e+000
456571875 -3.128450e+001 -1.557626e+001 -2.012145e+001 4.155536e+000 -2.015195e+001 4.017522e+000 -3.599017e+001 7.395074e+000
459689843.75 -3.112906e+001 -1.608091e+001 -2.015605e+001 4.534658e+000 -2.012851e+001 3.682177e+000 -3.593087e+001 7.115348e+000
462807812.5 -3.112544e+001 -1.730081e+001 -2.004211e+001 4.270609e+000 -2.003585e+001 3.702399e+000 -3.560441e+001 5.075900e+000
465925781.25 -3.154759e+001 -1.668508e+001 -2.010241e+001 4.271930e+000 -2.010583e+001 4.343517e+000 -3.542341e+001 8.914097e+000
469043750 -3.154875e+001 -1.643280e+001 -2.011910e+001 4.991407e+000 -2.009885e+001 4.205418e+000 -3.571044e+001 5.938014e+000
472161718.75 -3.157785e+001 -1.709454e+001 -2.007944e+001 4.669015e+000 -2.009744e+001 3.935157e+000 -3.598388e+001 6.604777e+000
475279687.5 -3.153251e+001 -1.546026e+001 -2.008268e+001 4.528237e+000 -2.003060e+001 4.160137e+000 -3.516473e+001 4.592518e+000
478397656.25 -3.156516e+001 -1.709527e+001 -2.006676e+001 4.971710e+000 -2.008574e+001 4.037477e+000 -3.536928e+001 1.520060e+000
481515625 -3.177816e+001 -1.767467e+001 -2.003063e+001 4.839774e+000 -2.010498e+001 4.151467e+000 -3.486103e+001 2.566519e+000
484633593.75 -3.154627e+001 -1.742940e+001 -2.014332e+001 4.931562e+000 -2.010914e+001 4.106893e+000 -3.504875e+001 3.420906e+000
487751562.5 -3.155696e+001 -1.750270e+001 -2.014078e+001 4.766502e+000 -2.009301e+001 4.163453e+000 -3.520969e+001 2.650856e+000
490869531.25 -3.138188e+001 -1.746693e+001 -2.006385e+001 5.080774e+000 -2.011294e+001 3.981524e+000 -3.492508e+001 1.266647e+000
493987500 -3.159197e+001 -1.775697e+001 -2.015365e+001 4.864987e+000 -2.015745e+001 4.115146e+000 -3.495766e+001 2.797144e+000
497105468.75 -3.150744e+001 -2.054749e+001 -2.012806e+001 4.944005e+000 -2.015219e+001 4.359653e+000 -3.451474e+001 4.556883e+000
500223437.5 -3.153878e+001 -1.929893e+001 -2.009523e+001 5.090056e+000 -2.004712e+001 4.513169e+000 -3.481815e+001 9.110574e-001
503341406.25 -3.165624e+001 -1.953957e+001 -2.008418e+001 5.134266e+000 -2.010854e+001 3.956533e+000 -3.445356e+001 2.946204e+000
506459375 -3.173539e+001 -2.053402e+001 -2.007809e+001 4.782373e+000 -2.006886e+001 4.480035e+000 -3.430121e+001 1.833710e+000
509577343.75 -3.157532e+001 -2.012585e+001 -2.009296e+001 5.137388e+000 -2.006449e+001 4.627662e+000 -3.447744e+001 3.624549e+000
512695312.5 -3.148033e+001 -1.978402e+001 -2.012419e+001 5.429805e+000 -1.998306e+001 4.359253e+000 -3.439363e+001 5.760927e+000
