!Agilent Technologies,E8364A,US41440322,A.04.87.01
!Agilent E8364A: A.04.87.01
!Date: Tuesday, July 16, 2024 12:09:53
!Correction: S11(Full 2 Port SOLT,1,2) S21(Full 2 Port SOLT,1,2) S12(Full 2 Port SOLT,1,2) S22(Full 2 Port SOLT,1,2)
!S2P File: Measurements: S11, S21, S12, S22:
# Hz S  dB   R 50
45000000 -1.737833e-001 5.571545e+000 -3.429843e+001 1.765882e+002 -3.150148e+001 -4.320882e+001 -1.134209e-001 9.090670e-001
48117968.75 3.885864e-002 3.894394e+000 -2.934587e+001 -1.748446e+002 -3.549660e+001 -1.785113e+002 -1.037642e-001 -1.749635e+000
51235937.5 7.386653e-002 4.489843e+000 -3.835697e+001 -1.818063e+001 -3.600408e+001 -1.242427e+002 -2.183089e-001 -1.460747e+000
54353906.25 2.928680e-002 1.083937e+000 -3.283326e+001 1.444415e+002 -3.527481e+001 1.577096e+001 1.309288e-001 9.830879e-001
57471875 -1.970190e-001 1.065689e+000 -3.835173e+001 2.634876e+000 -4.860939e+001 3.000858e+001 1.024708e-002 8.472496e-001
60589843.75 5.417884e-002 -5.617115e-002 -3.489619e+001 1.418095e+002 -3.292947e+001 -4.958533e+001 -4.798648e-002 -1.722005e-001
63707812.5 7.609072e-002 7.700503e-001 -4.069727e+001 1.319190e+002 -3.943864e+001 -1.574237e+002 -8.391581e-002 1.062150e+000
66825781.25 -8.629938e-002 1.070435e+000 -4.962166e+001 1.480739e+002 -3.820407e+001 1.246651e+002 -5.843661e-002 1.185110e+000
69943750 4.850915e-002 2.589212e+000 -5.061716e+001 -1.574255e+002 -3.839972e+001 7.559677e+001 -2.446600e-002 4.548708e-001
73061718.75 -5.991799e-002 1.752984e+000 -4.185115e+001 1.587379e+002 -3.898037e+001 -1.588533e+002 -8.137555e-002 6.976757e-001
76179687.5 -7.367124e-002 2.282301e+000 -4.845178e+001 1.378518e+000 -5.754216e+001 6.790932e+001 -8.784486e-002 1.356136e-001
79297656.25 -4.147048e-002 2.330093e+000 -3.967257e+001 -1.136917e+002 -4.446588e+001 1.608498e+002 6.311606e-002 3.423799e-001
82415625 -4.418814e-002 2.091619e+000 -5.481720e+001 -5.593518e+001 -4.192472e+001 -4.333086e+001 -3.319279e-002 3.675439e-001
85533593.75 -3.605533e-002 2.633224e+000 -5.019148e+001 -1.666350e+000 -5.495513e+001 -3.425288e+000 3.177561e-002 7.283518e-001
88651562.5 -4.096570e-002 2.961110e+000 -4.292597e+001 -1.403284e+002 -4.555615e+001 -1.042248e+002 -7.097028e-002 1.132746e+000
91769531.25 1.427731e-002 3.216529e+000 -5.440862e+001 -5.014062e+000 -4.698697e+001 -1.783608e+001 -6.846428e-002 1.134458e+000
94887500 7.954630e-006 2.823784e+000 -5.098151e+001 1.594202e+002 -7.914376e+001 -6.670058e+001 -1.369666e-001 1.422196e+000
98005468.75 -4.051843e-002 3.445093e+000 -4.364730e+001 -1.086448e+002 -5.093139e+001 4.113409e+001 -1.003346e-001 1.378531e+000
101123437.5 -3.095100e-002 3.498903e+000 -4.477953e+001 1.685961e+002 -5.814127e+001 -1.292901e+002 -7.895726e-002 1.349797e+000
104241406.25 1.666415e-002 3.920022e+000 -4.329520e+001 -8.301666e+001 -5.437691e+001 1.294022e+002 -6.272395e-002 8.118468e-001
107359375 -1.838150e-002 3.300529e+000 -5.938460e+001 3.605476e+001 -5.144344e+001 -7.586133e+001 -5.383944e-002 2.814468e-001
110477343.75 -4.338188e-002 4.034386e+000 -4.545445e+001 4.606828e+001 -4.934769e+001 -8.561056e+000 3.000183e-002 7.277982e-001
113595312.5 -1.466117e-002 4.324574e+000 -5.513147e+001 1.064852e+002 -5.626671e+001 5.379279e+001 9.883543e-003 1.035197e+000
116713281.25 -2.913289e-002 4.378582e+000 -5.665743e+001 -7.578715e+001 -5.456341e+001 -1.019219e+001 5.787063e-003 8.305224e-001
119831250 9.459861e-003 4.146487e+000 -4.364365e+001 -1.063590e+002 -5.348053e+001 -1.614016e+002 8.057141e-002 1.294783e+000
122949218.75 4.674599e-002 3.913189e+000 -5.187667e+001 -1.141567e+002 -6.460178e+001 -7.569672e+001 -4.937471e-002 1.766592e+000
126067187.5 -1.195589e-002 4.138137e+000 -4.865635e+001 -5.000578e+001 -4.924182e+001 4.382460e+001 5.876051e-004 1.684528e+000
129185156.25 -4.561779e-003 4.295495e+000 -4.483673e+001 -1.126887e+002 -5.629075e+001 9.670842e+001 2.343283e-002 1.863699e+000
132303125 1.644341e-002 4.288674e+000 -4.241382e+001 1.669313e+002 -4.776670e+001 -1.612020e+002 -9.344912e-002 1.802094e+000
135421093.75 -3.026854e-002 4.606838e+000 -4.771956e+001 1.651626e+002 -4.968614e+001 -5.143670e+001 -6.238125e-002 2.168551e+000
138539062.5 -1.455243e-002 4.748553e+000 -4.654015e+001 -1.488696e+002 -5.140300e+001 -3.887586e+001 -4.178600e-002 2.002259e+000
141657031.25 -1.796873e-002 4.694345e+000 -5.614243e+001 7.310619e+001 -6.025132e+001 -1.144897e+002 1.884074e-002 2.228422e+000
144775000 1.084861e-002 4.784981e+000 -5.167184e+001 1.730012e+002 -5.373575e+001 3.940868e+001 4.117896e-002 1.768133e+000
147892968.75 2.622883e-002 5.134891e+000 -5.432481e+001 -2.680057e+001 -6.265930e+001 -2.981684e+001 2.359485e-002 2.009202e+000
151010937.5 5.354869e-002 5.093992e+000 -5.026799e+001 1.169373e+002 -6.140459e+001 -1.206160e+002 -3.803062e-002 2.266580e+000
154128906.25 1.454372e-002 5.193879e+000 -5.565592e+001 -1.004398e+001 -6.553914e+001 1.730803e+002 -3.100666e-002 2.245139e+000
157246875 2.004531e-002 5.305818e+000 -5.071706e+001 -1.355881e+002 -6.094218e+001 -3.540513e+001 -2.173589e-002 2.202073e+000
160364843.75 2.627129e-002 5.275659e+000 -5.262556e+001 -1.824121e+001 -6.174738e+001 -2.960483e+001 -1.097959e-002 2.013133e+000
163482812.5 -2.530429e-002 5.287997e+000 -5.878973e+001 3.866611e+001 -5.695552e+001 1.587932e+002 2.155919e-002 2.235338e+000
166600781.25 -3.162680e-002 5.334782e+000 -5.703554e+001 -1.413821e+002 -5.532170e+001 7.670294e+001 -2.446050e-003 2.082823e+000
169718750 -7.907889e-003 5.599874e+000 -5.237322e+001 5.382370e+001 -6.380181e+001 8.100836e+001 5.070976e-003 2.376627e+000
172836718.75 -6.852838e-003 5.723225e+000 -5.391173e+001 -4.229361e+001 -6.209322e+001 1.474440e+001 -1.176817e-002 2.558357e+000
175954687.5 -1.145553e-002 5.560059e+000 -8.270425e+001 3.813767e+001 -6.123783e+001 -5.638984e+001 -1.974692e-002 2.824487e+000
179072656.25 -1.507529e-002 6.000708e+000 -5.751700e+001 1.015890e+002 -4.903608e+001 -1.475969e+002 -8.162740e-003 2.647783e+000
182190625 -1.280833e-002 6.009298e+000 -4.817150e+001 -3.699085e+001 -5.117577e+001 1.165716e+002 3.471133e-002 2.457105e+000
185308593.75 -1.136541e-002 5.914910e+000 -5.125933e+001 6.782932e+001 -6.039634e+001 6.634715e+001 6.981006e-002 2.631659e+000
188426562.5 7.419372e-003 6.327957e+000 -5.904221e+001 8.038326e+001 -5.262048e+001 -9.377481e+001 6.669623e-002 2.680831e+000
191544531.25 -6.899088e-003 6.357560e+000 -5.319674e+001 -1.639412e+002 -5.391412e+001 -1.605370e+002 3.549403e-002 2.824609e+000
194662500 -6.125902e-002 6.656682e+000 -5.053151e+001 1.358230e+002 -5.436911e+001 6.488289e+001 7.934380e-002 2.521920e+000
197780468.75 -2.979947e-002 6.559140e+000 -6.311539e+001 -1.410756e+002 -4.879855e+001 1.526705e+002 8.847928e-002 3.223288e+000
200898437.5 -3.368413e-002 6.477080e+000 -6.372480e+001 2.277656e+001 -5.332352e+001 -8.950116e+000 7.832554e-002 3.148114e+000
204016406.25 -5.927552e-002 6.783156e+000 -5.287238e+001 -5.158324e+001 -5.884174e+001 4.060434e+001 5.369176e-002 3.283286e+000
207134375 -1.630629e-002 6.976149e+000 -5.565188e+001 -1.610060e+002 -8.669141e+001 7.921140e+001 -8.553582e-003 3.135952e+000
210252343.75 -3.308240e-003 6.943793e+000 -6.034409e+001 -4.295057e+000 -5.481821e+001 1.673359e+002 1.931132e-002 3.476574e+000
213370312.5 -8.316243e-003 6.912284e+000 -6.484950e+001 1.662632e+002 -5.657889e+001 -3.331105e+001 4.375386e-002 3.222212e+000
216488281.25 -9.104897e-003 7.096977e+000 -6.183021e+001 -7.793911e+001 -5.163021e+001 -8.974454e+001 5.257520e-002 3.119264e+000
219606250 -1.339383e-002 7.130805e+000 -5.975278e+001 -1.352411e+002 -6.065272e+001 1.442122e+002 7.353781e-002 3.243669e+000
222724218.75 1.117546e-003 7.419965e+000 -6.363578e+001 -1.750903e+002 -5.573041e+001 1.734975e+002 7.040450e-002 3.287040e+000
225842187.5 -7.425739e-002 7.492874e+000 -6.096245e+001 -4.123871e+001 -5.684706e+001 -1.679613e+002 6.900901e-002 3.327055e+000
228960156.25 -1.120446e-004 7.692394e+000 -5.771535e+001 1.148143e+002 -6.494978e+001 5.850565e+001 1.494736e-002 3.323534e+000
232078125 -5.799631e-002 7.944507e+000 -6.203228e+001 -1.914787e+001 -7.006880e+001 -6.038527e+001 3.277541e-002 3.063643e+000
235196093.75 6.850813e-003 7.463684e+000 -5.740428e+001 8.434060e+001 -6.221076e+001 7.176925e+000 3.892167e-002 2.895135e+000
238314062.5 -2.565509e-002 7.715538e+000 -6.056499e+001 -4.465362e+001 -6.650571e+001 -1.140025e+002 3.968271e-002 3.059721e+000
241432031.25 -7.437082e-002 8.557513e+000 -6.196757e+001 1.283432e+002 -8.297606e+001 -6.874482e+001 1.254277e-002 2.773192e+000
244550000 -5.911181e-002 9.151191e+000 -6.074111e+001 -1.251831e+002 -5.465344e+001 -1.351863e+002 3.181022e-002 2.781722e+000
247667968.75 -6.638602e-003 8.462963e+000 -5.489433e+001 3.929827e+001 -6.640175e+001 7.188433e+000 -2.185027e-002 2.742773e+000
250785937.5 -1.885911e-002 8.387414e+000 -5.476365e+001 -7.585276e+001 -6.458890e+001 -4.002625e+001 -7.909320e-003 3.343146e+000
253903906.25 -5.863995e-003 8.299757e+000 -6.123781e+001 5.622766e+001 -6.124640e+001 8.218885e+001 4.300595e-002 3.341901e+000
257021875 5.069041e-002 8.080587e+000 -6.072753e+001 1.644603e+002 -5.694902e+001 -4.756729e+001 7.258751e-002 2.528839e+000
260139843.75 7.469687e-002 8.084316e+000 -5.400814e+001 9.764900e+001 -5.825438e+001 -3.171648e+001 4.496715e-002 2.172305e+000
263257812.5 -1.724011e-002 8.564558e+000 -5.221956e+001 -2.332520e+001 -5.865427e+001 9.771957e+001 -3.213131e-002 3.177721e+000
266375781.25 -3.073288e-002 7.644587e+000 -5.822922e+001 -1.000017e+001 -5.545721e+001 -2.096525e+001 -1.980621e-001 3.914244e+000
269493750 -4.959564e-002 8.507423e+000 -6.406990e+001 1.356304e+002 -6.432233e+001 1.935060e+001 -1.344994e-001 4.117966e+000
272611718.75 -1.161226e-001 9.281421e+000 -6.268859e+001 -1.724883e+002 -5.811489e+001 1.026811e+002 -4.023806e-002 4.099707e+000
275729687.5 -1.206158e-001 9.743755e+000 -7.028644e+001 -1.452339e+002 -5.725628e+001 -9.164464e+001 1.580916e-002 4.044035e+000
278847656.25 -8.014688e-002 9.850159e+000 -6.082408e+001 -9.852599e+001 -5.192924e+001 1.023403e+002 8.448297e-002 3.270937e+000
281965625 -5.680295e-002 9.865125e+000 -5.158855e+001 -3.481813e+001 -6.949152e+001 -1.374787e+002 3.297277e-002 3.148414e+000
285083593.75 -1.574809e-002 1.008586e+001 -5.736039e+001 -1.718705e+002 -5.891563e+001 9.776374e+001 1.065604e-002 3.135219e+000
288201562.5 -4.527184e-002 9.941813e+000 -5.391780e+001 -1.542869e+002 -6.385868e+001 -8.266542e+001 1.063606e-002 3.617886e+000
291319531.25 -4.709288e-002 1.006731e+001 -5.802559e+001 1.378721e+002 -6.187077e+001 5.565087e+001 -4.954831e-002 3.302210e+000
294437500 -3.562173e-002 9.983881e+000 -6.152529e+001 9.009253e+001 -7.315275e+001 2.880327e+000 -6.323969e-002 3.748808e+000
297555468.75 -2.824128e-002 1.008758e+001 -6.245116e+001 -1.779996e+002 -5.684061e+001 -1.630665e+002 -2.356324e-002 3.644221e+000
300673437.5 -4.852439e-002 1.025452e+001 -6.015316e+001 -7.165133e+001 -6.829803e+001 -5.538864e+001 -5.098979e-002 3.707808e+000
303791406.25 -4.350594e-002 1.052216e+001 -6.001970e+001 3.657157e+001 -6.153223e+001 -1.807271e+001 -4.404473e-002 3.600507e+000
306909375 -3.716587e-002 1.053777e+001 -6.009885e+001 -1.577725e+002 -5.908127e+001 -1.284294e+002 -7.678577e-002 3.568952e+000
310027343.75 -4.748784e-002 1.060207e+001 -6.444006e+001 -2.091293e+001 -7.224930e+001 -1.211508e+002 -4.303318e-002 3.905625e+000
313145312.5 -2.417159e-002 1.083810e+001 -6.422607e+001 -5.759224e+001 -6.855077e+001 1.326608e+002 -5.207453e-002 3.681392e+000
316263281.25 -4.024819e-002 1.094518e+001 -5.855742e+001 1.679657e+002 -6.997893e+001 -1.305989e+002 -6.282088e-002 3.805899e+000
319381250 -2.193793e-002 1.095651e+001 -6.363874e+001 -1.539157e+002 -6.740639e+001 -9.722992e+001 -5.249840e-002 3.790119e+000
322499218.75 -3.002713e-002 1.096986e+001 -6.564341e+001 1.443925e+002 -7.651101e+001 -9.727805e+001 -6.849223e-002 3.861705e+000
325617187.5 -1.288734e-002 1.123945e+001 -6.261109e+001 1.629594e+002 -6.591110e+001 1.490949e+002 -5.578737e-002 4.047635e+000
328735156.25 -1.759516e-002 1.108051e+001 -6.554803e+001 -1.321784e+001 -6.789888e+001 3.750242e+001 -5.012757e-002 3.898396e+000
331853125 -4.528757e-002 1.138085e+001 -6.452134e+001 6.865839e+001 -6.174617e+001 1.382823e+002 -2.546549e-002 4.071897e+000
334971093.75 -3.050521e-002 1.143052e+001 -6.397403e+001 -1.747045e+000 -6.674029e+001 -1.259228e+002 -1.918285e-002 4.095472e+000
338089062.5 -6.208334e-002 1.183727e+001 -6.364838e+001 -1.035948e+002 -6.489526e+001 -3.750855e+001 -3.732168e-002 4.039133e+000
341207031.25 -3.631809e-002 1.176622e+001 -9.826955e+001 -1.113617e+002 -7.402803e+001 1.041503e+002 -1.877912e-002 4.198509e+000
344325000 -6.098006e-002 1.172011e+001 -6.891353e+001 1.563927e+002 -6.406340e+001 -9.769211e+001 -1.203188e-002 4.361621e+000
347442968.75 -2.756361e-002 1.184208e+001 -7.535938e+001 -1.257323e+002 -5.843428e+001 8.718298e+001 -4.394631e-002 4.517788e+000
350560937.5 -3.617961e-002 1.199433e+001 -6.797752e+001 -3.549199e+001 -7.105337e+001 -6.157666e+001 -4.236478e-002 4.464726e+000
353678906.25 -1.848762e-002 1.195208e+001 -6.582829e+001 1.766095e+000 -6.251280e+001 8.896579e+001 -7.976942e-003 4.752675e+000
356796875 -2.599748e-002 1.218303e+001 -6.564065e+001 1.448176e+002 -6.381116e+001 -8.996414e+000 -2.453870e-002 4.784346e+000
359914843.75 -3.187052e-002 1.231089e+001 -6.310984e+001 -7.256249e+001 -5.996527e+001 -1.297290e+002 -1.264683e-002 4.857546e+000
363032812.5 -4.135984e-002 1.248713e+001 -6.385473e+001 -6.093480e+000 -6.702258e+001 -8.615307e+001 -1.950885e-002 4.892734e+000
366150781.25 -6.047817e-002 1.250066e+001 -6.822984e+001 -1.837673e+001 -7.243756e+001 7.823715e+001 -8.351578e-003 5.031056e+000
369268750 -5.511989e-002 1.245857e+001 -5.493005e+001 1.359995e+002 -5.936949e+001 -7.956004e+001 -3.872208e-002 4.911388e+000
372386718.75 -5.841089e-002 1.262139e+001 -5.985902e+001 -1.153578e+002 -5.593028e+001 -1.025219e+002 7.792263e-003 4.993270e+000
375504687.5 -5.398386e-002 1.282389e+001 -6.638966e+001 -1.051329e+002 -6.173016e+001 1.076790e+002 6.236773e-003 5.227753e+000
378622656.25 -9.282780e-002 1.302735e+001 -7.280715e+001 -2.970261e+001 -6.075142e+001 2.699835e+001 -5.089517e-003 5.467909e+000
381740625 -5.889553e-002 1.301407e+001 -7.152414e+001 1.769944e+002 -6.891304e+001 7.942319e+001 -7.079427e-003 5.417518e+000
384858593.75 -6.055451e-002 1.321407e+001 -7.071732e+001 -2.579841e+001 -6.516567e+001 1.044461e+002 -1.023907e-002 5.313391e+000
387976562.5 -8.667891e-002 1.348210e+001 -6.569534e+001 -1.049373e+002 -7.973771e+001 -1.441681e+002 -9.343153e-004 5.367696e+000
391094531.25 -8.158880e-002 1.351839e+001 -8.081246e+001 1.477711e+002 -7.101908e+001 1.308387e+002 -1.103939e-002 5.508896e+000
394212500 -8.673669e-002 1.349123e+001 -6.699517e+001 6.155695e+001 -7.639233e+001 3.660683e+001 1.764390e-002 5.572689e+000
397330468.75 -8.616962e-002 1.370382e+001 -7.115259e+001 1.619179e+002 -7.149802e+001 1.890081e+001 2.618744e-003 5.485617e+000
400448437.5 -9.627415e-002 1.378510e+001 -5.859260e+001 -9.795705e+001 -6.644919e+001 -1.394797e+002 3.264901e-003 5.538776e+000
403566406.25 -8.170763e-002 1.391402e+001 -7.218491e+001 8.429536e+001 -6.906719e+001 6.680766e+001 2.516337e-002 5.631266e+000
406684375 -5.182577e-002 1.400198e+001 -7.067417e+001 1.383293e+002 -6.493472e+001 8.605390e+001 1.753685e-002 5.586177e+000
409802343.75 -5.231161e-002 1.392191e+001 -6.572046e+001 -3.287153e+001 -7.438053e+001 3.770111e+001 1.840676e-002 5.624617e+000
412920312.5 -3.837177e-002 1.411954e+001 -6.737791e+001 7.886675e+001 -7.011395e+001 -1.434004e+002 2.553663e-002 5.421439e+000
416038281.25 -6.936967e-002 1.417305e+001 -7.054594e+001 1.445370e+002 -7.499484e+001 -3.471209e+001 2.178713e-002 5.376959e+000
419156250 -5.447542e-002 1.419572e+001 -6.739602e+001 -1.725169e+002 -6.299434e+001 -1.542672e+002 1.452773e-002 5.537515e+000
422274218.75 -4.602940e-002 1.436233e+001 -6.343746e+001 -1.372284e+002 -6.560320e+001 -1.043491e+002 2.142086e-002 5.478946e+000
425392187.5 -4.287760e-002 1.450242e+001 -6.128947e+001 -1.014961e+002 -6.491522e+001 -4.109994e+000 2.762594e-002 5.688738e+000
428510156.25 -6.680862e-002 1.464053e+001 -6.373959e+001 -1.491070e+002 -6.669241e+001 -4.948212e+001 4.059563e-002 5.676459e+000
431628125 -7.494337e-002 1.473334e+001 -6.090265e+001 -1.608783e+002 -7.159869e+001 1.796287e+002 4.266063e-002 5.710719e+000
434746093.75 -7.740521e-002 1.489116e+001 -7.226235e+001 1.449576e+002 -6.468641e+001 9.039578e+001 3.667510e-002 5.695126e+000
437864062.5 -2.293899e-002 1.494745e+001 -6.481424e+001 -1.765321e+002 -6.791843e+001 9.564072e+001 2.564196e-002 5.654387e+000
440982031.25 -7.764944e-002 1.488908e+001 -6.522476e+001 1.527787e+002 -6.560374e+001 -7.752604e+001 2.216317e-002 5.682041e+000
444100000 -7.427844e-002 1.522853e+001 -6.415289e+001 9.831989e-001 -7.060300e+001 -1.393268e+002 4.725814e-002 5.594930e+000
447217968.75 -8.063143e-002 1.524720e+001 -5.881273e+001 -1.463666e+002 -7.201797e+001 1.281954e+002 -2.947349e-003 5.860592e+000
450335937.5 -9.169120e-002 1.544082e+001 -5.866186e+001 9.487287e+001 -6.959009e+001 4.689528e+001 3.367491e-002 5.818347e+000
453453906.25 -6.922305e-002 1.559359e+001 -6.387580e+001 -1.505927e+002 -6.507430e+001 2.184659e+001 3.184656e-002 5.636598e+000
456571875 -6.534148e-002 1.558485e+001 -6.600929e+001 -6.965179e+001 -7.367818e+001 1.053862e+002 1.781226e-002 5.615841e+000
459689843.75 -9.751495e-002 1.566495e+001 -7.615323e+001 -5.378810e+001 -6.863092e+001 -1.178217e+002 1.028195e-002 5.688271e+000
462807812.5 -1.002904e-001 1.594175e+001 -6.559297e+001 6.927114e+001 -7.138470e+001 -1.180352e+001 2.362223e-002 5.604974e+000
465925781.25 -1.204705e-001 1.601524e+001 -6.474390e+001 -1.661097e+002 -6.851622e+001 8.546734e+001 1.294351e-002 5.603539e+000
469043750 -8.738186e-002 1.611303e+001 -6.331577e+001 -7.061681e+001 -7.037924e+001 2.799085e+001 6.157742e-003 5.559724e+000
472161718.75 -8.665799e-002 1.616865e+001 -7.592241e+001 8.863039e+001 -8.097035e+001 5.744041e+001 7.070185e-003 5.591140e+000
475279687.5 -1.004698e-001 1.625355e+001 -6.363751e+001 1.345941e+002 -7.730101e+001 8.025275e+001 1.555397e-002 5.527735e+000
478397656.25 -8.418687e-002 1.638661e+001 -6.868283e+001 -1.878451e+001 -7.313317e+001 4.583501e+001 7.192641e-003 5.606445e+000
481515625 -7.975197e-002 1.638412e+001 -7.803137e+001 -1.442588e+002 -7.344363e+001 -1.992562e+001 -1.687345e-002 5.592358e+000
484633593.75 -6.783337e-002 1.654712e+001 -6.983807e+001 5.144696e+001 -6.703206e+001 1.759599e+002 -1.683193e-002 5.657732e+000
487751562.5 -6.000278e-002 1.667226e+001 -6.993248e+001 4.646938e+001 -7.445410e+001 1.264366e+002 -2.646571e-002 5.549634e+000
490869531.25 -5.007479e-002 1.678737e+001 -7.109734e+001 1.119961e+002 -6.524453e+001 -3.102349e+001 -4.103278e-002 5.545321e+000
493987500 -6.417624e-002 1.681671e+001 -6.963362e+001 -1.436835e+002 -7.218696e+001 -9.613429e+001 -2.632425e-002 5.728063e+000
497105468.75 -4.659770e-002 1.698061e+001 -7.688643e+001 1.139362e+002 -6.187783e+001 1.046769e+002 -3.736571e-002 5.761746e+000
500223437.5 -5.889022e-002 1.706180e+001 -6.252442e+001 4.524796e+001 -6.681864e+001 -1.253764e+001 -6.620517e-002 5.984149e+000
503341406.25 -6.302895e-002 1.725640e+001 -7.066112e+001 -5.813730e+001 -5.946204e+001 -1.091647e+002 -6.282955e-002 5.918447e+000
506459375 -6.878239e-002 1.744513e+001 -6.811674e+001 4.455914e+001 -6.456530e+001 -1.649526e+002 -6.106222e-002 6.013885e+000
509577343.75 -7.731147e-002 1.741607e+001 -7.687550e+001 9.612897e+001 -6.931583e+001 1.613771e+002 -5.746301e-002 5.908148e+000
512695312.5 -5.301221e-002 1.759768e+001 -7.125841e+001 1.002926e+002 -6.448235e+001 4.931816e+001 -3.718672e-002 6.033600e+000
515813281.25 -7.844180e-002 1.773146e+001 -6.300398e+001 -1.479195e+002 -8.600484e+001 2.868011e+001 -4.159982e-002 6.300494e+000
