!Agilent Technologies,E8364A,US41440322,A.04.87.01
!Agilent E8364A: A.04.87.01
!Date: Tuesday, July 16, 2024 12:09:29
!Correction: S11(Full 2 Port SOLT,1,2) S21(Full 2 Port SOLT,1,2) S12(Full 2 Port SOLT,1,2) S22(Full 2 Port SOLT,1,2)
!S2P File: Measurements: S11, S21, S12, S22:
# Hz S  dB   R 50
45000000 2.474766e-001 1.898536e+000 -3.278522e+001 -1.450546e+002 -3.313140e+001 -1.041084e+002 -1.580539e-001 -6.130561e-001
48117968.75 1.169602e-001 4.279203e+000 -3.889855e+001 1.295397e+002 -3.404650e+001 1.894885e+001 -3.169733e-001 -8.407306e-001
51235937.5 4.211671e-002 3.317141e+000 -3.327959e+001 1.090911e+002 -3.825765e+001 1.720896e+002 -1.210838e-001 -7.396097e-001
54353906.25 -6.829482e-002 1.347970e+000 -3.025520e+001 -1.555367e+002 -3.972950e+001 -3.872012e+001 1.534263e-001 3.594817e+000
57471875 -2.727652e-001 2.553164e-001 -3.024423e+001 -2.144804e+000 -4.300318e+001 1.927062e+001 -1.709766e-002 1.882979e+000
60589843.75 9.790863e-002 -9.862114e-002 -4.047681e+001 1.799374e+002 -3.518724e+001 -1.166880e+002 -4.763817e-002 2.641078e+000
63707812.5 -5.780835e-002 -9.987808e-001 -3.996071e+001 1.108779e+002 -3.703636e+001 8.833604e+000 -3.611839e-002 3.041211e+000
66825781.25 -5.992988e-002 -3.386079e-001 -3.640534e+001 -4.872683e+001 -4.417569e+001 1.420728e+002 7.701510e-002 3.090634e+000
69943750 4.466396e-002 -1.706326e-001 -3.758043e+001 5.906680e+001 -3.929245e+001 8.993308e+001 -6.752106e-003 2.456230e+000
73061718.75 8.101381e-002 -2.870212e-002 -5.414961e+001 1.416534e+002 -4.108933e+001 -1.711421e+002 -7.120758e-002 2.060701e+000
76179687.5 -3.533341e-003 4.921094e-001 -4.139928e+001 1.229249e+002 -4.526657e+001 1.084529e+002 -5.660665e-002 2.389895e+000
79297656.25 -8.061935e-002 7.147278e-001 -5.227301e+001 1.138725e+002 -6.957540e+001 6.633676e+001 -8.957310e-002 2.104533e+000
82415625 -1.355678e-001 1.828123e-001 -4.069640e+001 -2.626058e+001 -5.148891e+001 1.474244e+001 9.781900e-003 2.533303e+000
85533593.75 2.725987e-003 9.440837e-001 -5.200470e+001 1.751895e+002 -5.047675e+001 -1.442795e+002 1.165697e-001 2.565857e+000
88651562.5 -1.466123e-002 1.212626e+000 -4.245546e+001 1.480100e+002 -4.519628e+001 -1.573070e+002 5.834392e-003 3.161681e+000
91769531.25 -2.226150e-002 1.136659e+000 -5.132716e+001 9.458121e+001 -4.650000e+001 -1.202425e+002 -5.327941e-002 3.263424e+000
94887500 5.273109e-003 7.224118e-001 -4.877678e+001 -1.793129e+002 -4.886731e+001 1.155924e+002 -1.052906e-001 3.193208e+000
98005468.75 3.559380e-002 1.130005e+000 -5.229893e+001 -9.192851e+001 -6.650768e+001 -1.046992e+002 -2.540246e-002 3.564217e+000
101123437.5 -7.564901e-002 1.424463e+000 -4.814648e+001 -6.110742e+001 -5.807991e+001 8.054274e+001 -1.275187e-002 2.992302e+000
104241406.25 -2.983086e-002 1.131650e+000 -4.322157e+001 -1.108483e+002 -4.677740e+001 -3.457410e+001 -3.546876e-003 3.738165e+000
107359375 -6.416150e-002 6.711566e-001 -5.705993e+001 1.546390e+002 -4.950755e+001 -9.698944e+001 6.041733e-002 3.280970e+000
110477343.75 -4.815335e-002 1.514552e+000 -5.016314e+001 1.504795e+002 -4.576791e+001 -4.356477e+001 1.798571e-002 3.549695e+000
113595312.5 -3.742078e-002 1.558099e+000 -4.704517e+001 1.709940e+002 -4.611420e+001 -1.531022e+002 4.504220e-002 3.340640e+000
116713281.25 1.312013e-002 1.793938e+000 -4.726424e+001 -6.894820e+001 -5.290846e+001 -1.129780e+002 1.211099e-001 3.667763e+000
119831250 1.434987e-003 1.881850e+000 -5.047548e+001 6.364783e+001 -5.229345e+001 -3.638390e+001 5.589257e-002 3.600194e+000
122949218.75 4.898740e-002 1.619665e+000 -5.077141e+001 1.442952e+002 -5.471896e+001 -5.884834e+001 2.318642e-002 3.985219e+000
126067187.5 -1.072133e-002 1.754541e+000 -4.707316e+001 -9.093526e+001 -5.131450e+001 -6.191861e+000 1.532584e-002 4.395278e+000
129185156.25 6.405447e-002 1.436489e+000 -5.513666e+001 -7.260619e+000 -4.533971e+001 -1.202309e+002 5.374783e-002 4.196251e+000
132303125 3.333570e-002 1.827394e+000 -6.221558e+001 -1.176654e+002 -5.256580e+001 1.373047e+002 -5.740630e-003 4.609051e+000
135421093.75 -7.448548e-003 1.485664e+000 -5.649495e+001 -5.760112e+001 -5.153524e+001 7.058793e+000 -2.940052e-002 4.967491e+000
138539062.5 6.791690e-003 1.787418e+000 -5.149121e+001 -7.840189e+001 -5.121484e+001 -2.092897e+001 4.988894e-002 4.949884e+000
141657031.25 -2.247738e-002 1.850930e+000 -4.906262e+001 -1.064645e+002 -5.867570e+001 1.390215e+002 8.071719e-002 5.169554e+000
144775000 7.272786e-003 1.824615e+000 -5.043726e+001 -1.031123e+002 -4.445388e+001 1.020288e+002 9.873603e-002 5.451293e+000
147892968.75 7.064858e-003 1.973932e+000 -4.969012e+001 -1.211413e+002 -5.350771e+001 -1.549244e+002 9.254810e-003 5.379567e+000
151010937.5 1.514017e-002 1.712852e+000 -4.761162e+001 -1.369210e+002 -6.622073e+001 -9.373681e+001 1.351513e-002 5.650780e+000
154128906.25 3.328767e-002 2.123006e+000 -6.095119e+001 7.119736e+000 -5.033006e+001 1.138915e+001 4.799803e-003 5.535071e+000
157246875 1.634222e-002 2.008386e+000 -5.157483e+001 -6.949811e+001 -5.379490e+001 1.318658e+002 8.867479e-003 5.353426e+000
160364843.75 2.880662e-002 1.748965e+000 -5.811271e+001 -2.730688e+001 -5.871434e+001 1.700606e+002 1.075402e-002 5.423820e+000
163482812.5 -7.433740e-003 1.757055e+000 -6.136939e+001 -1.402773e+002 -6.425794e+001 1.185153e+002 5.406908e-002 5.654542e+000
166600781.25 -4.113399e-002 2.020308e+000 -5.976626e+001 8.293747e+001 -5.551170e+001 -2.121078e+001 4.461229e-002 5.764345e+000
169718750 -3.774955e-002 1.998940e+000 -5.657079e+001 3.297133e+001 -6.103165e+001 2.631781e+001 4.605472e-002 5.846243e+000
172836718.75 -1.564725e-002 2.028613e+000 -6.227604e+001 1.375702e+002 -6.411259e+001 1.294654e+002 3.634809e-002 6.072875e+000
175954687.5 2.981771e-002 2.100083e+000 -5.678588e+001 -1.665134e+002 -5.737576e+001 -6.332315e+001 7.244245e-003 6.225761e+000
179072656.25 -2.338965e-003 2.066654e+000 -6.141092e+001 1.422495e+001 -5.530925e+001 -1.390792e+002 4.241159e-002 6.471512e+000
182190625 -1.153020e-002 2.076340e+000 -5.536230e+001 -1.390278e+002 -6.946259e+001 9.919967e+001 8.476085e-002 6.318379e+000
185308593.75 3.956334e-002 2.341081e+000 -5.260238e+001 -6.260979e+000 -5.565064e+001 -1.239415e+002 1.101130e-001 6.626570e+000
188426562.5 -6.191799e-003 2.381116e+000 -5.621035e+001 8.226454e+001 -5.087245e+001 4.102946e+001 4.421977e-002 6.483037e+000
191544531.25 -4.702192e-003 2.286119e+000 -6.321895e+001 -4.160097e+001 -5.668446e+001 8.548380e+001 8.538695e-002 6.828480e+000
194662500 -5.762903e-003 2.406166e+000 -5.895386e+001 1.760815e+002 -6.935869e+001 -1.630903e+000 1.385464e-001 6.716316e+000
197780468.75 -4.921990e-002 2.519863e+000 -5.878971e+001 -1.072374e+001 -6.136510e+001 1.186077e+002 1.216997e-001 6.989935e+000
200898437.5 -5.271849e-004 2.140960e+000 -5.361236e+001 9.598430e+001 -5.602213e+001 9.788319e+001 1.391200e-001 7.284439e+000
204016406.25 -3.325786e-002 2.540656e+000 -5.754550e+001 4.096113e+001 -5.071611e+001 7.569385e+001 3.334234e-002 7.232877e+000
207134375 -1.279738e-003 2.545893e+000 -5.195752e+001 7.396412e+001 -6.489099e+001 -1.360848e+002 -2.451972e-002 7.250711e+000
210252343.75 3.763983e-003 2.293802e+000 -5.107764e+001 1.199905e+002 -5.392768e+001 9.630260e+001 2.120265e-002 7.723749e+000
213370312.5 -1.066969e-002 2.629520e+000 -7.391006e+001 -1.285753e+002 -5.816005e+001 -1.730682e+002 1.001728e-001 7.543646e+000
216488281.25 3.248872e-003 2.559582e+000 -5.299601e+001 -6.688702e+001 -5.438945e+001 1.237076e+002 7.126406e-002 7.752359e+000
219606250 -4.001539e-002 2.705378e+000 -5.601228e+001 7.416563e+001 -5.900155e+001 -1.367616e+002 6.629006e-002 7.923162e+000
222724218.75 -3.614763e-002 2.769484e+000 -6.318404e+001 -1.088123e+002 -5.790675e+001 -6.802953e+001 8.244368e-002 8.029655e+000
225842187.5 -2.228485e-002 2.825435e+000 -5.304330e+001 -1.315453e+002 -6.359623e+001 -2.592820e+000 2.850991e-002 8.285767e+000
228960156.25 -2.397760e-002 2.937967e+000 -7.033498e+001 3.402380e+001 -5.825771e+001 -1.152456e+002 4.089702e-002 7.970603e+000
232078125 -1.704102e-003 2.914638e+000 -5.951802e+001 -3.756618e+001 -7.783103e+001 -1.548876e+002 6.838158e-002 7.995408e+000
235196093.75 -1.638289e-002 2.638116e+000 -6.671475e+001 9.346099e+001 -5.785348e+001 3.229987e+001 4.953014e-002 7.769089e+000
238314062.5 -4.794056e-002 2.621536e+000 -6.482603e+001 -1.741607e+001 -6.757877e+001 -6.077741e+001 5.245099e-002 8.216829e+000
241432031.25 -6.391568e-002 3.629282e+000 -5.684289e+001 9.953923e+001 -5.653975e+001 -9.448151e+001 5.078088e-002 8.118878e+000
244550000 -7.485116e-002 4.127869e+000 -5.561298e+001 4.946884e+001 -6.968764e+001 5.034283e+001 3.534004e-002 7.974437e+000
247667968.75 1.477144e-002 3.208044e+000 -5.729739e+001 5.445907e+001 -7.085534e+001 4.769107e+001 4.562809e-002 8.415785e+000
250785937.5 -1.412499e-002 3.036177e+000 -5.620978e+001 -1.203456e+002 -7.112703e+001 -2.689069e+001 7.510550e-003 8.620568e+000
253903906.25 -2.146096e-002 2.989675e+000 -5.237773e+001 3.995979e+000 -6.662795e+001 -1.224127e+002 4.891409e-002 8.658384e+000
257021875 2.519588e-002 2.855757e+000 -5.727425e+001 1.266868e+002 -5.564849e+001 9.913523e-001 1.199231e-001 8.175800e+000
260139843.75 3.096225e-002 2.394042e+000 -6.496714e+001 -2.868063e+001 -6.178667e+001 6.528126e+001 8.178061e-002 7.923476e+000
263257812.5 -1.364388e-002 2.861408e+000 -5.442687e+001 6.344098e+000 -5.562129e+001 -9.572626e+001 -1.590495e-002 8.712851e+000
266375781.25 -6.947891e-003 2.404768e+000 -6.316069e+001 6.462007e+000 -5.684135e+001 -1.464932e+001 -1.309655e-001 9.514447e+000
269493750 -9.986286e-003 2.450621e+000 -5.489531e+001 -9.873299e+001 -6.452825e+001 1.545438e+002 -9.328464e-002 1.016192e+001
272611718.75 -9.059477e-002 3.657562e+000 -6.467484e+001 1.450837e+002 -6.300113e+001 5.860332e+001 -1.527262e-002 9.756740e+000
275729687.5 -1.099469e-001 3.934784e+000 -5.831328e+001 5.972679e+001 -5.742374e+001 -1.168751e+002 8.965646e-002 1.010814e+001
278847656.25 -7.047029e-002 3.903870e+000 -5.448979e+001 6.741596e+001 -6.583051e+001 1.766973e+001 1.282281e-001 9.208135e+000
281965625 -3.935751e-002 4.061463e+000 -6.689971e+001 -1.439493e+002 -5.205769e+001 1.085007e+002 9.729041e-002 9.242105e+000
285083593.75 -2.617382e-003 4.103848e+000 -5.513095e+001 1.234656e+002 -5.694395e+001 2.335247e+001 1.237476e-001 9.247782e+000
288201562.5 -7.826975e-003 3.765733e+000 -5.792461e+001 1.523203e+002 -6.517485e+001 3.004263e+001 8.573569e-002 9.544353e+000
291319531.25 -4.734708e-002 3.854270e+000 -5.730976e+001 -1.064418e+002 -5.387243e+001 -1.578145e+002 3.427687e-002 9.580966e+000
294437500 -4.094175e-002 3.874819e+000 -5.444145e+001 -4.332526e+000 -5.759748e+001 2.318626e+001 3.200682e-002 9.995319e+000
297555468.75 -1.270473e-002 3.879610e+000 -5.684078e+001 -5.875741e+001 -6.034007e+001 -1.699062e+002 3.772688e-002 1.003838e+001
300673437.5 -1.597315e-002 3.949956e+000 -6.402236e+001 -1.473086e+002 -6.173153e+001 -4.738420e+001 6.685404e-002 9.962501e+000
303791406.25 -2.292785e-002 4.022879e+000 -5.386042e+001 -1.172788e+002 -6.124999e+001 -1.097554e+002 3.498516e-002 1.026884e+001
306909375 -2.494353e-002 4.104599e+000 -6.184277e+001 1.057396e+002 -6.979368e+001 -1.249601e+002 2.245311e-002 1.033669e+001
310027343.75 -1.566987e-002 4.044162e+000 -6.245726e+001 7.763329e+001 -6.130302e+001 -6.818865e+001 4.531927e-002 1.040512e+001
313145312.5 -1.730570e-002 4.281516e+000 -6.021606e+001 1.075881e+002 -6.858348e+001 7.856895e+001 3.207246e-002 1.018372e+001
316263281.25 -2.402568e-002 4.275595e+000 -6.839930e+001 -7.621824e+001 -6.857536e+001 1.535512e+002 1.786218e-002 1.056066e+001
319381250 -2.626920e-002 4.256720e+000 -6.442994e+001 -6.813435e+001 -8.265123e+001 -3.540321e+001 2.901892e-002 1.073664e+001
322499218.75 -4.408217e-003 4.251643e+000 -7.407745e+001 -6.161153e+001 -6.889837e+001 3.361898e+000 2.604617e-002 1.068003e+001
325617187.5 -2.340632e-002 4.250524e+000 -7.059295e+001 -2.091898e+001 -6.760960e+001 -4.300119e+001 2.191334e-002 1.080469e+001
328735156.25 -2.018138e-002 4.385524e+000 -6.272148e+001 1.226213e+002 -6.808003e+001 1.708949e+002 4.089195e-002 1.095859e+001
331853125 -2.492034e-002 4.340456e+000 -6.958980e+001 1.614822e+001 -6.808347e+001 1.257029e+002 5.570006e-002 1.119792e+001
334971093.75 -3.280277e-002 4.387701e+000 -6.454506e+001 -1.537435e+001 -6.596531e+001 -1.662597e+002 4.857733e-002 1.119081e+001
338089062.5 -3.624448e-002 4.534777e+000 -6.918497e+001 -9.546274e+001 -7.018764e+001 -2.136256e+001 6.447359e-002 1.132043e+001
341207031.25 -3.148288e-002 4.528216e+000 -6.227746e+001 1.360845e+002 -6.622059e+001 -3.484453e+000 5.888367e-002 1.144817e+001
344325000 -2.489688e-002 4.319183e+000 -5.876326e+001 8.769000e+001 -6.329550e+001 -1.255322e+002 4.336026e-002 1.155583e+001
347442968.75 -3.432164e-002 4.463727e+000 -6.873241e+001 4.459308e+001 -6.308176e+001 4.590250e+001 6.257833e-002 1.197035e+001
350560937.5 -3.517477e-004 4.589612e+000 -6.266007e+001 1.435450e+001 -6.445037e+001 1.240613e+002 5.425233e-002 1.200366e+001
353678906.25 -1.580533e-002 4.562640e+000 -6.313581e+001 -1.490434e+002 -6.162080e+001 -5.247720e+001 3.535910e-002 1.224825e+001
356796875 -2.450879e-002 4.517294e+000 -7.726940e+001 4.864570e+001 -6.010667e+001 -1.718332e+001 5.289040e-002 1.241645e+001
359914843.75 -4.265103e-002 4.860993e+000 -6.905576e+001 1.188548e+002 -7.173658e+001 5.883343e+000 3.188852e-002 1.240011e+001
363032812.5 -3.621296e-002 4.771196e+000 -6.676392e+001 1.438874e+002 -6.937294e+001 -1.043152e+002 5.415438e-002 1.248731e+001
366150781.25 -3.725142e-002 4.854326e+000 -7.322356e+001 -4.020670e+001 -6.253097e+001 -1.851218e+001 8.774275e-002 1.264904e+001
369268750 -6.288338e-002 4.914552e+000 -5.619282e+001 4.704404e+001 -6.773943e+001 -1.364412e+002 6.426930e-002 1.264233e+001
372386718.75 -1.644167e-002 4.852639e+000 -6.524466e+001 -6.818324e+001 -6.967379e+001 -1.776848e+002 8.195613e-002 1.299814e+001
375504687.5 -3.402984e-002 5.035224e+000 -6.004308e+001 -1.252331e+002 -6.747018e+001 9.232250e+001 5.748947e-002 1.318394e+001
378622656.25 -7.364721e-002 4.729886e+000 -6.473277e+001 -7.629045e+001 -6.983376e+001 1.776330e+002 1.382906e-002 1.335893e+001
381740625 -6.087033e-002 5.086634e+000 -5.983554e+001 -1.197861e+002 -6.052520e+001 1.614666e+002 5.255099e-002 1.349084e+001
384858593.75 -4.720366e-002 5.079884e+000 -7.596815e+001 1.089810e+002 -6.090235e+001 2.327435e+001 5.098977e-002 1.346824e+001
387976562.5 -6.469708e-002 5.287259e+000 -6.754694e+001 1.894366e+001 -7.054600e+001 -1.704893e+002 4.330579e-002 1.366257e+001
391094531.25 -4.686740e-002 5.236746e+000 -6.868478e+001 8.827434e+001 -7.086880e+001 1.795302e+002 5.035784e-002 1.373464e+001
394212500 -6.139630e-002 5.183285e+000 -6.207517e+001 -8.296018e+001 -6.835712e+001 1.348087e+002 3.616330e-002 1.372437e+001
397330468.75 -6.396014e-002 5.212204e+000 -6.460944e+001 1.697391e+002 -6.256670e+001 7.758346e+001 3.148126e-002 1.385298e+001
400448437.5 -6.057964e-002 5.282640e+000 -7.551366e+001 -8.991424e+001 -7.004847e+001 -9.816059e+001 4.867552e-002 1.407120e+001
403566406.25 -5.833472e-002 5.493691e+000 -6.794430e+001 5.732020e+001 -7.519273e+001 -1.665183e+002 5.330554e-002 1.415355e+001
406684375 -2.681631e-002 5.343926e+000 -6.505889e+001 8.831774e+001 -6.646360e+001 1.480045e+002 4.770608e-002 1.415329e+001
409802343.75 -3.661293e-002 5.313507e+000 -6.207833e+001 -1.506419e+002 -6.863240e+001 9.641660e+001 6.399313e-002 1.419389e+001
412920312.5 -4.395884e-002 5.374001e+000 -7.303365e+001 9.553412e+001 -7.404458e+001 -1.112306e+002 5.165143e-002 1.424928e+001
416038281.25 -3.509079e-002 5.464958e+000 -6.364433e+001 1.278622e+002 -6.417011e+001 -1.241729e+002 3.145556e-002 1.430052e+001
419156250 -2.594416e-002 5.431594e+000 -6.810298e+001 -1.701877e+001 -7.291547e+001 -1.257792e+002 1.806756e-002 1.434266e+001
422274218.75 -4.552711e-002 5.507913e+000 -6.713430e+001 -1.218584e+002 -6.959857e+001 3.673106e+001 5.401207e-002 1.441945e+001
425392187.5 -6.366505e-002 5.556265e+000 -6.472699e+001 -1.254220e+002 -6.810324e+001 5.748737e+001 4.930774e-002 1.482063e+001
428510156.25 -9.115076e-002 5.549533e+000 -6.509663e+001 -2.904456e+001 -6.768001e+001 -6.960276e+001 5.628433e-002 1.502316e+001
431628125 -8.106051e-002 5.748930e+000 -7.338099e+001 -8.146577e+001 -6.118469e+001 8.777059e+001 5.974212e-002 1.501965e+001
434746093.75 -4.996498e-002 5.795391e+000 -6.057855e+001 1.179616e+002 -6.059442e+001 -1.897416e+001 3.545973e-002 1.494960e+001
437864062.5 -3.095361e-002 5.581880e+000 -7.385336e+001 4.872865e+001 -6.816763e+001 8.852134e+001 6.781912e-002 1.503601e+001
440982031.25 -6.356665e-002 5.806768e+000 -7.986263e+001 -4.713923e+001 -7.235326e+001 -3.705444e+001 6.714584e-002 1.499228e+001
444100000 -5.985329e-002 5.625343e+000 -7.048737e+001 -5.052763e+001 -7.031992e+001 -6.200209e+001 5.217635e-002 1.504486e+001
447217968.75 -5.732945e-002 5.818496e+000 -6.353650e+001 -1.107967e+002 -5.753131e+001 4.926255e+001 5.050189e-002 1.536863e+001
450335937.5 -7.837057e-002 6.061843e+000 -6.270998e+001 -1.542481e+002 -7.011071e+001 1.064879e+002 4.309895e-002 1.529249e+001
453453906.25 -6.110674e-002 5.936245e+000 -6.696152e+001 -1.626905e+002 -6.031176e+001 -1.720635e+002 3.855360e-002 1.517433e+001
456571875 -4.845215e-002 6.032464e+000 -6.895861e+001 6.520582e+001 -6.880367e+001 1.116997e+002 4.818113e-002 1.541000e+001
459689843.75 -7.220694e-002 5.978695e+000 -7.958620e+001 8.134142e+001 -6.727444e+001 6.608775e+001 3.740709e-002 1.553559e+001
462807812.5 -8.111373e-002 6.260377e+000 -6.217027e+001 6.375713e+001 -6.098740e+001 1.129846e+002 4.739248e-002 1.547317e+001
465925781.25 -8.584277e-002 6.178813e+000 -6.504092e+001 1.701912e+002 -7.434786e+001 9.092278e+001 5.205267e-002 1.564414e+001
469043750 -8.321968e-002 6.303470e+000 -6.973216e+001 3.050398e+001 -6.479876e+001 -1.387103e+001 6.230959e-002 1.558634e+001
472161718.75 -6.762470e-002 6.162450e+000 -6.234510e+001 -1.137151e+002 -6.902665e+001 1.557182e+002 6.234834e-002 1.569911e+001
475279687.5 -5.753940e-002 6.252509e+000 -7.011731e+001 1.346027e+001 -7.454936e+001 3.874431e+001 4.545134e-002 1.576469e+001
478397656.25 -6.117306e-002 6.106681e+000 -8.539705e+001 -2.746989e+001 -7.226099e+001 -1.700913e+001 4.978817e-002 1.588927e+001
481515625 -5.840426e-002 6.305743e+000 -7.748933e+001 -1.444328e+002 -8.118275e+001 1.793000e+002 6.329232e-002 1.581676e+001
484633593.75 -5.936057e-002 6.325730e+000 -7.308222e+001 -1.622955e+002 -8.371520e+001 -1.774011e+002 5.070883e-002 1.593711e+001
487751562.5 -5.372521e-002 6.502643e+000 -7.380977e+001 -7.364920e+001 -7.079644e+001 2.978618e+000 4.449305e-002 1.599305e+001
490869531.25 -3.477666e-002 6.442441e+000 -6.767608e+001 3.152187e+001 -7.152017e+001 4.417799e+001 6.984089e-002 1.598835e+001
493987500 -1.945091e-002 6.493422e+000 -7.043990e+001 -5.438926e+001 -7.007579e+001 -8.296725e+001 6.361123e-002 1.622938e+001
497105468.75 -3.777331e-002 6.480369e+000 -6.510474e+001 -6.052140e+001 -7.030084e+001 1.277536e+001 2.804971e-002 1.636739e+001
500223437.5 -3.258229e-002 6.623055e+000 -7.678545e+001 3.516080e+001 -6.885519e+001 -4.168459e+001 3.229398e-002 1.646103e+001
503341406.25 -5.758546e-002 6.547900e+000 -6.714080e+001 7.328952e+001 -6.794809e+001 -8.024194e+001 3.655532e-002 1.651706e+001
506459375 -4.637836e-002 6.806057e+000 -6.353484e+001 1.866260e+001 -6.885880e+001 -4.402019e+001 3.966456e-002 1.665137e+001
509577343.75 -5.065164e-002 6.729652e+000 -6.625269e+001 -2.490491e+001 -7.044568e+001 4.724131e+001 2.953674e-002 1.707613e+001
512695312.5 -5.657603e-002 6.818637e+000 -6.539217e+001 9.866264e+000 -6.792843e+001 -5.764161e+001 4.070917e-002 1.684133e+001
515813281.25 -3.886443e-002 6.867171e+000 -7.457538e+001 4.944693e+001 -6.944950e+001 1.489782e+002 2.805553e-002 1.706215e+001
