!Agilent Technologies,E8364A,US41440322,A.04.87.01
!Agilent E8364A: A.04.87.01
!Date: Tuesday, July 16, 2024 12:10:31
!Correction: S11(Full 2 Port SOLT,1,2) S21(Full 2 Port SOLT,1,2) S12(Full 2 Port SOLT,1,2) S22(Full 2 Port SOLT,1,2)
!S2P File: Measurements: S11, S21, S12, S22:
# Hz S  dB   R 50
45000000 -1.062775e-001 -1.798672e+002 -3.908155e+001 2.415413e+001 -3.057512e+001 -9.411500e+001 -3.738041e-001 9.819738e-001
48117968.75 8.203547e-002 1.794487e+002 -3.753092e+001 6.596948e+000 -3.391438e+001 1.187561e+002 1.436986e-001 -5.174426e-001
51235937.5 -1.114432e-001 -1.791283e+002 -3.888541e+001 1.691433e+002 -4.134249e+001 -2.740094e+000 -2.328046e-001 -1.759093e+000
54353906.25 -5.373609e-002 -1.795935e+002 -3.654464e+001 -1.430405e+002 -4.513366e+001 -1.424731e+002 1.102031e-003 1.842883e+000
57471875 -2.672303e-001 -1.799922e+002 -3.481599e+001 -3.929891e+001 -4.138436e+001 1.656214e+002 -2.009647e-001 6.564685e-001
60589843.75 -2.970289e-001 -1.796176e+002 -5.374977e+001 1.062845e+002 -3.618239e+001 -5.518683e+001 -4.640113e-002 1.854857e+000
63707812.5 -2.809136e-003 -1.794362e+002 -4.156969e+001 -1.130072e+001 -4.068093e+001 1.788958e+002 -5.373802e-002 2.554870e+000
66825781.25 -9.795991e-002 -1.789765e+002 -4.732790e+001 -1.121205e+002 -3.756327e+001 1.620544e+002 1.141029e-001 2.537420e+000
69943750 -1.766160e-001 -1.796091e+002 -3.573438e+001 -1.299533e+002 -4.275667e+001 -1.401062e+002 3.173469e-002 1.587530e+000
73061718.75 -3.179485e-002 -1.792033e+002 -3.851867e+001 -9.012375e+001 -4.172552e+001 -8.637694e+001 -1.170343e-001 1.835902e+000
76179687.5 5.275415e-002 -1.795270e+002 -3.870161e+001 -1.075840e+002 -4.401062e+001 -5.912241e+001 -9.215695e-002 2.104103e+000
79297656.25 2.371433e-002 -1.787559e+002 -4.723866e+001 -8.925573e+001 -4.233071e+001 -1.366801e+002 7.521473e-003 2.121579e+000
82415625 4.782511e-002 -1.784295e+002 -3.997393e+001 2.063477e+001 -4.558736e+001 1.404429e+002 4.737564e-002 2.292763e+000
85533593.75 -3.200985e-002 -1.787936e+002 -5.465247e+001 7.394101e+001 -4.903545e+001 1.236433e+002 7.595637e-002 2.857019e+000
88651562.5 -5.904276e-002 -1.794334e+002 -4.595898e+001 2.964735e+000 -4.383474e+001 1.558227e+002 -8.056719e-002 2.839610e+000
91769531.25 3.022850e-002 -1.795197e+002 -4.841456e+001 6.712270e+001 -4.903217e+001 -3.296133e+001 -8.877590e-002 3.017326e+000
94887500 -1.459215e-001 -1.786874e+002 -4.765746e+001 -1.262490e+002 -4.765160e+001 -1.985330e+001 -4.965349e-002 3.194271e+000
98005468.75 -6.485171e-002 -1.786161e+002 -4.480093e+001 -1.737711e+002 -4.755750e+001 -1.650079e+002 -1.103519e-001 3.106237e+000
101123437.5 -1.444690e-001 -1.786465e+002 -5.265844e+001 1.257995e+002 -4.894996e+001 1.519700e+002 -1.589583e-002 3.169622e+000
104241406.25 -6.372870e-002 -1.787410e+002 -5.791192e+001 -4.978098e+001 -5.265726e+001 1.116623e+002 -1.817733e-002 3.146235e+000
107359375 -8.942527e-002 -1.787336e+002 -5.294707e+001 -1.056030e+002 -5.228958e+001 5.395169e+001 -6.577131e-002 3.328124e+000
110477343.75 -8.664619e-002 -1.787001e+002 -4.941275e+001 -6.766527e+001 -5.063250e+001 -1.803804e+001 2.400466e-002 3.537776e+000
113595312.5 -6.832203e-002 -1.789136e+002 -4.599306e+001 1.433578e+002 -5.007824e+001 9.967022e+001 1.372914e-001 3.856037e+000
116713281.25 -8.999220e-002 -1.784471e+002 -4.606633e+001 1.352670e+002 -6.593382e+001 1.792654e+002 3.932143e-002 3.973867e+000
119831250 -8.198143e-003 -1.782586e+002 -4.865658e+001 -7.582210e+001 -4.600192e+001 5.291392e+001 5.229709e-002 4.003006e+000
122949218.75 -6.534817e-002 -1.784138e+002 -4.813238e+001 9.467973e+001 -6.081106e+001 8.855999e+001 5.527426e-002 4.346287e+000
126067187.5 -2.524633e-002 -1.787283e+002 -4.848145e+001 4.926043e+001 -4.531917e+001 1.993797e+001 -1.212313e-002 4.183680e+000
129185156.25 -4.013897e-002 -1.786850e+002 -5.484360e+001 5.836451e+001 -4.992003e+001 1.193164e+002 -6.133104e-002 4.623576e+000
132303125 -7.133496e-002 -1.784261e+002 -5.070259e+001 1.356111e+002 -5.689667e+001 7.058387e+001 3.265413e-002 4.850722e+000
135421093.75 -6.831871e-002 -1.781797e+002 -5.338158e+001 6.429044e+001 -5.045008e+001 -1.062009e+002 -4.741932e-002 4.842455e+000
138539062.5 -8.139616e-002 -1.783499e+002 -5.020557e+001 -1.747533e+002 -4.992987e+001 -5.562027e+001 3.174007e-002 5.045454e+000
141657031.25 -5.249334e-002 -1.783884e+002 -5.109817e+001 2.223786e+001 -5.365999e+001 -9.540369e+000 1.288574e-002 5.038149e+000
144775000 -8.024757e-002 -1.781376e+002 -4.942334e+001 1.010955e+002 -5.198343e+001 9.755445e+001 2.339453e-002 5.075325e+000
147892968.75 -5.078114e-002 -1.782441e+002 -4.665667e+001 1.147582e+002 -5.419470e+001 2.496018e+001 -2.130174e-002 5.207619e+000
151010937.5 -3.698992e-002 -1.780458e+002 -5.347335e+001 1.702980e+002 -5.214467e+001 -1.466500e+002 -1.001561e-002 5.569746e+000
154128906.25 -4.395446e-002 -1.781073e+002 -6.172131e+001 5.948715e+001 -7.061268e+001 -3.353576e+001 -2.008908e-002 5.451764e+000
157246875 -1.948284e-002 -1.779622e+002 -5.174924e+001 1.553125e+002 -5.723017e+001 1.148498e+002 -7.553277e-003 5.439866e+000
160364843.75 -1.679932e-003 -1.780132e+002 -6.805992e+001 -1.629706e+002 -5.412954e+001 3.943203e+001 -3.550770e-003 5.073110e+000
163482812.5 -5.582068e-002 -1.784338e+002 -5.444092e+001 2.243572e+001 -5.900889e+001 -8.068536e+001 1.534061e-002 5.640824e+000
166600781.25 -1.594845e-002 -1.781554e+002 -5.116044e+001 1.697096e+002 -6.258847e+001 -8.577866e+001 9.712805e-003 5.525490e+000
169718750 9.181091e-004 -1.778616e+002 -5.241439e+001 -1.000444e+002 -6.253141e+001 2.913029e+001 3.063719e-002 5.871250e+000
172836718.75 -2.111696e-003 -1.777025e+002 -6.669946e+001 -1.239870e+002 -6.022957e+001 -6.373790e+001 -1.075087e-002 6.029674e+000
175954687.5 2.608302e-002 -1.776535e+002 -5.119054e+001 3.934355e+001 -5.220144e+001 -8.279427e+001 1.388132e-002 6.322378e+000
179072656.25 -4.788068e-004 -1.773398e+002 -6.155114e+001 -1.680141e+002 -5.797129e+001 -1.183696e+002 2.683567e-002 6.496494e+000
182190625 -4.476368e-002 -1.772806e+002 -5.481589e+001 1.252325e+002 -6.535102e+001 -1.267593e+002 7.943181e-002 6.836617e+000
185308593.75 1.654958e-002 -1.775003e+002 -6.544450e+001 6.455628e+001 -5.880550e+001 1.074889e+002 9.612373e-002 6.390063e+000
188426562.5 1.004621e-002 -1.774835e+002 -5.418084e+001 -1.884105e+001 -5.377790e+001 -1.298050e+002 9.069575e-002 6.590861e+000
191544531.25 -5.488174e-003 -1.775247e+002 -6.190704e+001 7.286468e+001 -5.589383e+001 -6.284165e+001 4.052451e-002 6.627961e+000
194662500 -3.720391e-002 -1.774534e+002 -5.487457e+001 1.441574e+002 -6.945734e+001 1.670284e+002 6.322673e-002 6.722353e+000
197780468.75 -4.918412e-002 -1.774033e+002 -5.602196e+001 1.179170e+002 -5.785790e+001 -8.147378e+000 1.038130e-001 7.041208e+000
200898437.5 -1.759204e-002 -1.775993e+002 -6.154907e+001 4.722691e+001 -5.267097e+001 6.312059e+001 1.161240e-001 7.414737e+000
204016406.25 -1.904516e-002 -1.774789e+002 -5.966402e+001 9.686870e+001 -5.794671e+001 5.666467e+001 7.569373e-002 7.362138e+000
207134375 -4.394088e-003 -1.775002e+002 -6.099623e+001 -1.442287e+002 -4.917007e+001 -5.480026e+001 -5.031798e-003 7.323513e+000
210252343.75 1.085494e-002 -1.774830e+002 -5.397555e+001 5.260677e+001 -6.086214e+001 8.944215e+001 5.252264e-002 7.741212e+000
213370312.5 6.096329e-003 -1.777874e+002 -5.468164e+001 -1.115690e+002 -5.669063e+001 -2.961449e+001 2.502265e-002 7.369301e+000
216488281.25 -6.371554e-003 -1.774095e+002 -5.650928e+001 1.581092e+002 -5.405342e+001 8.017391e+001 6.317139e-002 7.776002e+000
219606250 2.083169e-002 -1.775635e+002 -6.409942e+001 1.676125e+002 -6.454115e+001 1.351577e+002 8.962813e-002 7.855142e+000
222724218.75 3.721811e-002 -1.774880e+002 -6.360632e+001 1.664664e+002 -5.608400e+001 9.072250e+001 7.020114e-002 8.119112e+000
225842187.5 3.123458e-002 -1.772462e+002 -5.399679e+001 1.341665e+002 -5.160855e+001 -1.165760e+002 8.150835e-002 7.961505e+000
228960156.25 -5.391712e-004 -1.775025e+002 -6.406712e+001 1.248865e+002 -6.388211e+001 -5.067969e+001 4.668572e-002 8.200541e+000
232078125 -1.898031e-002 -1.770386e+002 -6.213074e+001 -1.767173e+002 -6.100724e+001 8.852973e+001 2.793979e-002 8.083638e+000
235196093.75 5.866029e-003 -1.772627e+002 -5.407542e+001 9.424568e+001 -6.227508e+001 -9.376807e+001 2.378670e-002 8.039515e+000
238314062.5 -2.739844e-002 -1.770244e+002 -6.471496e+001 -1.125288e+001 -6.486986e+001 -1.480864e+001 3.628406e-002 8.174629e+000
241432031.25 -6.869268e-002 -1.759109e+002 -5.257079e+001 1.824154e+001 -6.391034e+001 8.929901e+001 6.254105e-002 8.224760e+000
244550000 -3.491364e-002 -1.758241e+002 -6.543167e+001 -4.152431e+001 -5.822937e+001 -1.063437e+002 4.827943e-002 7.967698e+000
247667968.75 7.333812e-005 -1.765991e+002 -6.128494e+001 5.880843e+000 -6.611633e+001 -8.464581e+000 2.478920e-002 8.389157e+000
250785937.5 1.339063e-002 -1.764171e+002 -5.492312e+001 1.096234e+002 -5.976039e+001 8.331772e+001 -1.137617e-002 8.597165e+000
253903906.25 2.224843e-002 -1.765656e+002 -5.559638e+001 6.108168e+001 -5.692055e+001 1.153674e+002 7.587302e-002 8.567104e+000
257021875 6.521369e-002 -1.768312e+002 -7.063856e+001 1.392929e+002 -6.163860e+001 1.170116e+002 8.894688e-002 8.128495e+000
260139843.75 5.832116e-002 -1.768160e+002 -5.042296e+001 1.219377e+002 -5.820189e+001 4.747754e+001 7.088386e-002 7.952207e+000
263257812.5 4.953356e-002 -1.768103e+002 -7.034772e+001 -1.094493e+002 -6.711918e+001 -9.129028e+001 2.427835e-002 8.806734e+000
266375781.25 2.906580e-002 -1.778188e+002 -5.449664e+001 3.831556e+001 -6.854854e+001 6.706947e+000 -1.767279e-001 9.625076e+000
269493750 8.982145e-003 -1.772346e+002 -6.141295e+001 -1.277330e+002 -6.372350e+001 -1.089517e+002 -1.239068e-001 9.801032e+000
272611718.75 -5.354717e-002 -1.763792e+002 -6.257568e+001 2.955086e+001 -5.722411e+001 -1.296902e+002 -2.232766e-002 9.710667e+000
275729687.5 -5.205618e-002 -1.763018e+002 -6.208907e+001 3.671633e+001 -7.053036e+001 1.545682e+002 7.846040e-002 1.010901e+001
278847656.25 -1.141800e-002 -1.764892e+002 -5.920341e+001 1.532407e+002 -6.375987e+001 3.783440e+001 9.511453e-002 9.357624e+000
281965625 -3.280433e-002 -1.761993e+002 -5.806148e+001 -1.068257e+002 -6.566406e+001 1.394581e+002 1.109424e-001 8.888802e+000
285083593.75 -1.115990e-002 -1.761791e+002 -6.580121e+001 5.849982e+001 -6.146151e+001 1.024056e+002 6.706505e-002 9.044180e+000
288201562.5 1.033199e-002 -1.764466e+002 -5.951165e+001 8.389742e+001 -5.922204e+001 1.656918e+002 1.534707e-002 9.267612e+000
291319531.25 3.064562e-003 -1.763544e+002 -6.862663e+001 -1.087568e+002 -7.300677e+001 1.605265e+002 -1.008796e-002 9.511792e+000
294437500 7.666011e-003 -1.763842e+002 -6.142157e+001 8.793305e-001 -6.296460e+001 -6.343413e+001 -9.025558e-003 1.009659e+001
297555468.75 -7.678885e-003 -1.762841e+002 -6.842634e+001 -1.562255e+001 -6.222702e+001 9.882455e+001 -1.244130e-002 1.006153e+001
300673437.5 4.145253e-003 -1.763196e+002 -5.549308e+001 -1.421362e+002 -6.840717e+001 1.494519e+002 -1.866759e-003 1.009141e+001
303791406.25 -2.033713e-002 -1.762597e+002 -6.130578e+001 -1.633540e+002 -6.568805e+001 -1.875840e+001 -2.186682e-002 1.025850e+001
306909375 1.074070e-002 -1.761012e+002 -6.288158e+001 6.141005e+001 -5.907362e+001 -1.154503e+002 -1.472493e-002 1.018186e+001
310027343.75 -1.659314e-002 -1.759208e+002 -5.883785e+001 9.424488e+001 -6.756807e+001 7.967194e+001 -1.503863e-002 1.041814e+001
313145312.5 2.064779e-002 -1.760520e+002 -6.048505e+001 5.826914e+001 -6.671167e+001 1.719032e+002 -1.006770e-002 1.065157e+001
316263281.25 4.149424e-002 -1.759064e+002 -5.323100e+001 -5.620976e+001 -6.614095e+001 -1.733265e+002 -3.892104e-002 1.051896e+001
319381250 1.072098e-002 -1.758174e+002 -6.043283e+001 -1.767293e+002 -6.899146e+001 -6.388736e+001 -5.382801e-003 1.051085e+001
322499218.75 -4.497121e-002 -1.759554e+002 -6.149561e+001 -1.750226e+002 -6.442075e+001 1.780415e+002 -4.447342e-002 1.061193e+001
325617187.5 -1.838011e-002 -1.757760e+002 -6.387865e+001 -3.919228e+001 -6.615473e+001 1.581794e+002 -3.944882e-002 1.072232e+001
328735156.25 -1.810893e-002 -1.756445e+002 -6.466077e+001 1.688058e+002 -6.353210e+001 1.306810e+002 -1.721576e-002 1.087556e+001
331853125 -5.937973e-002 -1.756744e+002 -5.831399e+001 8.842947e+001 -6.196804e+001 -7.701759e+001 -4.523835e-003 1.096867e+001
334971093.75 -4.694747e-002 -1.756618e+002 -6.024380e+001 -1.329016e+002 -6.871489e+001 -5.841750e+000 8.827999e-003 1.113060e+001
338089062.5 -6.768244e-002 -1.753772e+002 -7.521172e+001 -1.567761e+002 -6.651318e+001 -1.760399e+001 1.409630e-002 1.120746e+001
341207031.25 -5.159598e-002 -1.753384e+002 -6.994211e+001 -1.462032e+002 -7.406059e+001 1.204225e+002 1.358426e-002 1.150288e+001
344325000 2.268164e-003 -1.755048e+002 -6.784776e+001 -1.516740e+002 -7.514023e+001 -1.536484e+002 3.869577e-002 1.160289e+001
347442968.75 1.287784e-002 -1.754783e+002 -6.293769e+001 -4.899465e+001 -6.878310e+001 -1.783109e+001 -3.382991e-003 1.178540e+001
350560937.5 -5.661980e-003 -1.754850e+002 -7.411382e+001 6.815218e+001 -6.974255e+001 1.157041e+001 1.576449e-002 1.199354e+001
353678906.25 1.014193e-002 -1.753337e+002 -7.123197e+001 2.371138e+001 -7.226000e+001 2.591795e+001 7.379571e-003 1.209609e+001
356796875 1.140930e-002 -1.753192e+002 -6.774773e+001 4.129500e+001 -6.289904e+001 1.657973e+001 -1.450241e-002 1.216620e+001
359914843.75 1.574104e-002 -1.753580e+002 -7.382927e+001 -8.628490e+001 -6.001825e+001 5.281604e+001 -1.595469e-002 1.259068e+001
363032812.5 -2.458667e-004 -1.754896e+002 -7.220498e+001 7.825259e+001 -7.034084e+001 7.386320e+001 -3.966888e-003 1.258748e+001
366150781.25 5.812306e-003 -1.754343e+002 -6.605087e+001 -1.176457e+002 -6.562395e+001 6.149559e+001 -1.544026e-003 1.270458e+001
369268750 1.104371e-002 -1.752766e+002 -7.131953e+001 4.659108e+001 -5.871241e+001 -6.008149e+001 1.977421e-002 1.297670e+001
372386718.75 2.015345e-002 -1.752025e+002 -6.902380e+001 -1.589260e+002 -6.335225e+001 -9.676552e+001 2.698453e-002 1.300711e+001
375504687.5 -8.297317e-003 -1.752067e+002 -6.470240e+001 4.411359e+001 -6.962088e+001 1.059666e+002 5.143692e-002 1.317867e+001
378622656.25 -2.141715e-002 -1.751371e+002 -5.830764e+001 -2.979191e+001 -6.158929e+001 1.721890e+002 3.582372e-002 1.336130e+001
381740625 6.259442e-003 -1.750286e+002 -7.159428e+001 -1.299085e+002 -6.316214e+001 2.215522e+001 2.851376e-002 1.348981e+001
384858593.75 2.441178e-002 -1.751169e+002 -6.808297e+001 1.598909e+002 -6.640647e+001 1.793943e+002 1.822566e-002 1.356108e+001
387976562.5 2.380378e-002 -1.751448e+002 -6.165721e+001 1.351706e+002 -6.630366e+001 7.617623e+001 1.497888e-002 1.374596e+001
391094531.25 2.328823e-002 -1.749749e+002 -8.091530e+001 1.555339e+002 -6.437357e+001 1.523775e+001 3.343655e-002 1.378956e+001
394212500 3.271768e-002 -1.749195e+002 -6.317289e+001 2.045319e+001 -8.462200e+001 1.641563e+002 4.771049e-002 1.381429e+001
397330468.75 3.157441e-002 -1.749463e+002 -6.598896e+001 6.877876e+001 -7.049503e+001 -9.274390e+001 4.025938e-002 1.392892e+001
400448437.5 1.518694e-002 -1.747445e+002 -6.584109e+001 -3.569163e+000 -7.391380e+001 -1.517408e+002 3.904781e-002 1.406179e+001
403566406.25 4.028027e-002 -1.746817e+002 -6.086004e+001 -6.308372e+001 -6.382968e+001 -1.521998e+002 3.789179e-002 1.415578e+001
406684375 2.612512e-002 -1.745698e+002 -6.049287e+001 -7.944930e+001 -6.281577e+001 -1.625152e+002 3.610644e-002 1.418030e+001
409802343.75 1.342009e-002 -1.745945e+002 -6.578778e+001 1.154715e+002 -6.961604e+001 6.431970e+000 5.705007e-002 1.426656e+001
412920312.5 2.377403e-002 -1.744840e+002 -6.118094e+001 5.196984e+001 -6.538242e+001 5.149251e+001 4.582818e-002 1.415176e+001
416038281.25 4.369988e-002 -1.745013e+002 -6.901278e+001 5.379234e+001 -7.539370e+001 -3.327102e+001 3.406743e-002 1.427648e+001
419156250 4.108725e-002 -1.746369e+002 -5.729658e+001 -3.656536e+001 -6.575923e+001 -7.888498e+001 3.000765e-002 1.430682e+001
422274218.75 1.923820e-002 -1.744218e+002 -6.744144e+001 -1.639315e+002 -7.123987e+001 1.027877e+002 4.239716e-002 1.448464e+001
425392187.5 1.461310e-002 -1.743561e+002 -6.918289e+001 -8.735574e+001 -7.171726e+001 3.033464e+001 5.890261e-002 1.459788e+001
428510156.25 3.671362e-002 -1.744207e+002 -6.963211e+001 8.999765e+001 -6.948597e+001 1.004146e+002 7.645538e-002 1.496996e+001
431628125 4.276339e-003 -1.742736e+002 -7.079562e+001 7.051216e+001 -6.520626e+001 4.717233e+001 6.274378e-002 1.511424e+001
434746093.75 1.869659e-002 -1.743789e+002 -7.558047e+001 7.928761e+001 -6.890231e+001 1.058441e+002 5.847746e-002 1.492939e+001
437864062.5 4.608207e-002 -1.743059e+002 -6.497516e+001 -1.129572e+002 -6.539897e+001 -4.504558e+001 3.422173e-002 1.508494e+001
440982031.25 3.032548e-002 -1.742955e+002 -7.639466e+001 1.151907e+002 -6.139808e+001 -1.265921e+002 4.088084e-002 1.510649e+001
444100000 1.842121e-002 -1.742674e+002 -6.094589e+001 1.470139e+002 -6.454410e+001 -1.055008e+002 3.700525e-002 1.515319e+001
447217968.75 1.767788e-002 -1.743596e+002 -7.403400e+001 4.766170e+001 -7.871387e+001 -4.286646e+001 3.734587e-002 1.503021e+001
450335937.5 1.835985e-002 -1.744369e+002 -8.191705e+001 -3.282040e+001 -7.085052e+001 1.760246e+001 4.881819e-002 1.533288e+001
453453906.25 5.844151e-002 -1.743164e+002 -6.834023e+001 -1.328515e+002 -6.703486e+001 2.270972e+001 6.885953e-002 1.533448e+001
456571875 2.933520e-002 -1.740773e+002 -6.789883e+001 -3.375215e+001 -5.915318e+001 1.619585e+002 3.434899e-002 1.535600e+001
459689843.75 4.837609e-002 -1.741439e+002 -7.877044e+001 -1.510381e+002 -6.738387e+001 -1.624271e+002 4.801940e-002 1.559176e+001
462807812.5 4.715486e-002 -1.742162e+002 -6.531023e+001 3.222669e+000 -6.799168e+001 1.080872e+002 2.892791e-002 1.539369e+001
465925781.25 2.112273e-002 -1.740558e+002 -8.467673e+001 -5.202707e+001 -6.579307e+001 -1.270786e+002 5.676036e-002 1.564291e+001
469043750 1.715193e-002 -1.739738e+002 -6.730696e+001 7.180379e+001 -7.282885e+001 -2.782605e+001 4.038264e-002 1.551066e+001
472161718.75 1.657514e-002 -1.738852e+002 -8.802793e+001 1.261287e+002 -6.886834e+001 -1.623156e+002 4.118115e-002 1.560454e+001
475279687.5 8.335318e-003 -1.736328e+002 -6.978394e+001 2.313639e+001 -6.601041e+001 1.470710e+001 8.524437e-003 1.557465e+001
478397656.25 3.042284e-002 -1.737448e+002 -7.619020e+001 1.532343e+001 -7.152427e+001 1.300281e+002 3.681025e-002 1.583518e+001
481515625 4.823216e-002 -1.737486e+002 -6.657684e+001 -9.885770e+001 -7.121586e+001 8.874403e+001 5.893768e-003 1.574538e+001
484633593.75 3.954087e-002 -1.736929e+002 -6.556398e+001 1.219719e+002 -7.396662e+001 4.661145e+001 1.157948e-002 1.571036e+001
487751562.5 4.357979e-002 -1.736274e+002 -6.540791e+001 5.349314e+001 -7.459612e+001 8.903229e+001 -6.972764e-003 1.603738e+001
490869531.25 1.497162e-002 -1.735922e+002 -7.497963e+001 4.619318e+001 -6.854447e+001 1.797388e+002 1.860628e-002 1.604086e+001
493987500 2.323389e-002 -1.735637e+002 -6.853128e+001 -6.556234e+000 -6.929163e+001 1.437112e+002 8.523137e-003 1.607218e+001
497105468.75 1.342644e-002 -1.734038e+002 -6.809303e+001 -3.063420e+001 -7.000268e+001 7.002387e+001 1.757947e-002 1.638965e+001
500223437.5 4.023716e-002 -1.732987e+002 -7.091547e+001 -7.129454e+001 -7.649743e+001 -1.170499e+002 -7.697800e-003 1.629352e+001
503341406.25 3.732685e-002 -1.734138e+002 -6.881612e+001 9.278896e+001 -6.534274e+001 1.290246e+002 -2.796051e-002 1.646377e+001
506459375 3.911787e-002 -1.731447e+002 -6.990677e+001 3.372874e+001 -7.154400e+001 1.019841e+002 -2.399827e-002 1.674893e+001
509577343.75 4.118161e-002 -1.733227e+002 -6.722070e+001 6.709814e+001 -7.798620e+001 -1.951587e+001 1.884314e-003 1.671428e+001
512695312.5 -1.203279e-004 -1.730839e+002 -6.677051e+001 4.223809e+001 -6.600717e+001 -1.132664e+002 -6.105820e-003 1.704049e+001
515813281.25 -1.122172e-002 -1.732043e+002 -6.373927e+001 -5.474821e+001 -6.952978e+001 -3.112362e+001 -2.597044e-002 1.705910e+001
