!Agilent Technologies,E8364A,US41440322,A.04.87.01
!Agilent E8364A: A.04.87.01
!Date: Friday, July 12, 2024 10:40:28
!Correction: S11(Full 2 Port SOLT,1,2) S21(Full 2 Port SOLT,1,2) S12(Full 2 Port SOLT,1,2) S22(Full 2 Port SOLT,1,2)
!S2P File: Measurements: S11, S21, S12, S22:
# Hz S  dB   R 50
45000000 -2.984156e+001 -1.509845e+001 -5.451704e-002 -7.228767e+001 -1.658290e-001 -7.630426e+001 -2.795358e+001 1.759744e+002
48117968.75 -2.907536e+001 5.568007e+001 -5.471187e-002 -7.919619e+001 -1.363203e-001 -8.231915e+001 -2.629523e+001 -1.662800e+002
51235937.5 -3.298576e+001 4.705207e+000 -6.349107e-002 -8.628088e+001 -1.302896e-001 -8.727402e+001 -2.391642e+001 -1.559008e+002
54353906.25 -2.922318e+001 1.168039e+002 -1.436055e-001 -9.176919e+001 -2.986315e-002 -9.378800e+001 -2.757524e+001 -1.399340e+002
57471875 -4.757480e+001 1.648549e+002 -2.113194e-001 -9.573420e+001 -1.652112e-001 -9.979408e+001 -3.180017e+001 -1.624195e+002
60589843.75 -4.068529e+001 -1.428821e+002 -1.576117e-001 -1.029510e+002 1.752586e-002 -1.028545e+002 -4.580562e+001 1.566326e+002
63707812.5 -3.646409e+001 -1.001917e+002 -3.692984e-001 -1.080319e+002 7.332495e-002 -1.080792e+002 -3.614288e+001 5.843287e+001
66825781.25 -4.076242e+001 -7.045273e+001 -1.830752e-001 -1.122921e+002 3.525633e-002 -1.138252e+002 -4.315101e+001 1.675624e+002
69943750 -3.843599e+001 -7.561588e+001 -1.792909e-001 -1.176935e+002 -8.768453e-002 -1.183046e+002 -3.761581e+001 -7.068910e+001
73061718.75 -4.435484e+001 -4.830841e+001 -2.129540e-001 -1.225966e+002 -8.419851e-002 -1.234260e+002 -4.162557e+001 -8.244428e+001
76179687.5 -4.510243e+001 -1.367400e+002 -7.499573e-002 -1.271726e+002 -1.410406e-001 -1.294183e+002 -4.158777e+001 -1.185679e+002
79297656.25 -4.670030e+001 1.220933e+002 -8.579428e-002 -1.329358e+002 -9.791861e-002 -1.340604e+002 -3.963804e+001 -1.309281e+002
82415625 -4.428878e+001 -1.051350e+002 -7.908511e-002 -1.381515e+002 -1.009617e-001 -1.396533e+002 -4.211169e+001 1.464276e+002
85533593.75 -3.912212e+001 -4.658749e+001 -1.294497e-001 -1.429573e+002 -6.910164e-002 -1.446554e+002 -3.827526e+001 1.610419e+002
88651562.5 -4.211498e+001 -1.674626e+002 -8.133313e-002 -1.488909e+002 -1.040564e-001 -1.493482e+002 -3.829822e+001 1.699129e+002
91769531.25 -5.067669e+001 -7.374905e+001 -8.120329e-002 -1.537618e+002 -3.781381e-003 -1.547675e+002 -3.554865e+001 -1.548499e+002
94887500 -4.257462e+001 -3.635215e+001 -1.675233e-001 -1.588898e+002 -3.383252e-002 -1.603184e+002 -3.913943e+001 -1.564891e+002
98005468.75 -4.733458e+001 -2.186570e+001 -2.545215e-001 -1.648909e+002 3.018071e-003 -1.657181e+002 -4.605349e+001 -1.523981e+002
101123437.5 -4.448506e+001 5.054768e+001 -1.608143e-001 -1.697303e+002 -5.191499e-002 -1.705372e+002 -5.359180e+001 2.178342e+001
104241406.25 -3.701986e+001 5.732712e+001 -6.275401e-002 -1.748781e+002 -7.450540e-002 -1.761502e+002 -4.708489e+001 1.075809e+002
107359375 -3.997734e+001 3.106365e+001 -9.540872e-002 -1.798567e+002 -7.653616e-002 1.784797e+002 -5.568498e+001 4.674386e+001
110477343.75 -4.667141e+001 -9.117326e+001 -1.140437e-001 1.748531e+002 -7.691702e-002 1.737043e+002 -5.134524e+001 -4.482088e+001
113595312.5 -5.245700e+001 -8.969782e+000 -1.536169e-001 1.691339e+002 -1.151687e-001 1.683883e+002 -3.805384e+001 -3.054158e+001
116713281.25 -5.090154e+001 1.035562e+002 -1.680077e-001 1.641036e+002 -1.131934e-001 1.629482e+002 -4.029753e+001 6.043728e+001
119831250 -4.236712e+001 3.024165e+001 -8.457819e-002 1.588044e+002 -1.019142e-001 1.581228e+002 -4.916483e+001 7.682037e+001
122949218.75 -4.091129e+001 -2.809212e+000 -1.265882e-001 1.537956e+002 -7.004996e-002 1.525695e+002 -4.686696e+001 -2.902092e+000
126067187.5 -5.061828e+001 -4.375695e+001 -1.393595e-001 1.488969e+002 -9.758781e-002 1.473510e+002 -4.953082e+001 -3.816903e+001
129185156.25 -4.116284e+001 -6.758390e+000 -1.109099e-001 1.430407e+002 -1.155276e-001 1.422963e+002 -5.629622e+001 -3.493580e+001
132303125 -3.859822e+001 -3.183195e+001 -1.179501e-001 1.379145e+002 -9.784118e-002 1.372901e+002 -4.288324e+001 2.755477e-001
135421093.75 -3.758820e+001 -2.088796e+001 -1.464376e-001 1.330835e+002 -1.200890e-001 1.322258e+002 -4.791849e+001 -4.126873e+001
138539062.5 -3.592265e+001 -1.399003e+001 -1.329858e-001 1.276601e+002 -1.127964e-001 1.267944e+002 -4.819321e+001 -5.984532e+001
141657031.25 -3.895007e+001 -4.787712e+001 -1.313877e-001 1.225917e+002 -1.181591e-001 1.217011e+002 -4.856063e+001 -1.095196e+002
144775000 -3.848390e+001 -5.747562e+001 -1.374548e-001 1.173191e+002 -1.399953e-001 1.164454e+002 -4.813198e+001 -6.401150e+001
147892968.75 -3.747106e+001 -6.635198e+001 -1.280107e-001 1.122085e+002 -1.359977e-001 1.110613e+002 -4.278025e+001 -5.124709e+001
151010937.5 -3.731521e+001 -6.137952e+001 -1.560352e-001 1.070037e+002 -1.071273e-001 1.060331e+002 -3.982377e+001 -5.876526e+001
154128906.25 -3.758120e+001 -6.002160e+001 -1.149308e-001 1.018170e+002 -1.142728e-001 1.004426e+002 -4.070292e+001 -7.123973e+001
157246875 -4.147473e+001 -7.424233e+001 -1.240042e-001 9.629455e+001 -9.943534e-002 9.561980e+001 -3.998299e+001 -8.688740e+001
160364843.75 -4.077938e+001 -6.484897e+001 -1.871999e-001 9.146568e+001 -8.955426e-002 9.025566e+001 -4.057178e+001 -4.460562e+001
163482812.5 -4.202193e+001 -5.720981e+001 -1.655118e-001 8.627380e+001 -1.544762e-001 8.506519e+001 -4.687998e+001 1.686203e+001
166600781.25 -4.294336e+001 -6.590834e+001 -1.702745e-001 8.128291e+001 -1.160675e-001 7.995281e+001 -4.090717e+001 -2.211442e+001
169718750 -4.717496e+001 -8.649940e+001 -1.312176e-001 7.599339e+001 -1.328022e-001 7.463798e+001 -4.046479e+001 -1.673425e+001
172836718.75 -4.398096e+001 -5.536437e+001 -1.717545e-001 7.044677e+001 -1.284991e-001 6.945605e+001 -4.061840e+001 -3.573192e+001
175954687.5 -4.418190e+001 -4.412182e+001 -1.606308e-001 6.527174e+001 -9.505525e-002 6.422180e+001 -4.069637e+001 -3.536344e+001
179072656.25 -4.268033e+001 -4.406231e+001 -1.492231e-001 5.994663e+001 -8.617581e-002 5.907929e+001 -4.476441e+001 -2.213308e+001
182190625 -4.296537e+001 -4.377435e+001 -1.421259e-001 5.495987e+001 -8.911298e-002 5.396494e+001 -4.693966e+001 1.743341e+001
185308593.75 -4.517910e+001 -4.194029e+001 -1.385696e-001 4.993446e+001 -8.250675e-002 4.878444e+001 -4.505384e+001 3.356292e+001
188426562.5 -4.530356e+001 -6.486606e+001 -1.396839e-001 4.481905e+001 -9.874640e-002 4.355809e+001 -4.896660e+001 -1.393127e-001
191544531.25 -5.603497e+001 -3.282315e+001 -1.865331e-001 3.944674e+001 -5.881668e-002 3.826538e+001 -5.787807e+001 -2.215262e+001
194662500 -5.186225e+001 -6.592281e+001 -1.826997e-001 3.438706e+001 -1.379481e-001 3.315832e+001 -5.672937e+001 -1.479464e+002
197780468.75 -5.415751e+001 -2.056930e+001 -1.677724e-001 2.909388e+001 -1.412425e-001 2.778737e+001 -6.631039e+001 -6.847562e+001
200898437.5 -5.691913e+001 5.990299e+001 -1.659878e-001 2.390193e+001 -1.298440e-001 2.280553e+001 -7.040177e+001 6.340795e+001
204016406.25 -5.360206e+001 8.195398e+001 -1.792034e-001 1.860623e+001 -8.107409e-002 1.769731e+001 -4.669941e+001 1.463614e+002
207134375 -5.034555e+001 4.351305e+001 -1.643813e-001 1.322718e+001 -8.233495e-002 1.225873e+001 -4.802659e+001 1.267038e+002
210252343.75 -4.586953e+001 2.150212e+001 -1.644829e-001 8.139798e+000 -1.130451e-001 7.092676e+000 -4.786622e+001 1.279628e+002
213370312.5 -4.447857e+001 1.460022e+001 -1.271525e-001 2.877124e+000 -1.298461e-001 1.862125e+000 -4.366120e+001 1.204846e+002
216488281.25 -4.258959e+001 1.765693e+001 -1.153789e-001 -2.421015e+000 -1.227845e-001 -3.286319e+000 -4.435926e+001 1.138692e+002
219606250 -4.131213e+001 1.669743e+001 -1.467129e-001 -7.627327e+000 -1.230768e-001 -8.667054e+000 -4.461612e+001 1.014754e+002
222724218.75 -4.036747e+001 1.075665e+001 -1.450265e-001 -1.265376e+001 -1.220480e-001 -1.379407e+001 -4.406824e+001 9.567911e+001
225842187.5 -3.958096e+001 1.846199e+000 -1.409078e-001 -1.799349e+001 -1.082706e-001 -1.937980e+001 -4.319316e+001 8.835809e+001
228960156.25 -4.035454e+001 -2.123343e+001 -1.290134e-001 -2.314259e+001 -1.244419e-001 -2.461376e+001 -4.415960e+001 6.338517e+001
232078125 -4.133381e+001 -1.892807e+001 -1.035494e-001 -2.839727e+001 -1.061399e-001 -2.953801e+001 -4.849541e+001 5.477027e+001
235196093.75 -4.126643e+001 -2.098254e+001 -1.417874e-001 -3.355079e+001 -7.874471e-002 -3.498623e+001 -4.831279e+001 4.592759e+001
238314062.5 -4.040411e+001 -3.641726e+001 -2.023667e-001 -3.862370e+001 -1.167025e-001 -4.039856e+001 -4.675100e+001 1.514672e+001
241432031.25 -4.154828e+001 -4.595905e+001 -1.430120e-001 -4.370240e+001 -1.937660e-001 -4.495859e+001 -4.532047e+001 2.578750e+001
244550000 -4.195095e+001 -5.262690e+001 -1.706125e-001 -4.913862e+001 -1.538821e-001 -4.973658e+001 -4.701486e+001 4.720653e+001
247667968.75 -4.366415e+001 -6.957782e+001 -2.152098e-001 -5.425572e+001 -1.324001e-001 -5.553799e+001 -5.074377e+001 3.730223e+001
250785937.5 -4.501295e+001 -6.604560e+001 -3.681681e-001 -5.849467e+001 1.700498e-002 -6.171963e+001 -4.998395e+001 4.292405e+001
253903906.25 -4.874745e+001 -1.017683e+002 -2.660380e-001 -6.314096e+001 4.448472e-003 -6.729003e+001 -5.316684e+001 -1.776463e+001
257021875 -5.138212e+001 -1.290083e+002 -7.626646e-002 -6.930841e+001 -6.318479e-002 -7.236910e+001 -5.775850e+001 4.706717e+001
260139843.75 -4.993759e+001 -1.270050e+002 4.236409e-003 -7.519475e+001 -1.132360e-001 -7.767672e+001 -4.950981e+001 1.103015e+002
263257812.5 -5.305518e+001 -1.601060e+002 1.587367e-002 -8.011276e+001 -1.755116e-001 -8.257304e+001 -4.781512e+001 6.971152e+001
266375781.25 -5.347866e+001 1.499282e+002 1.166419e-002 -8.666927e+001 -3.524107e-001 -8.689046e+001 -5.455798e+001 -9.971415e+001
269493750 -4.928326e+001 1.605698e+002 -5.787038e-002 -9.245867e+001 -4.143879e-001 -9.200376e+001 -4.914369e+001 -6.633207e+001
272611718.75 -5.045041e+001 7.973107e+001 -1.910678e-001 -9.718545e+001 -3.357601e-001 -9.672739e+001 -4.545584e+001 -6.169234e+001
275729687.5 -4.751027e+001 4.279802e+001 -2.245597e-001 -1.020371e+002 -2.801413e-001 -1.016080e+002 -5.110159e+001 -5.418398e+001
278847656.25 -4.709658e+001 1.090278e+001 -2.535738e-001 -1.070152e+002 -2.649922e-001 -1.069415e+002 -4.816571e+001 -6.849448e+001
281965625 -4.570174e+001 4.161890e+001 -2.774974e-001 -1.118417e+002 -1.613465e-001 -1.124412e+002 -5.954037e+001 1.050044e+001
285083593.75 -4.252656e+001 3.460606e+001 -2.611439e-001 -1.171342e+002 -1.536303e-001 -1.177635e+002 -4.989812e+001 1.540159e+001
288201562.5 -4.378889e+001 1.813111e+001 -2.637225e-001 -1.222554e+002 -1.382673e-001 -1.229701e+002 -5.022945e+001 5.208867e+000
291319531.25 -4.537434e+001 -1.958202e+001 -2.485004e-001 -1.273599e+002 -9.902699e-002 -1.284564e+002 -5.038674e+001 -1.386129e+001
294437500 -4.488591e+001 -3.939403e+001 -2.434953e-001 -1.324246e+002 -1.020088e-001 -1.336228e+002 -4.622334e+001 -1.697879e+001
297555468.75 -4.884531e+001 -5.746307e+001 -2.234307e-001 -1.376430e+002 -1.232765e-001 -1.387295e+002 -5.024363e+001 -4.931710e+001
300673437.5 -5.224943e+001 -1.023114e+002 -2.063878e-001 -1.428411e+002 -1.219990e-001 -1.441079e+002 -5.702260e+001 -1.030343e+001
303791406.25 -4.996592e+001 -7.768058e+001 -2.137814e-001 -1.480411e+002 -1.636865e-001 -1.492392e+002 -5.981726e+001 -6.885537e+000
306909375 -5.256154e+001 -8.298499e+001 -2.635255e-001 -1.532278e+002 -1.807652e-001 -1.544470e+002 -5.084975e+001 3.909645e-001
310027343.75 -5.540796e+001 -1.169535e+002 -2.221251e-001 -1.585454e+002 -1.369302e-001 -1.595402e+002 -4.974335e+001 -2.172104e+000
313145312.5 -5.256951e+001 -1.271315e+002 -2.069491e-001 -1.637602e+002 -1.491612e-001 -1.647888e+002 -5.015233e+001 2.024959e+001
316263281.25 -5.783990e+001 -1.728401e+002 -2.093502e-001 -1.687402e+002 -1.575057e-001 -1.700881e+002 -4.701705e+001 3.770005e+001
319381250 -5.394532e+001 1.727453e+002 -2.206031e-001 -1.742373e+002 -1.532992e-001 -1.752395e+002 -4.859314e+001 2.363693e+001
322499218.75 -5.917262e+001 1.413977e+002 -2.167520e-001 -1.793999e+002 -1.571512e-001 1.793810e+002 -4.555711e+001 2.197421e+001
325617187.5 -5.574679e+001 9.584146e+001 -2.173556e-001 1.756007e+002 -1.761565e-001 1.742835e+002 -4.580861e+001 2.507604e+001
328735156.25 -4.970649e+001 8.157707e+001 -2.167703e-001 1.703056e+002 -1.863208e-001 1.690401e+002 -4.320225e+001 1.956262e+001
331853125 -5.394255e+001 7.589867e+001 -2.222158e-001 1.652417e+002 -1.616884e-001 1.638168e+002 -4.246985e+001 1.854535e+001
334971093.75 -4.693320e+001 4.378121e+001 -2.264235e-001 1.599742e+002 -1.698602e-001 1.586893e+002 -4.273143e+001 1.654016e+001
338089062.5 -4.557578e+001 3.306595e+001 -2.004397e-001 1.546578e+002 -1.741037e-001 1.536501e+002 -4.227546e+001 1.612223e+001
341207031.25 -4.788214e+001 2.135870e+001 -1.965925e-001 1.496272e+002 -1.395033e-001 1.483419e+002 -4.194230e+001 1.499004e+001
344325000 -4.700938e+001 9.746776e+000 -2.039446e-001 1.443363e+002 -1.666286e-001 1.432321e+002 -4.137064e+001 1.414344e+001
347442968.75 -4.476554e+001 -1.309459e+001 -2.392117e-001 1.390935e+002 -1.781161e-001 1.378466e+002 -4.162987e+001 2.540881e+001
350560937.5 -4.401268e+001 -1.676902e+001 -2.195583e-001 1.338088e+002 -1.769375e-001 1.327856e+002 -4.287507e+001 1.775080e+001
353678906.25 -4.448403e+001 -2.936576e+001 -2.101098e-001 1.287261e+002 -1.349775e-001 1.274759e+002 -4.298587e+001 1.618288e+001
356796875 -4.320642e+001 -4.063240e+001 -1.894673e-001 1.234584e+002 -1.558677e-001 1.224811e+002 -4.416496e+001 1.139417e+001
359914843.75 -4.336096e+001 -5.821920e+001 -2.174324e-001 1.184109e+002 -2.136554e-001 1.170738e+002 -4.400249e+001 2.098259e+001
363032812.5 -4.211830e+001 -7.135616e+001 -2.112587e-001 1.132037e+002 -2.161924e-001 1.119461e+002 -4.448422e+001 2.586325e+001
366150781.25 -4.208292e+001 -7.963657e+001 -2.037743e-001 1.082460e+002 -2.047672e-001 1.066569e+002 -4.351309e+001 1.741248e+001
369268750 -4.176660e+001 -8.106530e+001 -2.141997e-001 1.026217e+002 -2.013827e-001 1.015590e+002 -4.707170e+001 2.044084e+001
372386718.75 -4.195589e+001 -9.827623e+001 -2.007727e-001 9.747841e+001 -1.623627e-001 9.613840e+001 -4.849970e+001 2.256995e+001
375504687.5 -4.279388e+001 -1.017385e+002 -2.076523e-001 9.199621e+001 -1.572290e-001 9.097423e+001 -4.585810e+001 3.704171e+001
378622656.25 -4.251319e+001 -1.014542e+002 -2.185349e-001 8.713416e+001 -1.929960e-001 8.589610e+001 -4.793328e+001 2.875095e+001
381740625 -4.308361e+001 -1.199761e+002 -2.076835e-001 8.198270e+001 -1.883587e-001 8.064525e+001 -4.864940e+001 3.107904e+001
384858593.75 -4.541504e+001 -1.395650e+002 -2.349403e-001 7.673737e+001 -1.877530e-001 7.534624e+001 -4.767147e+001 2.672907e+001
387976562.5 -4.624410e+001 -1.474883e+002 -2.193721e-001 7.148739e+001 -1.807997e-001 7.019382e+001 -5.171407e+001 1.395412e+001
391094531.25 -4.638747e+001 -1.730974e+002 -2.314644e-001 6.617877e+001 -1.759060e-001 6.503584e+001 -5.097298e+001 5.011145e+001
394212500 -4.789979e+001 1.609194e+002 -2.494359e-001 6.095094e+001 -1.627775e-001 5.987951e+001 -5.029333e+001 6.890241e+001
397330468.75 -4.699757e+001 1.413111e+002 -2.354115e-001 5.567132e+001 -1.761794e-001 5.482883e+001 -5.206630e+001 7.385414e+001
400448437.5 -4.962293e+001 1.228988e+002 -2.363093e-001 5.069270e+001 -2.061442e-001 4.957593e+001 -5.069769e+001 1.134216e+002
403566406.25 -5.022211e+001 1.028771e+002 -2.335078e-001 4.544413e+001 -1.914938e-001 4.429987e+001 -4.919336e+001 1.148098e+002
406684375 -5.001395e+001 7.433298e+001 -2.274219e-001 4.022924e+001 -1.916994e-001 3.918459e+001 -4.669588e+001 1.362216e+002
409802343.75 -4.998859e+001 5.542687e+001 -2.073756e-001 3.508414e+001 -2.084858e-001 3.375401e+001 -4.796418e+001 1.320504e+002
412920312.5 -4.675637e+001 4.351344e+001 -2.100025e-001 2.982330e+001 -1.790318e-001 2.848529e+001 -4.878916e+001 1.255382e+002
416038281.25 -4.612721e+001 3.684859e+001 -2.363836e-001 2.464939e+001 -1.748382e-001 2.326648e+001 -4.728260e+001 1.306098e+002
419156250 -4.525447e+001 2.533216e+001 -2.399337e-001 1.943677e+001 -1.800916e-001 1.806868e+001 -4.786665e+001 1.354410e+002
422274218.75 -4.317526e+001 1.378220e+001 -2.523823e-001 1.416803e+001 -1.664311e-001 1.299923e+001 -4.742904e+001 1.215348e+002
425392187.5 -4.351325e+001 3.177912e+000 -2.578041e-001 8.982430e+000 -1.982905e-001 7.960124e+000 -4.602333e+001 1.250887e+002
428510156.25 -4.363795e+001 2.797642e+000 -2.374218e-001 3.789692e+000 -2.060868e-001 2.834906e+000 -4.715311e+001 1.140951e+002
431628125 -4.506821e+001 -8.172545e+000 -2.564555e-001 -1.447113e+000 -1.987504e-001 -2.588314e+000 -4.849289e+001 1.239560e+002
434746093.75 -4.481424e+001 -2.600316e+001 -2.634947e-001 -6.643879e+000 -1.857443e-001 -7.864609e+000 -4.959391e+001 1.122119e+002
437864062.5 -4.433378e+001 -3.158566e+001 -2.370370e-001 -1.196957e+001 -2.127587e-001 -1.298512e+001 -4.959484e+001 1.084702e+002
440982031.25 -4.437305e+001 -4.078494e+001 -2.458986e-001 -1.717578e+001 -2.265139e-001 -1.816549e+001 -5.090764e+001 1.113291e+002
444100000 -4.456728e+001 -5.210729e+001 -2.401044e-001 -2.220207e+001 -2.313260e-001 -2.345234e+001 -5.240707e+001 9.223827e+001
447217968.75 -4.559061e+001 -6.039917e+001 -2.396642e-001 -2.756216e+001 -2.210514e-001 -2.878850e+001 -7.002792e+001 1.356516e+002
450335937.5 -4.690576e+001 -7.923241e+001 -2.426782e-001 -3.262845e+001 -2.394648e-001 -3.385222e+001 -6.221879e+001 -8.009361e+001
453453906.25 -4.932880e+001 -8.330003e+001 -2.387253e-001 -3.789489e+001 -2.065902e-001 -3.911152e+001 -6.163702e+001 -6.819262e+001
456571875 -5.226812e+001 -1.130292e+002 -2.379980e-001 -4.320247e+001 -2.279802e-001 -4.426640e+001 -6.057853e+001 -1.008935e+002
459689843.75 -5.338008e+001 -1.342354e+002 -2.446873e-001 -4.843928e+001 -2.117071e-001 -4.934447e+001 -6.233268e+001 -8.983556e+001
462807812.5 -7.678469e+001 -1.500163e+002 -2.672855e-001 -5.350572e+001 -2.218116e-001 -5.466476e+001 -5.993832e+001 -9.013210e+001
465925781.25 -5.781394e+001 1.480651e+002 -2.513624e-001 -5.874076e+001 -2.032255e-001 -5.986482e+001 -6.763079e+001 -3.988556e+001
469043750 -5.812881e+001 1.364229e+002 -2.576352e-001 -6.392147e+001 -2.271214e-001 -6.520279e+001 -5.414098e+001 -4.206342e+001
472161718.75 -5.027096e+001 8.720903e+001 -2.425404e-001 -6.921091e+001 -2.204798e-001 -7.020058e+001 -5.134006e+001 -4.084102e+001
475279687.5 -4.991319e+001 8.554293e+001 -2.359475e-001 -7.432549e+001 -2.263144e-001 -7.544408e+001 -4.963506e+001 -4.911169e+001
478397656.25 -4.866594e+001 7.546607e+001 -2.736601e-001 -7.936638e+001 -2.443925e-001 -8.068706e+001 -4.665255e+001 -3.885259e+001
481515625 -4.656238e+001 7.341925e+001 -2.592971e-001 -8.453961e+001 -2.352565e-001 -8.591573e+001 -4.761626e+001 -2.454212e+001
484633593.75 -4.615170e+001 5.713145e+001 -2.701732e-001 -8.980948e+001 -2.465583e-001 -9.113905e+001 -4.661486e+001 -2.356237e+001
487751562.5 -4.708372e+001 4.075570e+001 -2.544704e-001 -9.507128e+001 -2.403836e-001 -9.641050e+001 -4.547509e+001 -2.291212e+001
490869531.25 -4.621326e+001 2.754079e+001 -2.665390e-001 -1.001686e+002 -2.221947e-001 -1.015502e+002 -4.383771e+001 -2.385875e+001
493987500 -4.683328e+001 3.484081e+000 -2.613003e-001 -1.055699e+002 -2.268915e-001 -1.067936e+002 -4.367891e+001 -2.327007e+001
497105468.75 -4.776064e+001 -9.284916e+000 -2.651790e-001 -1.106824e+002 -2.439639e-001 -1.120886e+002 -4.442564e+001 -2.544489e+001
500223437.5 -4.786958e+001 -2.005656e+001 -2.659675e-001 -1.160306e+002 -2.350110e-001 -1.172029e+002 -4.450389e+001 -2.505433e+001
503341406.25 -4.952174e+001 -5.023434e+001 -2.744611e-001 -1.211620e+002 -2.215809e-001 -1.224540e+002 -4.581879e+001 -1.493130e+001
506459375 -4.787986e+001 -6.195615e+001 -2.566174e-001 -1.263019e+002 -2.158405e-001 -1.276456e+002 -4.555272e+001 -1.906097e+001
509577343.75 -4.863446e+001 -6.681504e+001 -2.801320e-001 -1.315161e+002 -1.992044e-001 -1.328441e+002 -4.479311e+001 -1.404417e+001
