!Agilent Technologies,E8364A,US41440322,A.04.87.01
!Agilent E8364A: A.04.87.01
!Date: Tuesday, July 09, 2024 14:24:22
!Correction: S11(Open Response,1) S21(Off) S12(Off) S22(Off)
!S2P File: Measurements: S11, S21, S12, S22:
# Hz S  dB   R 50
45000000 -3.817853e+001 -1.783212e+002 -2.000000e+002 4.500000e+001 -2.000000e+002 4.500000e+001 -2.000000e+002 4.500000e+001
76221875 -4.120724e+001 -3.885699e+001 -2.000000e+002 4.500000e+001 -2.000000e+002 4.500000e+001 -2.000000e+002 4.500000e+001
107443750 -3.930789e+001 -2.847413e+000 -2.000000e+002 4.500000e+001 -2.000000e+002 4.500000e+001 -2.000000e+002 4.500000e+001
138665625 -3.457360e+001 1.641633e+001 -2.000000e+002 4.500000e+001 -2.000000e+002 4.500000e+001 -2.000000e+002 4.500000e+001
169887500 -3.462454e+001 4.682477e+001 -2.000000e+002 4.500000e+001 -2.000000e+002 4.500000e+001 -2.000000e+002 4.500000e+001
201109375 -3.633099e+001 7.122591e+001 -2.000000e+002 4.500000e+001 -2.000000e+002 4.500000e+001 -2.000000e+002 4.500000e+001
232331250 -4.051361e+001 1.041843e+002 -2.000000e+002 4.500000e+001 -2.000000e+002 4.500000e+001 -2.000000e+002 4.500000e+001
263553125 -6.103537e+001 8.601424e+001 -2.000000e+002 4.500000e+001 -2.000000e+002 4.500000e+001 -2.000000e+002 4.500000e+001
294775000 -4.126925e+001 -2.110410e+001 -2.000000e+002 4.500000e+001 -2.000000e+002 4.500000e+001 -2.000000e+002 4.500000e+001
325996875 -3.541095e+001 1.062287e+001 -2.000000e+002 4.500000e+001 -2.000000e+002 4.500000e+001 -2.000000e+002 4.500000e+001
357218750 -3.386232e+001 4.276651e+001 -2.000000e+002 4.500000e+001 -2.000000e+002 4.500000e+001 -2.000000e+002 4.500000e+001
388440625 -3.379586e+001 7.546432e+001 -2.000000e+002 4.500000e+001 -2.000000e+002 4.500000e+001 -2.000000e+002 4.500000e+001
419662500 -3.672167e+001 1.071495e+002 -2.000000e+002 4.500000e+001 -2.000000e+002 4.500000e+001 -2.000000e+002 4.500000e+001
450884375 -4.391537e+001 1.496208e+002 -2.000000e+002 4.500000e+001 -2.000000e+002 4.500000e+001 -2.000000e+002 4.500000e+001
482106250 -4.844388e+001 -4.957337e+001 -2.000000e+002 4.500000e+001 -2.000000e+002 4.500000e+001 -2.000000e+002 4.500000e+001
513328125 -3.828726e+001 -2.846650e+000 -2.000000e+002 4.500000e+001 -2.000000e+002 4.500000e+001 -2.000000e+002 4.500000e+001
544550000 -3.571911e+001 3.849080e+001 -2.000000e+002 4.500000e+001 -2.000000e+002 4.500000e+001 -2.000000e+002 4.500000e+001
575771875 -3.510740e+001 7.118529e+001 -2.000000e+002 4.500000e+001 -2.000000e+002 4.500000e+001 -2.000000e+002 4.500000e+001
606993750 -3.818847e+001 1.104166e+002 -2.000000e+002 4.500000e+001 -2.000000e+002 4.500000e+001 -2.000000e+002 4.500000e+001
638215625 -4.687577e+001 1.796534e+002 -2.000000e+002 4.500000e+001 -2.000000e+002 4.500000e+001 -2.000000e+002 4.500000e+001
669437500 -4.186509e+001 -4.649451e+001 -2.000000e+002 4.500000e+001 -2.000000e+002 4.500000e+001 -2.000000e+002 4.500000e+001
700659375 -3.656993e+001 3.150913e-001 -2.000000e+002 4.500000e+001 -2.000000e+002 4.500000e+001 -2.000000e+002 4.500000e+001
731881250 -3.376716e+001 3.956240e+001 -2.000000e+002 4.500000e+001 -2.000000e+002 4.500000e+001 -2.000000e+002 4.500000e+001
763103125 -3.358624e+001 7.214088e+001 -2.000000e+002 4.500000e+001 -2.000000e+002 4.500000e+001 -2.000000e+002 4.500000e+001
794325000 -3.622346e+001 1.171493e+002 -2.000000e+002 4.500000e+001 -2.000000e+002 4.500000e+001 -2.000000e+002 4.500000e+001
825546875 -4.122766e+001 1.773180e+002 -2.000000e+002 4.500000e+001 -2.000000e+002 4.500000e+001 -2.000000e+002 4.500000e+001
856768750 -4.185918e+001 -6.909768e+001 -2.000000e+002 4.500000e+001 -2.000000e+002 4.500000e+001 -2.000000e+002 4.500000e+001
887990625 -3.653118e+001 -6.505403e+000 -2.000000e+002 4.500000e+001 -2.000000e+002 4.500000e+001 -2.000000e+002 4.500000e+001
919212500 -3.346312e+001 3.718040e+001 -2.000000e+002 4.500000e+001 -2.000000e+002 4.500000e+001 -2.000000e+002 4.500000e+001
950434375 -3.295724e+001 7.324195e+001 -2.000000e+002 4.500000e+001 -2.000000e+002 4.500000e+001 -2.000000e+002 4.500000e+001
981656250 -3.486232e+001 1.182244e+002 -2.000000e+002 4.500000e+001 -2.000000e+002 4.500000e+001 -2.000000e+002 4.500000e+001
1012878125 -3.799899e+001 1.698692e+002 -2.000000e+002 4.500000e+001 -2.000000e+002 4.500000e+001 -2.000000e+002 4.500000e+001
1044100000 -4.229783e+001 -1.064019e+002 -2.000000e+002 4.500000e+001 -2.000000e+002 4.500000e+001 -2.000000e+002 4.500000e+001
1075321875 -3.980313e+001 -1.891041e+001 -2.000000e+002 4.500000e+001 -2.000000e+002 4.500000e+001 -2.000000e+002 4.500000e+001
1106543750 -3.631256e+001 3.650446e+001 -2.000000e+002 4.500000e+001 -2.000000e+002 4.500000e+001 -2.000000e+002 4.500000e+001
1137765625 -3.604434e+001 7.889748e+001 -2.000000e+002 4.500000e+001 -2.000000e+002 4.500000e+001 -2.000000e+002 4.500000e+001
1168987500 -3.667958e+001 1.299189e+002 -2.000000e+002 4.500000e+001 -2.000000e+002 4.500000e+001 -2.000000e+002 4.500000e+001
1200209375 -3.906888e+001 -1.752075e+002 -2.000000e+002 4.500000e+001 -2.000000e+002 4.500000e+001 -2.000000e+002 4.500000e+001
1231431250 -4.271709e+001 -9.710947e+001 -2.000000e+002 4.500000e+001 -2.000000e+002 4.500000e+001 -2.000000e+002 4.500000e+001
1262653125 -4.088366e+001 -4.052521e+000 -2.000000e+002 4.500000e+001 -2.000000e+002 4.500000e+001 -2.000000e+002 4.500000e+001
1293875000 -3.672846e+001 5.748084e+001 -2.000000e+002 4.500000e+001 -2.000000e+002 4.500000e+001 -2.000000e+002 4.500000e+001
1325096875 -3.440644e+001 1.016404e+002 -2.000000e+002 4.500000e+001 -2.000000e+002 4.500000e+001 -2.000000e+002 4.500000e+001
1356318750 -3.449676e+001 1.522475e+002 -2.000000e+002 4.500000e+001 -2.000000e+002 4.500000e+001 -2.000000e+002 4.500000e+001
1387540625 -3.471217e+001 -1.597784e+002 -2.000000e+002 4.500000e+001 -2.000000e+002 4.500000e+001 -2.000000e+002 4.500000e+001
1418762500 -3.704449e+001 -1.097287e+002 -2.000000e+002 4.500000e+001 -2.000000e+002 4.500000e+001 -2.000000e+002 4.500000e+001
1449984375 -4.013189e+001 -4.014149e+001 -2.000000e+002 4.500000e+001 -2.000000e+002 4.500000e+001 -2.000000e+002 4.500000e+001
1481206250 -3.977511e+001 4.208745e+001 -2.000000e+002 4.500000e+001 -2.000000e+002 4.500000e+001 -2.000000e+002 4.500000e+001
1512428125 -3.697022e+001 1.145769e+002 -2.000000e+002 4.500000e+001 -2.000000e+002 4.500000e+001 -2.000000e+002 4.500000e+001
1543650000 -3.393886e+001 1.678689e+002 -2.000000e+002 4.500000e+001 -2.000000e+002 4.500000e+001 -2.000000e+002 4.500000e+001
1574871875 -3.306199e+001 -1.493435e+002 -2.000000e+002 4.500000e+001 -2.000000e+002 4.500000e+001 -2.000000e+002 4.500000e+001
1606093750 -3.450780e+001 -1.076707e+002 -2.000000e+002 4.500000e+001 -2.000000e+002 4.500000e+001 -2.000000e+002 4.500000e+001
1637315625 -3.761077e+001 -6.145079e+001 -2.000000e+002 4.500000e+001 -2.000000e+002 4.500000e+001 -2.000000e+002 4.500000e+001
1668537500 -4.388396e+001 1.680422e+001 -2.000000e+002 4.500000e+001 -2.000000e+002 4.500000e+001 -2.000000e+002 4.500000e+001
1699759375 -3.954728e+001 1.320695e+002 -2.000000e+002 4.500000e+001 -2.000000e+002 4.500000e+001 -2.000000e+002 4.500000e+001
1730981250 -3.357307e+001 -1.772684e+002 -2.000000e+002 4.500000e+001 -2.000000e+002 4.500000e+001 -2.000000e+002 4.500000e+001
1762203125 -3.190491e+001 -1.423463e+002 -2.000000e+002 4.500000e+001 -2.000000e+002 4.500000e+001 -2.000000e+002 4.500000e+001
1793425000 -3.272128e+001 -1.051771e+002 -2.000000e+002 4.500000e+001 -2.000000e+002 4.500000e+001 -2.000000e+002 4.500000e+001
1824646875 -3.449442e+001 -6.993002e+001 -2.000000e+002 4.500000e+001 -2.000000e+002 4.500000e+001 -2.000000e+002 4.500000e+001
1855868750 -4.109083e+001 -4.574116e+001 -2.000000e+002 4.500000e+001 -2.000000e+002 4.500000e+001 -2.000000e+002 4.500000e+001
1887090625 -4.714997e+001 -1.661124e+002 -2.000000e+002 4.500000e+001 -2.000000e+002 4.500000e+001 -2.000000e+002 4.500000e+001
1918312500 -3.571070e+001 -1.468625e+002 -2.000000e+002 4.500000e+001 -2.000000e+002 4.500000e+001 -2.000000e+002 4.500000e+001
1949534375 -3.232547e+001 -1.152574e+002 -2.000000e+002 4.500000e+001 -2.000000e+002 4.500000e+001 -2.000000e+002 4.500000e+001
1980756250 -3.169589e+001 -8.590515e+001 -2.000000e+002 4.500000e+001 -2.000000e+002 4.500000e+001 -2.000000e+002 4.500000e+001
2011978125 -3.396368e+001 -5.554692e+001 -2.000000e+002 4.500000e+001 -2.000000e+002 4.500000e+001 -2.000000e+002 4.500000e+001
2043200000 -4.042442e+001 -3.175773e+001 -2.000000e+002 4.500000e+001 -2.000000e+002 4.500000e+001 -2.000000e+002 4.500000e+001
2074421875 -4.817459e+001 -1.531435e+002 -2.000000e+002 4.500000e+001 -2.000000e+002 4.500000e+001 -2.000000e+002 4.500000e+001
2105643750 -3.541317e+001 -1.365656e+002 -2.000000e+002 4.500000e+001 -2.000000e+002 4.500000e+001 -2.000000e+002 4.500000e+001
2136865625 -3.206185e+001 -1.086013e+002 -2.000000e+002 4.500000e+001 -2.000000e+002 4.500000e+001 -2.000000e+002 4.500000e+001
2168087500 -3.212081e+001 -7.939981e+001 -2.000000e+002 4.500000e+001 -2.000000e+002 4.500000e+001 -2.000000e+002 4.500000e+001
2199309375 -3.368993e+001 -5.165932e+001 -2.000000e+002 4.500000e+001 -2.000000e+002 4.500000e+001 -2.000000e+002 4.500000e+001
2230531250 -3.974357e+001 -3.719249e+001 -2.000000e+002 4.500000e+001 -2.000000e+002 4.500000e+001 -2.000000e+002 4.500000e+001
2261753125 -4.405683e+001 -1.232356e+002 -2.000000e+002 4.500000e+001 -2.000000e+002 4.500000e+001 -2.000000e+002 4.500000e+001
2292975000 -3.470652e+001 -1.171394e+002 -2.000000e+002 4.500000e+001 -2.000000e+002 4.500000e+001 -2.000000e+002 4.500000e+001
2324196875 -3.164689e+001 -9.356517e+001 -2.000000e+002 4.500000e+001 -2.000000e+002 4.500000e+001 -2.000000e+002 4.500000e+001
2355418750 -3.139294e+001 -6.232407e+001 -2.000000e+002 4.500000e+001 -2.000000e+002 4.500000e+001 -2.000000e+002 4.500000e+001
2386640625 -3.338496e+001 -3.434616e+001 -2.000000e+002 4.500000e+001 -2.000000e+002 4.500000e+001 -2.000000e+002 4.500000e+001
2417862500 -4.123999e+001 -3.885553e+000 -2.000000e+002 4.500000e+001 -2.000000e+002 4.500000e+001 -2.000000e+002 4.500000e+001
2449084375 -4.428584e+001 -1.679028e+002 -2.000000e+002 4.500000e+001 -2.000000e+002 4.500000e+001 -2.000000e+002 4.500000e+001
2480306250 -3.374472e+001 -1.278089e+002 -2.000000e+002 4.500000e+001 -2.000000e+002 4.500000e+001 -2.000000e+002 4.500000e+001
2511528125 -3.117244e+001 -9.608320e+001 -2.000000e+002 4.500000e+001 -2.000000e+002 4.500000e+001 -2.000000e+002 4.500000e+001
2542750000 -3.117654e+001 -6.964760e+001 -2.000000e+002 4.500000e+001 -2.000000e+002 4.500000e+001 -2.000000e+002 4.500000e+001
2573971875 -3.402472e+001 -3.826015e+001 -2.000000e+002 4.500000e+001 -2.000000e+002 4.500000e+001 -2.000000e+002 4.500000e+001
2605193750 -4.339507e+001 -1.552191e+001 -2.000000e+002 4.500000e+001 -2.000000e+002 4.500000e+001 -2.000000e+002 4.500000e+001
2636415625 -3.937700e+001 -1.528077e+002 -2.000000e+002 4.500000e+001 -2.000000e+002 4.500000e+001 -2.000000e+002 4.500000e+001
2667637500 -3.264363e+001 -1.232803e+002 -2.000000e+002 4.500000e+001 -2.000000e+002 4.500000e+001 -2.000000e+002 4.500000e+001
2698859375 -3.054263e+001 -9.214373e+001 -2.000000e+002 4.500000e+001 -2.000000e+002 4.500000e+001 -2.000000e+002 4.500000e+001
2730081250 -3.094291e+001 -6.464906e+001 -2.000000e+002 4.500000e+001 -2.000000e+002 4.500000e+001 -2.000000e+002 4.500000e+001
2761303125 -3.444128e+001 -3.640844e+001 -2.000000e+002 4.500000e+001 -2.000000e+002 4.500000e+001 -2.000000e+002 4.500000e+001
2792525000 -4.741408e+001 -4.241734e+001 -2.000000e+002 4.500000e+001 -2.000000e+002 4.500000e+001 -2.000000e+002 4.500000e+001
2823746875 -3.660317e+001 -1.416234e+002 -2.000000e+002 4.500000e+001 -2.000000e+002 4.500000e+001 -2.000000e+002 4.500000e+001
2854968750 -3.048179e+001 -1.124116e+002 -2.000000e+002 4.500000e+001 -2.000000e+002 4.500000e+001 -2.000000e+002 4.500000e+001
2886190625 -2.853785e+001 -8.579018e+001 -2.000000e+002 4.500000e+001 -2.000000e+002 4.500000e+001 -2.000000e+002 4.500000e+001
2917412500 -2.975228e+001 -5.832226e+001 -2.000000e+002 4.500000e+001 -2.000000e+002 4.500000e+001 -2.000000e+002 4.500000e+001
2948634375 -3.358708e+001 -2.603772e+001 -2.000000e+002 4.500000e+001 -2.000000e+002 4.500000e+001 -2.000000e+002 4.500000e+001
2979856250 -5.232081e+001 8.383773e+000 -2.000000e+002 4.500000e+001 -2.000000e+002 4.500000e+001 -2.000000e+002 4.500000e+001
3011078125 -3.461592e+001 -1.470423e+002 -2.000000e+002 4.500000e+001 -2.000000e+002 4.500000e+001 -2.000000e+002 4.500000e+001
3042300000 -2.883475e+001 -1.152477e+002 -2.000000e+002 4.500000e+001 -2.000000e+002 4.500000e+001 -2.000000e+002 4.500000e+001
3073521875 -2.742589e+001 -8.627687e+001 -2.000000e+002 4.500000e+001 -2.000000e+002 4.500000e+001 -2.000000e+002 4.500000e+001
3104743750 -2.803045e+001 -5.400049e+001 -2.000000e+002 4.500000e+001 -2.000000e+002 4.500000e+001 -2.000000e+002 4.500000e+001
3135965625 -3.142326e+001 -1.951209e+001 -2.000000e+002 4.500000e+001 -2.000000e+002 4.500000e+001 -2.000000e+002 4.500000e+001
3167187500 -4.193996e+001 5.390095e+001 -2.000000e+002 4.500000e+001 -2.000000e+002 4.500000e+001 -2.000000e+002 4.500000e+001
3198409375 -3.404262e+001 -1.694027e+002 -2.000000e+002 4.500000e+001 -2.000000e+002 4.500000e+001 -2.000000e+002 4.500000e+001
3229631250 -2.853247e+001 -1.273805e+002 -2.000000e+002 4.500000e+001 -2.000000e+002 4.500000e+001 -2.000000e+002 4.500000e+001
3260853125 -2.662469e+001 -9.528375e+001 -2.000000e+002 4.500000e+001 -2.000000e+002 4.500000e+001 -2.000000e+002 4.500000e+001
3292075000 -2.718891e+001 -6.632497e+001 -2.000000e+002 4.500000e+001 -2.000000e+002 4.500000e+001 -2.000000e+002 4.500000e+001
3323296875 -3.039678e+001 -4.302784e+001 -2.000000e+002 4.500000e+001 -2.000000e+002 4.500000e+001 -2.000000e+002 4.500000e+001
3354518750 -4.124433e+001 -5.046156e+001 -2.000000e+002 4.500000e+001 -2.000000e+002 4.500000e+001 -2.000000e+002 4.500000e+001
3385740625 -3.448595e+001 -1.330190e+002 -2.000000e+002 4.500000e+001 -2.000000e+002 4.500000e+001 -2.000000e+002 4.500000e+001
3416962500 -2.772168e+001 -1.087100e+002 -2.000000e+002 4.500000e+001 -2.000000e+002 4.500000e+001 -2.000000e+002 4.500000e+001
3448184375 -2.570531e+001 -8.917896e+001 -2.000000e+002 4.500000e+001 -2.000000e+002 4.500000e+001 -2.000000e+002 4.500000e+001
3479406250 -2.728123e+001 -6.303472e+001 -2.000000e+002 4.500000e+001 -2.000000e+002 4.500000e+001 -2.000000e+002 4.500000e+001
3510628125 -3.011915e+001 -3.622122e+001 -2.000000e+002 4.500000e+001 -2.000000e+002 4.500000e+001 -2.000000e+002 4.500000e+001
3541850000 -3.970029e+001 -4.423117e+001 -2.000000e+002 4.500000e+001 -2.000000e+002 4.500000e+001 -2.000000e+002 4.500000e+001
3573071875 -3.329408e+001 -1.268023e+002 -2.000000e+002 4.500000e+001 -2.000000e+002 4.500000e+001 -2.000000e+002 4.500000e+001
3604293750 -2.777576e+001 -1.084022e+002 -2.000000e+002 4.500000e+001 -2.000000e+002 4.500000e+001 -2.000000e+002 4.500000e+001
3635515625 -2.646225e+001 -8.140797e+001 -2.000000e+002 4.500000e+001 -2.000000e+002 4.500000e+001 -2.000000e+002 4.500000e+001
3666737500 -2.649352e+001 -5.322272e+001 -2.000000e+002 4.500000e+001 -2.000000e+002 4.500000e+001 -2.000000e+002 4.500000e+001
3697959375 -3.033578e+001 -3.383585e+001 -2.000000e+002 4.500000e+001 -2.000000e+002 4.500000e+001 -2.000000e+002 4.500000e+001
3729181250 -4.700321e+001 -6.332696e+001 -2.000000e+002 4.500000e+001 -2.000000e+002 4.500000e+001 -2.000000e+002 4.500000e+001
3760403125 -3.104038e+001 -1.358558e+002 -2.000000e+002 4.500000e+001 -2.000000e+002 4.500000e+001 -2.000000e+002 4.500000e+001
3791625000 -2.600882e+001 -1.127151e+002 -2.000000e+002 4.500000e+001 -2.000000e+002 4.500000e+001 -2.000000e+002 4.500000e+001
3822846875 -2.448142e+001 -8.582211e+001 -2.000000e+002 4.500000e+001 -2.000000e+002 4.500000e+001 -2.000000e+002 4.500000e+001
3854068750 -2.453866e+001 -6.352696e+001 -2.000000e+002 4.500000e+001 -2.000000e+002 4.500000e+001 -2.000000e+002 4.500000e+001
3885290625 -2.801021e+001 -4.552562e+001 -2.000000e+002 4.500000e+001 -2.000000e+002 4.500000e+001 -2.000000e+002 4.500000e+001
3916512500 -3.515173e+001 -5.207007e+001 -2.000000e+002 4.500000e+001 -2.000000e+002 4.500000e+001 -2.000000e+002 4.500000e+001
3947734375 -3.101003e+001 -1.096515e+002 -2.000000e+002 4.500000e+001 -2.000000e+002 4.500000e+001 -2.000000e+002 4.500000e+001
3978956250 -2.587734e+001 -1.015401e+002 -2.000000e+002 4.500000e+001 -2.000000e+002 4.500000e+001 -2.000000e+002 4.500000e+001
4010178125 -2.417474e+001 -8.142298e+001 -2.000000e+002 4.500000e+001 -2.000000e+002 4.500000e+001 -2.000000e+002 4.500000e+001
4041400000 -2.471789e+001 -5.843228e+001 -2.000000e+002 4.500000e+001 -2.000000e+002 4.500000e+001 -2.000000e+002 4.500000e+001
4072621875 -2.686658e+001 -3.959454e+001 -2.000000e+002 4.500000e+001 -2.000000e+002 4.500000e+001 -2.000000e+002 4.500000e+001
4103843750 -3.217429e+001 -4.915934e+001 -2.000000e+002 4.500000e+001 -2.000000e+002 4.500000e+001 -2.000000e+002 4.500000e+001
4135065625 -3.126353e+001 -9.819615e+001 -2.000000e+002 4.500000e+001 -2.000000e+002 4.500000e+001 -2.000000e+002 4.500000e+001
4166287500 -2.654600e+001 -9.118424e+001 -2.000000e+002 4.500000e+001 -2.000000e+002 4.500000e+001 -2.000000e+002 4.500000e+001
4197509375 -2.463399e+001 -7.182925e+001 -2.000000e+002 4.500000e+001 -2.000000e+002 4.500000e+001 -2.000000e+002 4.500000e+001
4228731250 -2.479904e+001 -5.361921e+001 -2.000000e+002 4.500000e+001 -2.000000e+002 4.500000e+001 -2.000000e+002 4.500000e+001
4259953125 -2.809364e+001 -4.315407e+001 -2.000000e+002 4.500000e+001 -2.000000e+002 4.500000e+001 -2.000000e+002 4.500000e+001
4291175000 -3.385135e+001 -6.461357e+001 -2.000000e+002 4.500000e+001 -2.000000e+002 4.500000e+001 -2.000000e+002 4.500000e+001
4322396875 -2.844460e+001 -9.810357e+001 -2.000000e+002 4.500000e+001 -2.000000e+002 4.500000e+001 -2.000000e+002 4.500000e+001
4353618750 -2.416706e+001 -9.027805e+001 -2.000000e+002 4.500000e+001 -2.000000e+002 4.500000e+001 -2.000000e+002 4.500000e+001
4384840625 -2.301680e+001 -7.055204e+001 -2.000000e+002 4.500000e+001 -2.000000e+002 4.500000e+001 -2.000000e+002 4.500000e+001
4416062500 -2.340272e+001 -5.019218e+001 -2.000000e+002 4.500000e+001 -2.000000e+002 4.500000e+001 -2.000000e+002 4.500000e+001
4447284375 -2.629342e+001 -3.182352e+001 -2.000000e+002 4.500000e+001 -2.000000e+002 4.500000e+001 -2.000000e+002 4.500000e+001
4478506250 -3.176094e+001 -3.778134e+001 -2.000000e+002 4.500000e+001 -2.000000e+002 4.500000e+001 -2.000000e+002 4.500000e+001
4509728125 -3.015691e+001 -8.948179e+001 -2.000000e+002 4.500000e+001 -2.000000e+002 4.500000e+001 -2.000000e+002 4.500000e+001
4540950000 -2.601245e+001 -8.532556e+001 -2.000000e+002 4.500000e+001 -2.000000e+002 4.500000e+001 -2.000000e+002 4.500000e+001
4572171875 -2.373767e+001 -6.513903e+001 -2.000000e+002 4.500000e+001 -2.000000e+002 4.500000e+001 -2.000000e+002 4.500000e+001
4603393750 -2.390545e+001 -4.798472e+001 -2.000000e+002 4.500000e+001 -2.000000e+002 4.500000e+001 -2.000000e+002 4.500000e+001
4634615625 -2.676235e+001 -3.197689e+001 -2.000000e+002 4.500000e+001 -2.000000e+002 4.500000e+001 -2.000000e+002 4.500000e+001
4665837500 -3.164505e+001 -4.692601e+001 -2.000000e+002 4.500000e+001 -2.000000e+002 4.500000e+001 -2.000000e+002 4.500000e+001
4697059375 -2.918314e+001 -8.590047e+001 -2.000000e+002 4.500000e+001 -2.000000e+002 4.500000e+001 -2.000000e+002 4.500000e+001
4728281250 -2.476404e+001 -7.512196e+001 -2.000000e+002 4.500000e+001 -2.000000e+002 4.500000e+001 -2.000000e+002 4.500000e+001
4759503125 -2.286347e+001 -5.856305e+001 -2.000000e+002 4.500000e+001 -2.000000e+002 4.500000e+001 -2.000000e+002 4.500000e+001
4790725000 -2.351827e+001 -3.771883e+001 -2.000000e+002 4.500000e+001 -2.000000e+002 4.500000e+001 -2.000000e+002 4.500000e+001
