!Agilent Technologies,E8364A,US41440322,A.04.87.01
!Agilent E8364A: A.04.87.01
!Date: Tuesday, July 09, 2024 14:49:15
!Correction: S11(Full 2 Port SOLT,1,2) S21(Full 2 Port SOLT,1,2) S12(Full 2 Port SOLT,1,2) S22(Full 2 Port SOLT,1,2)
!S2P File: Measurements: S11, S21, S12, S22:
# Hz S  dB   R 50
45000000 -2.476674e+001 -6.536211e+001 1.896005e-001 -7.689394e+001 -6.771992e-001 -7.694924e+001 -2.821459e+001 6.521367e+001
46209599.408 -2.802675e+001 -9.703961e+001 2.511981e-001 -8.273401e+001 -2.324009e-001 -8.145985e+001 -2.724247e+001 8.042795e+001
47419198.816 -2.702527e+001 -1.156013e+002 -1.415524e-001 -8.476422e+001 -6.829499e-002 -8.524584e+001 -2.954310e+001 2.683075e+001
48628798.224 -2.675213e+001 -1.229354e+002 1.303445e-001 -8.836317e+001 7.141165e-002 -8.987290e+001 -3.424068e+001 1.638243e+002
49838397.632 -2.756334e+001 -1.097220e+002 -2.562167e-002 -9.218717e+001 -2.892742e-001 -9.341203e+001 -2.963494e+001 8.750156e+001
51047997.04 -2.384528e+001 -1.366884e+002 -2.219129e-002 -9.528599e+001 7.900416e-002 -9.644382e+001 -2.581287e+001 1.015141e+002
52257596.448 -2.646814e+001 -1.342233e+002 8.950239e-002 -1.003539e+002 -7.928132e-002 -1.003303e+002 -2.928870e+001 4.948967e+001
53467195.856 -2.693238e+001 -1.576731e+002 3.541700e-002 -1.045449e+002 -3.512213e-002 -1.060069e+002 -3.326680e+001 7.691251e+001
54676795.264 -2.644658e+001 -1.588672e+002 3.458117e-002 -1.102521e+002 -2.870381e-001 -1.100744e+002 -3.059981e+001 8.212477e+001
55886394.672 -2.993903e+001 -1.779389e+002 1.705962e-003 -1.116457e+002 -3.141835e-001 -1.132930e+002 -2.497935e+001 7.706940e+001
57095994.08 -2.918516e+001 1.604513e+002 1.043654e-001 -1.164383e+002 -3.639506e-001 -1.184934e+002 -3.892726e+001 8.194292e+001
58305593.488 -3.158269e+001 1.711815e+002 2.635055e-001 -1.188096e+002 -6.086141e-001 -1.215967e+002 -3.101548e+001 3.321531e+001
59515192.896 -3.417322e+001 1.544640e+002 2.997675e-001 -1.238441e+002 -4.402871e-001 -1.251009e+002 -2.591191e+001 2.237235e+001
60724792.304 -3.040592e+001 1.484294e+002 1.620574e-001 -1.291718e+002 -4.515385e-001 -1.283797e+002 -3.004865e+001 3.429629e+001
61934391.712 -3.036990e+001 1.026053e+002 1.616315e-001 -1.332254e+002 -4.002734e-001 -1.322173e+002 -2.883243e+001 -1.654479e+001
63143991.12 -3.307037e+001 7.924501e+001 5.340990e-002 -1.371783e+002 -2.831705e-001 -1.364761e+002 -2.535628e+001 1.982757e+001
64353590.528 -3.622733e+001 3.898494e+001 -1.306666e-001 -1.399017e+002 -2.695023e-001 -1.412833e+002 -2.752195e+001 -1.417682e+001
65563189.936 -3.188488e+001 5.142534e+001 -1.058962e-001 -1.439907e+002 -2.558814e-001 -1.456698e+002 -2.788153e+001 -3.448611e+001
66772789.344 -3.326296e+001 5.172408e+001 -7.688612e-002 -1.478200e+002 -2.374592e-001 -1.497677e+002 -2.690449e+001 -1.319148e+001
67982388.752 -3.117243e+001 1.781986e+001 -1.290916e-001 -1.522277e+002 -1.722986e-001 -1.546449e+002 -2.788993e+001 -5.705349e+001
69191988.16 -3.186327e+001 -9.688285e+000 -1.812112e-001 -1.548702e+002 -2.494032e-001 -1.579011e+002 -2.612869e+001 -4.269046e+001
70401587.568 -3.064465e+001 -3.059994e-001 -7.709582e-002 -1.590675e+002 -4.032012e-001 -1.618287e+002 -2.780881e+001 -6.815262e+001
71611186.976 -3.027680e+001 -8.461585e+000 -4.211180e-002 -1.641251e+002 -3.600470e-001 -1.656733e+002 -2.771123e+001 -6.436212e+001
72820786.384 -2.819888e+001 -6.600740e+000 -1.812070e-002 -1.676532e+002 -3.328615e-001 -1.696122e+002 -2.633946e+001 -8.347320e+001
74030385.792 -2.909798e+001 -1.357160e+001 -1.074354e-001 -1.714479e+002 -3.232628e-001 -1.731764e+002 -2.631221e+001 -8.243853e+001
75239985.2 -2.818386e+001 -1.528941e+001 -1.469031e-001 -1.757591e+002 -3.050094e-001 -1.772579e+002 -2.679574e+001 -9.672319e+001
76449584.608 -2.766625e+001 -3.773263e+001 -1.673007e-001 1.799374e+002 -3.242142e-001 1.785249e+002 -2.519375e+001 -1.096782e+002
77659184.016 -2.690691e+001 -5.138378e+001 -1.784807e-001 1.768732e+002 -3.553058e-001 1.746769e+002 -2.563097e+001 -1.248616e+002
78868783.424 -2.839007e+001 -6.220719e+001 -1.137552e-001 1.728290e+002 -3.607385e-001 1.702107e+002 -2.537034e+001 -1.300169e+002
80078382.832 -2.681355e+001 -5.580778e+001 -1.916914e-001 1.691558e+002 -4.399143e-001 1.665833e+002 -2.759044e+001 -1.253765e+002
81287982.24 -2.791729e+001 -6.969876e+001 -1.786034e-001 1.650027e+002 -2.599831e-001 1.628398e+002 -2.458333e+001 -1.549715e+002
82497581.648 -2.713703e+001 -7.771736e+001 -2.335852e-001 1.609996e+002 -3.680878e-001 1.587772e+002 -2.563678e+001 -1.481312e+002
83707181.056 -2.943338e+001 -7.337708e+001 -1.987304e-001 1.563168e+002 -4.301831e-001 1.540846e+002 -2.530415e+001 -1.674580e+002
84916780.464 -2.790592e+001 -7.291902e+001 -1.175644e-001 1.525263e+002 -3.072600e-001 1.503972e+002 -2.585381e+001 -1.734749e+002
86126379.872 -2.709547e+001 -8.982784e+001 -1.736258e-001 1.489817e+002 -3.399718e-001 1.460290e+002 -2.415661e+001 1.772856e+002
87335979.28 -2.689114e+001 -8.493845e+001 -1.153255e-001 1.450990e+002 -4.444867e-001 1.425179e+002 -2.503588e+001 1.743057e+002
88545578.688 -2.778389e+001 -1.109142e+002 -1.971663e-001 1.409390e+002 -3.891358e-001 1.384813e+002 -2.480578e+001 1.637000e+002
89755178.096 -2.931771e+001 -9.402748e+001 -1.352646e-001 1.371222e+002 -4.349337e-001 1.348600e+002 -2.546836e+001 1.595281e+002
90964777.504 -2.892466e+001 -1.065911e+002 -1.122863e-001 1.327933e+002 -4.220728e-001 1.304473e+002 -2.522560e+001 1.485872e+002
92174376.912 -2.941822e+001 -1.065574e+002 -1.764732e-001 1.288433e+002 -5.007008e-001 1.260908e+002 -2.479379e+001 1.413254e+002
93383976.32 -2.977014e+001 -1.269772e+002 -1.644416e-001 1.245189e+002 -4.482619e-001 1.225179e+002 -2.532119e+001 1.294327e+002
94593575.728 -3.026904e+001 -1.178014e+002 -1.759521e-001 1.214295e+002 -4.371335e-001 1.189435e+002 -2.564184e+001 1.215297e+002
95803175.136 -3.293378e+001 -1.379519e+002 -1.195237e-001 1.165900e+002 -4.584852e-001 1.147208e+002 -2.441844e+001 1.150742e+002
97012774.544 -3.444845e+001 -1.315634e+002 -1.128104e-001 1.129559e+002 -5.167964e-001 1.106220e+002 -2.563673e+001 1.036526e+002
98222373.952 -3.552554e+001 -1.291992e+002 -1.957903e-001 1.090083e+002 -4.166956e-001 1.072056e+002 -2.461857e+001 1.001372e+002
99431973.36 -3.610476e+001 -1.510322e+002 -1.793979e-001 1.053665e+002 -4.848399e-001 1.027000e+002 -2.480362e+001 8.440263e+001
100641572.768 -3.836091e+001 -1.158929e+002 -1.463292e-001 1.011720e+002 -3.716179e-001 9.920510e+001 -2.592912e+001 7.932867e+001
101851172.176 -3.931606e+001 -1.795856e+002 -1.811405e-001 9.770580e+001 -3.726607e-001 9.490201e+001 -2.613971e+001 6.797947e+001
103060771.584 -4.063555e+001 -1.624351e+002 -1.262692e-001 9.319969e+001 -3.590927e-001 9.087100e+001 -2.572358e+001 5.409428e+001
104270370.992 -4.519495e+001 -1.524966e+002 -1.559376e-001 8.883070e+001 -2.376970e-001 8.713712e+001 -2.459241e+001 5.325442e+001
105479970.4 -6.032253e+001 1.075108e+002 -1.038539e-001 8.541064e+001 -2.303188e-001 8.307568e+001 -2.521313e+001 4.038152e+001
106689569.808 -7.495692e+001 2.493769e+001 -3.086893e-003 8.136765e+001 -2.450177e-001 7.894501e+001 -2.583291e+001 3.787703e+001
107899169.216 -4.310506e+001 -2.321851e+001 4.497971e-003 7.756083e+001 -1.990229e-001 7.499924e+001 -2.532481e+001 2.293844e+001
109108768.624 -4.516519e+001 -2.203386e+001 -6.351251e-003 7.357915e+001 -1.862900e-001 7.105682e+001 -2.540259e+001 1.733131e+001
110318368.032 -3.855281e+001 -1.548213e+001 -3.844130e-002 6.939488e+001 -1.813515e-001 6.698060e+001 -2.583439e+001 8.676674e+000
111527967.44 -3.874853e+001 -4.092712e+000 2.128488e-002 6.565693e+001 -1.115709e-001 6.336759e+001 -2.514901e+001 1.953324e+000
112737566.848 -3.616486e+001 -1.497555e+001 5.338007e-002 6.159009e+001 -2.096464e-001 5.902938e+001 -2.584999e+001 -9.112140e+000
113947166.256 -3.494868e+001 -1.527281e+001 9.370115e-002 5.744078e+001 -1.531774e-001 5.511469e+001 -2.597277e+001 -2.236796e+001
115156765.664 -3.469421e+001 -1.574212e+001 1.156570e-002 5.342064e+001 -1.605610e-001 5.052044e+001 -2.536595e+001 -3.134559e+001
116366365.072 -3.436700e+001 -3.101587e+001 8.085999e-002 4.964252e+001 -1.680219e-001 4.650697e+001 -2.578661e+001 -3.381292e+001
117575964.48 -3.267661e+001 -3.604084e+001 3.949292e-002 4.586446e+001 -1.420076e-001 4.263149e+001 -2.560581e+001 -4.993345e+001
118785563.888 -3.273500e+001 -4.432742e+001 1.295570e-002 4.168078e+001 -1.375484e-001 3.873111e+001 -2.655407e+001 -5.510152e+001
119995163.296 -3.203709e+001 -3.988838e+001 5.836646e-002 3.808069e+001 -1.161563e-001 3.499637e+001 -2.513461e+001 -6.311912e+001
121204762.704 -2.997446e+001 -4.466304e+001 5.830164e-002 3.348948e+001 -1.299287e-001 3.089726e+001 -2.606786e+001 -6.681270e+001
122414362.112 -2.942529e+001 -4.587778e+001 1.080152e-002 2.965749e+001 -1.042844e-001 2.683782e+001 -2.574779e+001 -8.193050e+001
123623961.52 -3.070477e+001 -5.360918e+001 5.259077e-002 2.581832e+001 -5.169029e-002 2.290950e+001 -2.576708e+001 -8.922173e+001
124833560.928 -3.022757e+001 -5.605305e+001 1.797318e-002 2.174999e+001 -8.889132e-002 1.867328e+001 -2.562649e+001 -9.620761e+001
126043160.336 -2.872941e+001 -6.382453e+001 1.685754e-003 1.806027e+001 -1.258215e-001 1.458537e+001 -2.656017e+001 -9.939563e+001
127252759.744 -2.847946e+001 -6.606232e+001 -3.090648e-002 1.433966e+001 -6.939409e-002 1.035324e+001 -2.546803e+001 -1.093655e+002
128462359.152 -2.921240e+001 -7.067168e+001 2.552019e-002 1.012849e+001 -1.748472e-001 7.018365e+000 -2.559584e+001 -1.222769e+002
129671958.56 -2.933425e+001 -6.727724e+001 -1.681624e-002 6.134205e+000 -1.758640e-001 2.455170e+000 -2.592703e+001 -1.256274e+002
130881557.968 -2.849222e+001 -7.401072e+001 -5.835065e-002 2.444796e+000 -1.571880e-001 -1.659988e+000 -2.651598e+001 -1.304671e+002
132091157.376 -2.840292e+001 -7.980438e+001 -2.326790e-002 -1.893680e+000 -1.956366e-001 -5.779110e+000 -2.574742e+001 -1.406526e+002
133300756.784 -2.903805e+001 -8.060503e+001 -1.018533e-001 -5.573166e+000 -2.142907e-001 -9.863474e+000 -2.636174e+001 -1.471413e+002
134510356.192 -2.862668e+001 -8.750697e+001 -9.220088e-002 -9.534703e+000 -2.097938e-001 -1.375255e+001 -2.663178e+001 -1.521417e+002
135719955.6 -2.854063e+001 -8.676841e+001 -8.251321e-002 -1.374599e+001 -2.121103e-001 -1.759280e+001 -2.632939e+001 -1.653945e+002
136929555.008 -2.849126e+001 -9.309507e+001 -5.729578e-002 -1.743116e+001 -2.658972e-001 -2.180966e+001 -2.619500e+001 -1.711185e+002
138139154.416 -2.853009e+001 -9.966145e+001 -3.801353e-002 -2.149437e+001 -2.649643e-001 -2.585724e+001 -2.703703e+001 -1.721452e+002
139348753.824 -2.894392e+001 -9.762741e+001 -4.488292e-002 -2.558809e+001 -2.495020e-001 -2.962121e+001 -2.717883e+001 -1.772831e+002
140558353.232 -2.922273e+001 -1.073170e+002 -7.337654e-002 -2.967147e+001 -2.386279e-001 -3.386705e+001 -2.710331e+001 1.752826e+002
141767952.64 -2.918529e+001 -1.170828e+002 -8.520243e-002 -3.342328e+001 -2.548003e-001 -3.753039e+001 -2.749522e+001 1.660449e+002
142977552.048 -2.888526e+001 -1.109099e+002 -7.416382e-002 -3.737650e+001 -1.977475e-001 -4.188150e+001 -2.762728e+001 1.677887e+002
144187151.456 -2.977387e+001 -1.166912e+002 -5.414296e-002 -4.143362e+001 -2.779483e-001 -4.593582e+001 -2.782158e+001 1.604675e+002
145396750.864 -3.044040e+001 -1.227209e+002 -8.171415e-002 -4.552024e+001 -2.769112e-001 -4.979367e+001 -2.774802e+001 1.528770e+002
146606350.272 -3.056642e+001 -1.354027e+002 -1.146477e-001 -4.955890e+001 -2.597720e-001 -5.369136e+001 -2.879835e+001 1.454564e+002
147815949.68 -3.135406e+001 -1.333456e+002 -6.190218e-002 -5.342052e+001 -3.027199e-001 -5.779893e+001 -2.952366e+001 1.445320e+002
149025549.088 -3.172493e+001 -1.346215e+002 -6.579997e-002 -5.725545e+001 -2.645969e-001 -6.186411e+001 -2.945365e+001 1.379211e+002
150235148.496 -3.209087e+001 -1.496647e+002 -9.922886e-002 -6.107600e+001 -2.947055e-001 -6.578111e+001 -3.005044e+001 1.307280e+002
151444747.904 -3.276627e+001 -1.488061e+002 -1.038012e-001 -6.519598e+001 -2.919405e-001 -6.973297e+001 -3.007693e+001 1.238966e+002
152654347.312 -3.420089e+001 -1.647510e+002 -1.221905e-001 -6.894724e+001 -3.454426e-001 -7.383395e+001 -3.005845e+001 1.207340e+002
153863946.72 -3.471930e+001 -1.611034e+002 -1.170652e-001 -7.317428e+001 -3.021301e-001 -7.775211e+001 -3.089679e+001 1.100052e+002
155073546.128 -3.548190e+001 -1.787142e+002 -1.682313e-001 -7.710978e+001 -3.446615e-001 -8.191254e+001 -3.120078e+001 1.103331e+002
156283145.536 -3.785595e+001 1.792986e+002 -1.944711e-001 -8.093639e+001 -3.539907e-001 -8.570309e+001 -3.208984e+001 9.929768e+001
157492744.944 -3.703351e+001 1.762930e+002 -1.706190e-001 -8.477529e+001 -3.664219e-001 -8.961066e+001 -3.174314e+001 1.013131e+002
158702344.352 -3.985830e+001 1.494698e+002 -2.181414e-001 -8.887097e+001 -3.910260e-001 -9.349916e+001 -3.330484e+001 8.662285e+001
159911943.76 -4.009679e+001 1.521301e+002 -1.915059e-001 -9.269067e+001 -3.897003e-001 -9.727341e+001 -3.323095e+001 8.099114e+001
161121543.168 -4.206042e+001 1.103087e+002 -2.210971e-001 -9.691585e+001 -4.375739e-001 -1.016560e+002 -3.310612e+001 7.491951e+001
162331142.576 -4.360489e+001 1.208984e+002 -2.385751e-001 -1.007500e+002 -4.450646e-001 -1.055505e+002 -3.371941e+001 5.844795e+001
163540741.984 -4.227904e+001 7.333013e+001 -2.439758e-001 -1.046487e+002 -4.605367e-001 -1.094522e+002 -3.382109e+001 5.371695e+001
164750341.392 -3.886155e+001 4.620703e+001 -2.524729e-001 -1.085097e+002 -4.601338e-001 -1.134409e+002 -3.446862e+001 4.792978e+001
165959940.8 -3.765995e+001 1.600130e+001 -2.770083e-001 -1.125830e+002 -4.976957e-001 -1.174483e+002 -3.392702e+001 3.798415e+001
167169540.208 -3.698379e+001 1.025161e+001 -2.795371e-001 -1.164552e+002 -4.830028e-001 -1.215251e+002 -3.598301e+001 3.046087e+001
168379139.616 -3.555529e+001 1.255092e+000 -3.154642e-001 -1.202186e+002 -5.244997e-001 -1.254118e+002 -3.497460e+001 1.865510e+001
169588739.024 -3.508939e+001 -7.203396e+000 -3.279141e-001 -1.241669e+002 -5.054101e-001 -1.294400e+002 -3.405774e+001 7.083434e+000
170798338.432 -3.378554e+001 -9.964728e+000 -3.247305e-001 -1.280090e+002 -5.374566e-001 -1.336819e+002 -3.566782e+001 -2.625469e+000
172007937.84 -3.235551e+001 -1.888294e+001 -3.224291e-001 -1.321178e+002 -5.214677e-001 -1.374433e+002 -3.432161e+001 -1.049130e+001
173217537.248 -3.221694e+001 -1.700927e+001 -3.198740e-001 -1.359554e+002 -4.915624e-001 -1.416985e+002 -3.332412e+001 -2.282551e+001
174427136.656 -3.139103e+001 -3.765664e+001 -3.320818e-001 -1.398533e+002 -5.159001e-001 -1.453860e+002 -3.298596e+001 -3.274200e+001
175636736.064 -3.049707e+001 -3.992169e+001 -3.092004e-001 -1.436528e+002 -5.183713e-001 -1.492598e+002 -3.224593e+001 -4.251714e+001
176846335.472 -2.936548e+001 -4.637780e+001 -3.484357e-001 -1.480886e+002 -5.331606e-001 -1.533940e+002 -3.140759e+001 -5.136334e+001
178055934.88 -2.979856e+001 -5.018702e+001 -3.588340e-001 -1.516673e+002 -5.176459e-001 -1.573843e+002 -3.038436e+001 -5.891589e+001
179265534.288 -2.922253e+001 -5.380495e+001 -3.581549e-001 -1.553871e+002 -5.429506e-001 -1.611136e+002 -3.100915e+001 -6.628147e+001
180475133.696 -2.861121e+001 -6.273814e+001 -3.232026e-001 -1.596754e+002 -5.469920e-001 -1.652147e+002 -3.009427e+001 -7.035925e+001
181684733.104 -2.845202e+001 -6.931738e+001 -3.910392e-001 -1.634692e+002 -5.318721e-001 -1.691544e+002 -2.914934e+001 -7.956907e+001
182894332.512 -2.832748e+001 -7.713547e+001 -3.871534e-001 -1.676345e+002 -5.351827e-001 -1.732695e+002 -2.878307e+001 -8.823228e+001
184103931.92 -2.793265e+001 -8.029813e+001 -4.037819e-001 -1.712991e+002 -5.506651e-001 -1.773153e+002 -2.821701e+001 -9.308190e+001
185313531.328 -2.778948e+001 -8.518462e+001 -4.008575e-001 -1.750975e+002 -5.563226e-001 1.786604e+002 -2.769749e+001 -1.011948e+002
186523130.736 -2.745612e+001 -9.007756e+001 -4.312844e-001 -1.790483e+002 -5.296733e-001 1.751514e+002 -2.765892e+001 -1.080128e+002
187732730.144 -2.759061e+001 -9.814394e+001 -3.911769e-001 1.770591e+002 -4.838739e-001 1.709161e+002 -2.649295e+001 -1.132641e+002
188942329.552 -2.783629e+001 -1.043400e+002 -4.024861e-001 1.731261e+002 -5.233289e-001 1.668131e+002 -2.681428e+001 -1.213260e+002
190151928.96 -2.771760e+001 -1.107622e+002 -4.096231e-001 1.690217e+002 -5.079756e-001 1.629331e+002 -2.600829e+001 -1.261812e+002
191361528.368 -2.769093e+001 -1.159700e+002 -4.046561e-001 1.653188e+002 -5.179833e-001 1.591115e+002 -2.557476e+001 -1.314885e+002
192571127.776 -2.780880e+001 -1.237816e+002 -4.393057e-001 1.612380e+002 -5.099287e-001 1.549124e+002 -2.554249e+001 -1.391830e+002
193780727.184 -2.817309e+001 -1.289914e+002 -4.179275e-001 1.575390e+002 -4.900455e-001 1.509720e+002 -2.473988e+001 -1.452672e+002
194990326.592 -2.817208e+001 -1.333153e+002 -4.416631e-001 1.535429e+002 -5.757448e-001 1.467387e+002 -2.513261e+001 -1.510055e+002
196199926 -2.849383e+001 -1.406947e+002 -4.318899e-001 1.495886e+002 -5.904049e-001 1.430686e+002 -2.489136e+001 -1.565339e+002
197409525.408 -2.824911e+001 -1.467537e+002 -4.480436e-001 1.454537e+002 -5.665352e-001 1.389749e+002 -2.439028e+001 -1.639353e+002
198619124.816 -2.869063e+001 -1.535390e+002 -4.480039e-001 1.417747e+002 -5.614501e-001 1.351857e+002 -2.420536e+001 -1.677908e+002
199828724.224 -2.939067e+001 -1.572863e+002 -4.503389e-001 1.377298e+002 -5.596238e-001 1.311650e+002 -2.432452e+001 -1.746008e+002
201038323.632 -2.973828e+001 -1.670731e+002 -4.438711e-001 1.339238e+002 -5.660790e-001 1.272249e+002 -2.400313e+001 1.778079e+002
202247923.04 -2.979323e+001 -1.701469e+002 -4.192696e-001 1.299568e+002 -5.857999e-001 1.231303e+002 -2.403115e+001 1.728073e+002
203457522.448 -3.039975e+001 -1.761236e+002 -4.312855e-001 1.258011e+002 -5.642819e-001 1.188678e+002 -2.394383e+001 1.659192e+002
204667121.856 -3.088936e+001 1.762235e+002 -4.500122e-001 1.219591e+002 -5.738865e-001 1.150843e+002 -2.377246e+001 1.598259e+002
205876721.264 -3.128105e+001 1.661366e+002 -4.024267e-001 1.179379e+002 -5.640932e-001 1.110000e+002 -2.405700e+001 1.526287e+002
207086320.672 -3.264736e+001 1.558120e+002 -4.187497e-001 1.141416e+002 -5.695118e-001 1.068190e+002 -2.397251e+001 1.453913e+002
208295920.08 -3.247344e+001 1.530286e+002 -3.946653e-001 1.101644e+002 -5.638986e-001 1.026671e+002 -2.427219e+001 1.395188e+002
209505519.488 -3.372517e+001 1.482023e+002 -3.827093e-001 1.064849e+002 -5.699011e-001 9.873518e+001 -2.398125e+001 1.333891e+002
210715118.896 -3.388677e+001 1.373875e+002 -4.056317e-001 1.023854e+002 -5.894265e-001 9.433880e+001 -2.413605e+001 1.256766e+002
211924718.304 -3.440802e+001 1.334932e+002 -3.587003e-001 9.844167e+001 -5.632698e-001 9.048998e+001 -2.397846e+001 1.197110e+002
213134317.712 -3.506008e+001 1.223004e+002 -3.941785e-001 9.454861e+001 -5.968081e-001 8.630257e+001 -2.431577e+001 1.115387e+002
214343917.12 -3.556496e+001 1.129343e+002 -3.786439e-001 9.069045e+001 -6.084823e-001 8.221617e+001 -2.446967e+001 1.043750e+002
215553516.528 -3.594050e+001 1.020938e+002 -3.311107e-001 8.665682e+001 -6.148524e-001 7.800273e+001 -2.468492e+001 9.755919e+001
216763115.936 -3.632357e+001 9.905937e+001 -3.313763e-001 8.263915e+001 -6.378857e-001 7.380894e+001 -2.475815e+001 8.900858e+001
217972715.344 -3.607174e+001 8.636044e+001 -3.335384e-001 7.845720e+001 -6.389746e-001 6.974485e+001 -2.496489e+001 7.910169e+001
219182314.752 -3.593808e+001 7.489499e+001 -3.472648e-001 7.455999e+001 -6.312470e-001 6.570554e+001 -2.517595e+001 7.214405e+001
220391914.16 -3.709851e+001 6.494564e+001 -3.462330e-001 7.062614e+001 -6.510760e-001 6.149911e+001 -2.511286e+001 6.391102e+001
221601513.568 -3.734192e+001 5.570920e+001 -2.968671e-001 6.672644e+001 -7.024338e-001 5.732063e+001 -2.534524e+001 5.105777e+001
222811112.976 -3.640714e+001 4.071754e+001 -3.098177e-001 6.292558e+001 -6.949807e-001 5.332441e+001 -2.566046e+001 4.438651e+001
