!Agilent Technologies,E8364A,US41440322,A.04.87.01
!Agilent E8364A: A.04.87.01
!Date: Tuesday, July 09, 2024 14:49:44
!Correction: S11(Full 2 Port SOLT,1,2) S21(Full 2 Port SOLT,1,2) S12(Full 2 Port SOLT,1,2) S22(Full 2 Port SOLT,1,2)
!S2P File: Measurements: S11, S21, S12, S22:
# Hz S  dB   R 50
45000000 -2.646213e+001 -8.464492e+001 -3.096671e-002 -7.524642e+001 -2.798543e-001 -7.720829e+001 -3.435178e+001 1.144682e+002
51047997.04 -2.285229e+001 -1.252718e+002 -1.533669e-001 -9.704394e+001 -2.169195e-001 -9.629702e+001 -2.539950e+001 9.165695e+001
57095994.08 -3.216839e+001 1.775246e+002 8.303826e-002 -1.151203e+002 -4.118252e-001 -1.181292e+002 -2.766195e+001 4.528179e+001
63143991.12 -3.516587e+001 1.185172e+002 3.328134e-002 -1.370949e+002 -1.725879e-001 -1.362403e+002 -2.790275e+001 5.192536e+000
69191988.16 -3.082148e+001 2.530087e+001 -1.425569e-001 -1.549507e+002 -2.632407e-001 -1.569470e+002 -2.616874e+001 -4.285317e+001
75239985.2 -2.809617e+001 -3.106789e+001 -1.512769e-001 -1.768897e+002 -4.054195e-001 -1.781996e+002 -2.641648e+001 -1.062871e+002
81287982.24 -2.634491e+001 -6.523927e+001 -2.319784e-001 1.644505e+002 -3.978276e-001 1.624001e+002 -2.620094e+001 -1.446767e+002
87335979.28 -2.858208e+001 -9.193394e+001 -2.479874e-001 1.440451e+002 -4.298580e-001 1.418589e+002 -2.524474e+001 1.733109e+002
93383976.32 -3.039390e+001 -1.148263e+002 -2.399596e-001 1.244187e+002 -4.949400e-001 1.215832e+002 -2.554247e+001 1.263107e+002
99431973.36 -3.543333e+001 -1.581250e+002 -1.985897e-001 1.044891e+002 -4.890537e-001 1.017937e+002 -2.606135e+001 8.006384e+001
105479970.4 -5.117258e+001 -5.186840e+001 -6.956896e-002 8.468250e+001 -3.033778e-001 8.231998e+001 -2.662236e+001 4.388989e+001
111527967.44 -3.764483e+001 -3.890118e+001 -6.544399e-002 6.502589e+001 -2.480506e-001 6.254059e+001 -2.527917e+001 -4.041371e+000
117575964.48 -3.195904e+001 -4.598537e+001 4.530372e-002 4.559252e+001 -2.122934e-001 4.250680e+001 -2.607246e+001 -5.091335e+001
123623961.52 -3.004564e+001 -5.378054e+001 2.027356e-002 2.549621e+001 -1.333706e-001 2.204377e+001 -2.527694e+001 -8.492521e+001
129671958.56 -2.992813e+001 -6.781139e+001 -7.766505e-002 5.960831e+000 -1.739591e-001 1.992947e+000 -2.524439e+001 -1.254708e+002
135719955.6 -2.921332e+001 -9.064371e+001 -8.423029e-002 -1.398675e+001 -2.559305e-001 -1.800981e+001 -2.672391e+001 -1.599675e+002
141767952.64 -2.916733e+001 -1.055585e+002 -1.492134e-001 -3.437288e+001 -2.947704e-001 -3.846201e+001 -2.745906e+001 1.727916e+002
147815949.68 -3.159529e+001 -1.282079e+002 -1.380025e-001 -5.375492e+001 -3.012949e-001 -5.857664e+001 -2.895178e+001 1.429737e+002
153863946.72 -3.540747e+001 -1.628277e+002 -1.830915e-001 -7.352941e+001 -4.093875e-001 -7.810073e+001 -2.990579e+001 1.129228e+002
159911943.76 -4.130106e+001 1.374718e+002 -2.402296e-001 -9.294267e+001 -4.526450e-001 -9.817857e+001 -3.285946e+001 7.967604e+001
165959940.8 -4.114159e+001 2.939933e+001 -3.205763e-001 -1.130287e+002 -5.416377e-001 -1.180878e+002 -3.388737e+001 2.933731e+001
172007937.84 -3.341638e+001 -2.513557e+001 -3.769703e-001 -1.326186e+002 -5.902593e-001 -1.379556e+002 -3.366915e+001 -2.050118e+001
178055934.88 -3.034780e+001 -5.534193e+001 -3.606693e-001 -1.522556e+002 -5.760164e-001 -1.576830e+002 -3.077975e+001 -6.115907e+001
184103931.92 -2.854024e+001 -8.189272e+001 -4.378204e-001 -1.718757e+002 -6.049110e-001 -1.777788e+002 -2.808924e+001 -9.703273e+001
190151928.96 -2.795257e+001 -1.089239e+002 -4.795966e-001 1.683383e+002 -5.689093e-001 1.622460e+002 -2.610614e+001 -1.288548e+002
196199926 -2.892008e+001 -1.387833e+002 -4.937605e-001 1.490605e+002 -5.827916e-001 1.424220e+002 -2.500434e+001 -1.576545e+002
202247923.04 -2.976162e+001 -1.706771e+002 -4.915230e-001 1.295101e+002 -6.307272e-001 1.226301e+002 -2.408837e+001 1.721871e+002
208295920.08 -3.257263e+001 1.521876e+002 -4.579490e-001 1.098032e+002 -6.042275e-001 1.023170e+002 -2.394169e+001 1.391911e+002
214343917.12 -3.652578e+001 1.139736e+002 -4.054925e-001 9.021387e+001 -6.326625e-001 8.165810e+001 -2.464435e+001 1.045223e+002
220391914.16 -3.694066e+001 5.920422e+001 -3.542871e-001 7.014596e+001 -7.340949e-001 6.111292e+001 -2.534616e+001 5.968607e+001
226439911.2 -3.746024e+001 8.043924e+000 -3.417821e-001 5.046671e+001 -8.318529e-001 4.065184e+001 -2.624202e+001 1.045058e+001
232487908.24 -3.503228e+001 -3.269542e+001 -3.694235e-001 3.090738e+001 -9.190941e-001 2.019809e+001 -2.608894e+001 -3.909743e+001
238535905.28 -3.426100e+001 -7.150592e+001 -2.835479e-001 1.137583e+001 -1.083452e+000 3.911160e-001 -2.504954e+001 -8.439076e+001
244583902.32 -3.444782e+001 -1.040099e+002 -1.885319e-001 -8.085515e+000 -9.374761e-001 -1.892291e+001 -2.382322e+001 -1.281855e+002
250631899.36 -3.379604e+001 -1.403625e+002 -2.806384e-002 -2.723231e+001 -9.068946e-001 -4.106798e+001 -2.288066e+001 -1.680631e+002
256679896.4 -3.454037e+001 1.732421e+002 3.743057e-001 -4.946472e+001 -1.363211e+000 -6.128661e+001 -2.264600e+001 1.516386e+002
262727893.44 -3.529854e+001 1.272056e+002 3.595183e-002 -7.259499e+001 -1.548629e+000 -7.793276e+001 -2.313158e+001 1.150726e+002
268775890.48 -3.622125e+001 9.097530e+001 -5.430331e-001 -9.207050e+001 -1.131260e+000 -9.478345e+001 -2.332189e+001 7.695763e+001
274823887.52 -3.550144e+001 4.808406e+001 -7.028863e-001 -1.092026e+002 -4.432231e-001 -1.154040e+002 -2.293935e+001 3.648859e+001
280871884.56 -3.432168e+001 1.167112e+001 -6.095701e-001 -1.273849e+002 -1.473372e-001 -1.382305e+002 -2.319554e+001 -9.747758e+000
286919881.6 -3.376151e+001 -3.016619e+001 -5.082304e-001 -1.466487e+002 -2.615497e-001 -1.604127e+002 -2.354045e+001 -5.594531e+001
292967878.64 -3.408765e+001 -6.845426e+001 -4.397341e-001 -1.663974e+002 -4.513315e-001 1.784972e+002 -2.434622e+001 -9.877907e+001
299015875.68 -4.731522e+001 1.038753e+002 -3.130805e-001 -1.558984e+002 -4.764206e-001 -1.557727e+002 -4.454950e+001 4.537873e+001
305063872.72 -3.964885e+001 7.291219e+001 -3.148945e-001 -1.758295e+002 -5.946549e-001 -1.751566e+002 -3.923240e+001 3.337632e+001
311111869.76 -3.492714e+001 3.242984e+001 -3.306454e-001 1.641306e+002 -6.242930e-001 1.657793e+002 -3.424961e+001 4.497414e+000
317159866.8 -3.173192e+001 -2.882027e+000 -3.228582e-001 1.440519e+002 -6.586207e-001 1.464114e+002 -3.103076e+001 -3.187278e+001
323207863.84 -2.950553e+001 -3.666663e+001 -3.642578e-001 1.240761e+002 -6.913214e-001 1.273965e+002 -2.910844e+001 -6.542126e+001
329255860.88 -2.819662e+001 -7.117683e+001 -3.893372e-001 1.040350e+002 -6.889981e-001 1.083461e+002 -2.901889e+001 -1.008721e+002
335303857.92 -2.829703e+001 -1.064985e+002 -4.424121e-001 8.432468e+001 -7.220138e-001 8.911868e+001 -2.921250e+001 -1.410484e+002
341351854.96 -2.900021e+001 -1.473748e+002 -4.901308e-001 6.414325e+001 -7.695908e-001 6.991390e+001 -3.106708e+001 1.697517e+002
347399852 -3.067690e+001 1.623070e+002 -5.272671e-001 4.438235e+001 -6.964495e-001 5.025213e+001 -3.147700e+001 1.079434e+002
353447849.04 -3.162144e+001 9.753595e+001 -5.174019e-001 2.479589e+001 -7.180559e-001 3.052669e+001 -2.979527e+001 4.777463e+001
359495846.08 -2.977678e+001 3.511097e+001 -5.534368e-001 5.136292e+000 -7.291310e-001 1.085017e+001 -2.705300e+001 -2.849285e+000
365543843.12 -2.723690e+001 -1.362133e+001 -5.381538e-001 -1.480514e+001 -6.989195e-001 -8.764577e+000 -2.534386e+001 -4.128593e+001
371591840.16 -2.568105e+001 -5.481445e+001 -5.470654e-001 -3.454035e+001 -7.107857e-001 -2.849500e+001 -2.450939e+001 -7.779793e+001
377639837.2 -2.521417e+001 -9.085969e+001 -5.624352e-001 -5.450215e+001 -7.395446e-001 -4.824889e+001 -2.479259e+001 -1.121176e+002
383687834.24 -2.586510e+001 -1.274530e+002 -5.635909e-001 -7.413857e+001 -7.394150e-001 -6.797843e+001 -2.621988e+001 -1.477979e+002
389735831.28 -2.844436e+001 -1.673057e+002 -6.093245e-001 -9.395238e+001 -7.572488e-001 -8.736737e+001 -2.950260e+001 1.726288e+002
395783828.32 -3.229841e+001 1.395148e+002 -5.959405e-001 -1.134518e+002 -7.373530e-001 -1.070561e+002 -3.428120e+001 1.155593e+002
401831825.36 -3.495119e+001 5.320892e+001 -5.815772e-001 -1.330855e+002 -7.332262e-001 -1.266289e+002 -3.532223e+001 2.262186e+001
407879822.4 -2.999510e+001 -1.625132e+001 -5.926965e-001 -1.530431e+002 -7.041734e-001 -1.464035e+002 -3.106845e+001 -3.719286e+001
413927819.44 -2.691335e+001 -6.038972e+001 -5.902119e-001 -1.728323e+002 -7.228583e-001 -1.661372e+002 -2.865250e+001 -7.537925e+001
419975816.48 -2.550166e+001 -9.496214e+001 -5.841810e-001 1.675120e+002 -7.278299e-001 1.743859e+002 -2.809681e+001 -1.087685e+002
426023813.52 -2.568813e+001 -1.289104e+002 -5.990481e-001 1.478887e+002 -7.292596e-001 1.549173e+002 -2.924847e+001 -1.395465e+002
432071810.56 -2.730940e+001 -1.624054e+002 -5.948170e-001 1.281223e+002 -7.096378e-001 1.352061e+002 -3.198655e+001 -1.652458e+002
438119807.6 -3.090252e+001 1.624364e+002 -5.791868e-001 1.085412e+002 -7.385331e-001 1.153648e+002 -3.865086e+001 -1.793659e+002
444167804.64 -3.796222e+001 1.049006e+002 -5.735012e-001 8.868482e+001 -7.126476e-001 9.569732e+001 -4.397534e+001 -1.242615e+002
450215801.68 -3.950476e+001 -1.799500e+001 -6.020539e-001 6.886964e+001 -7.140429e-001 7.616840e+001 -3.670921e+001 -1.153117e+002
456263798.72 -3.302090e+001 -7.472572e+001 -5.967795e-001 4.923599e+001 -7.136253e-001 5.651484e+001 -3.345322e+001 -1.354805e+002
462311795.76 -3.077446e+001 -1.108108e+002 -6.060803e-001 2.944938e+001 -7.098177e-001 3.685520e+001 -3.326086e+001 -1.714164e+002
468359792.8 -3.097708e+001 -1.410709e+002 -6.040718e-001 9.606865e+000 -6.836436e-001 1.719387e+001 -3.411755e+001 1.501461e+002
474407789.84 -3.319111e+001 -1.709555e+002 -6.276553e-001 -1.010953e+001 -7.289271e-001 -2.437423e+000 -3.662740e+001 9.612749e+001
480455786.88 -3.961347e+001 1.579262e+002 -6.109772e-001 -2.974266e+001 -7.010555e-001 -2.211035e+001 -3.685972e+001 2.333870e+001
486503783.92 -5.119190e+001 -4.635728e+001 -6.199203e-001 -4.954318e+001 -6.864341e-001 -4.163343e+001 -3.511119e+001 -3.380144e+001
492551780.96 -3.702340e+001 -8.103304e+001 -6.322705e-001 -6.915215e+001 -7.149323e-001 -6.125694e+001 -3.347834e+001 -8.088400e+001
498599778 -3.276685e+001 -1.135062e+002 -5.975968e-001 -8.882672e+001 -6.855589e-001 -8.085720e+001 -3.336068e+001 -1.225835e+002
504647775.04 -3.145024e+001 -1.452776e+002 -6.173087e-001 -1.085567e+002 -6.815897e-001 -1.003851e+002 -3.332910e+001 -1.708972e+002
510695772.08 -3.198701e+001 -1.796667e+002 -6.188843e-001 -1.282663e+002 -7.262298e-001 -1.197076e+002 -3.388667e+001 1.403831e+002
516743769.12 -3.357052e+001 1.397715e+002 -6.333439e-001 -1.480067e+002 -7.124964e-001 -1.392315e+002 -3.389210e+001 9.416698e+001
522791766.16 -3.653584e+001 9.265192e+001 -6.168416e-001 -1.677368e+002 -6.725529e-001 -1.587067e+002 -3.318661e+001 5.092113e+001
528839763.2 -3.830438e+001 3.052931e+001 -6.217555e-001 1.727299e+002 -6.669844e-001 -1.782306e+002 -3.284800e+001 1.575057e+001
534887760.24 -3.818695e+001 -2.179221e+001 -5.367584e-001 1.535105e+002 -5.597934e-001 1.625896e+002 -3.320245e+001 -7.557749e+000
540935757.28 -3.870982e+001 -6.033398e+001 -6.028354e-001 1.333577e+002 -6.062073e-001 1.426040e+002 -3.446500e+001 -2.230298e+001
546983754.32 -4.378999e+001 -4.506816e+001 -4.326155e-001 1.459949e+002 -4.251483e-001 1.460093e+002 -4.436208e+001 1.693490e+001
553031751.36 -3.933889e+001 -2.968644e+001 -4.058561e-001 1.261324e+002 -4.240091e-001 1.261519e+002 -3.827698e+001 2.688653e+000
559079748.4 -3.473744e+001 -4.460245e+001 -4.297156e-001 1.066463e+002 -4.373347e-001 1.065003e+002 -3.491396e+001 -1.745963e+001
565127745.44 -3.170951e+001 -7.032988e+001 -4.470846e-001 8.695393e+001 -4.372339e-001 8.685527e+001 -3.312622e+001 -4.158404e+001
571175742.48 -3.016088e+001 -1.004603e+002 -4.429814e-001 6.720856e+001 -4.576370e-001 6.697794e+001 -3.303117e+001 -6.811940e+001
577223739.52 -2.949786e+001 -1.364218e+002 -4.457721e-001 4.756767e+001 -4.698387e-001 4.732954e+001 -3.481806e+001 -9.309357e+001
583271736.56 -2.997766e+001 -1.792190e+002 -4.726528e-001 2.780370e+001 -4.783576e-001 2.746650e+001 -3.950752e+001 -1.261711e+002
589319733.6 -3.046446e+001 1.284028e+002 -4.579511e-001 8.080176e+000 -4.786522e-001 7.786108e+000 -5.293664e+001 1.020318e+002
595367730.64 -2.957175e+001 7.114504e+001 -5.039940e-001 -1.158007e+001 -4.901243e-001 -1.179687e+001 -3.717270e+001 2.310568e+001
601415727.68 -2.759748e+001 2.012320e+001 -5.054585e-001 -3.139436e+001 -5.174406e-001 -3.144922e+001 -3.183660e+001 -3.980734e+000
607463724.72 -2.566921e+001 -2.060596e+001 -5.212764e-001 -5.089777e+001 -5.309610e-001 -5.113057e+001 -2.902432e+001 -2.782560e+001
613511721.76 -2.470600e+001 -5.769819e+001 -5.256637e-001 -7.062364e+001 -5.357285e-001 -7.082395e+001 -2.802751e+001 -5.005516e+001
619559718.8 -2.476306e+001 -9.176221e+001 -5.312840e-001 -9.026246e+001 -5.178834e-001 -9.065395e+001 -2.771050e+001 -6.954845e+001
625607715.84 -2.587347e+001 -1.255200e+002 -5.159552e-001 -1.101602e+002 -5.103565e-001 -1.103686e+002 -2.819389e+001 -8.731790e+001
631655712.88 -2.843800e+001 -1.603586e+002 -4.988729e-001 -1.299717e+002 -5.527584e-001 -1.301812e+002 -2.922667e+001 -1.004707e+002
637703709.92 -3.351959e+001 1.548270e+002 -5.051655e-001 -1.496223e+002 -5.233221e-001 -1.498126e+002 -3.057755e+001 -1.113731e+002
643751706.96 -3.915277e+001 6.027314e+001 -5.452928e-001 -1.692369e+002 -5.258625e-001 -1.696181e+002 -3.191887e+001 -1.191132e+002
649799704 -3.332119e+001 -2.300070e+001 -5.237983e-001 1.710784e+002 -5.350992e-001 1.708596e+002 -3.403331e+001 -1.287026e+002
655847701.04 -2.979424e+001 -6.355146e+001 -5.378723e-001 1.513425e+002 -5.419534e-001 1.511707e+002 -3.685963e+001 -1.357498e+002
661895698.08 -2.851271e+001 -9.568263e+001 -5.298783e-001 1.317638e+002 -5.565783e-001 1.314908e+002 -4.191078e+001 -1.261028e+002
667943695.12 -2.912544e+001 -1.241319e+002 -5.296409e-001 1.119922e+002 -5.274844e-001 1.117865e+002 -4.183351e+001 -6.154420e+001
673991692.16 -3.199457e+001 -1.481644e+002 -5.494006e-001 9.233862e+001 -5.404676e-001 9.207006e+001 -3.479410e+001 -5.336015e+001
680039689.2 -3.833117e+001 -1.597861e+002 -5.188474e-001 7.255866e+001 -5.472993e-001 7.239865e+001 -3.059537e+001 -6.784537e+001
686087686.24 -4.067303e+001 -8.330669e+001 -5.385636e-001 5.288725e+001 -5.271298e-001 5.253146e+001 -2.824562e+001 -8.986707e+001
692135683.28 -3.285491e+001 -8.661547e+001 -5.505195e-001 3.335238e+001 -5.492018e-001 3.287325e+001 -2.715908e+001 -1.147496e+002
698183680.32 -2.967104e+001 -1.089767e+002 -5.305487e-001 1.370258e+001 -5.277556e-001 1.328766e+001 -2.708452e+001 -1.427455e+002
704231677.36 -2.881088e+001 -1.364400e+002 -5.443211e-001 -6.095697e+000 -5.415479e-001 -6.356173e+000 -2.815849e+001 -1.738214e+002
710279674.4 -2.975797e+001 -1.659829e+002 -5.071561e-001 -2.563644e+001 -5.204030e-001 -2.622984e+001 -3.008740e+001 1.479955e+002
716327671.44 -3.305054e+001 1.593149e+002 -4.952257e-001 -4.553214e+001 -5.344774e-001 -4.596424e+001 -3.265525e+001 9.312670e+001
722375668.48 -4.108894e+001 1.059792e+002 -5.141461e-001 -6.522882e+001 -5.603144e-001 -6.573024e+001 -3.300440e+001 2.515859e+001
728423665.52 -3.925776e+001 -3.205098e+001 -5.431525e-001 -8.485107e+001 -5.513170e-001 -8.543019e+001 -3.016332e+001 -3.160402e+001
734471662.56 -3.272091e+001 -7.983263e+001 -5.342103e-001 -1.043676e+002 -5.682675e-001 -1.048888e+002 -2.815598e+001 -7.431642e+001
740519659.6 -3.007339e+001 -1.148871e+002 -5.220906e-001 -1.240204e+002 -5.241384e-001 -1.247085e+002 -2.706486e+001 -1.127920e+002
746567656.64 -2.929660e+001 -1.491158e+002 -4.701000e-001 -1.433249e+002 -4.636773e-001 -1.440347e+002 -2.679233e+001 -1.499310e+002
752615653.68 -3.047639e+001 1.712052e+002 -4.803105e-001 -1.634963e+002 -4.661640e-001 -1.638461e+002 -2.753520e+001 1.683279e+002
758663650.72 -3.313634e+001 1.219697e+002 -4.843348e-001 1.768113e+002 -4.841949e-001 1.763849e+002 -2.870622e+001 1.204072e+002
764711647.76 -3.509845e+001 5.112939e+001 -4.854777e-001 1.572128e+002 -4.861400e-001 1.567211e+002 -2.952975e+001 6.727242e+001
770759644.8 -3.238720e+001 -1.642059e+001 -4.567938e-001 1.377017e+002 -4.794677e-001 1.370534e+002 -2.912486e+001 1.187577e+001
776807641.84 -2.995089e+001 -6.594863e+001 -5.098677e-001 1.176297e+002 -4.932624e-001 1.168214e+002 -2.828363e+001 -3.723110e+001
782855638.88 -2.872667e+001 -1.051480e+002 -4.948940e-001 9.775167e+001 -4.992768e-001 9.713153e+001 -2.786538e+001 -7.946915e+001
788903635.92 -2.891420e+001 -1.422425e+002 -4.732577e-001 7.816938e+001 -5.079389e-001 7.737305e+001 -2.841163e+001 -1.190523e+002
794951632.96 -4.486082e+001 -1.279018e+002 -4.434118e-001 8.808716e+001 -4.295390e-001 8.793292e+001 -4.476865e+001 -4.859360e+001
800999630 -4.616883e+001 -6.816508e+001 -4.331940e-001 6.845978e+001 -4.492070e-001 6.817003e+001 -4.201645e+001 -4.676435e+000
807047627.04 -3.776944e+001 -5.690890e+001 -4.404636e-001 4.865421e+001 -4.333997e-001 4.845731e+001 -3.545863e+001 -1.992614e+001
813095624.08 -3.467600e+001 -8.996143e+001 -4.327777e-001 2.901072e+001 -4.562627e-001 2.880063e+001 -3.302174e+001 -5.190599e+001
819143621.12 -3.389436e+001 -1.321533e+002 -4.453066e-001 9.289867e+000 -4.359364e-001 8.992848e+000 -3.269530e+001 -8.736705e+001
825191618.16 -3.420039e+001 1.722814e+002 -4.324132e-001 -1.042076e+001 -4.510683e-001 -1.092916e+001 -3.413484e+001 -1.342144e+002
831239615.2 -3.225174e+001 1.034233e+002 -4.354856e-001 -3.026842e+001 -4.687443e-001 -3.051557e+001 -3.540458e+001 1.530762e+002
837287612.24 -2.850373e+001 4.808221e+001 -4.431187e-001 -4.994941e+001 -4.731095e-001 -5.041753e+001 -3.143284e+001 8.042467e+001
843335609.28 -2.525355e+001 5.471252e+000 -4.587962e-001 -6.970271e+001 -4.895616e-001 -7.017622e+001 -2.730066e+001 3.103170e+001
849383606.32 -2.311695e+001 -3.305578e+001 -4.842792e-001 -8.937139e+001 -5.507049e-001 -8.964854e+001 -2.433059e+001 -7.326475e+000
855431603.36 -2.206742e+001 -6.911485e+001 -4.908605e-001 -1.085946e+002 -5.182471e-001 -1.093925e+002 -2.273535e+001 -4.238470e+001
861479600.4 -2.188079e+001 -1.055396e+002 -4.575178e-001 -1.283505e+002 -5.056301e-001 -1.288718e+002 -2.217691e+001 -7.731714e+001
867527597.44 -2.264824e+001 -1.448647e+002 -4.086517e-001 -1.481626e+002 -4.877529e-001 -1.486084e+002 -2.277186e+001 -1.142914e+002
873575594.48 -2.434175e+001 1.693217e+002 -4.660291e-001 -1.680250e+002 -4.549980e-001 -1.686159e+002 -2.426386e+001 -1.565300e+002
879623591.52 -2.586062e+001 1.114158e+002 -4.713533e-001 1.719156e+002 -5.242739e-001 1.715310e+002 -2.670407e+001 1.522532e+002
885671588.56 -2.545134e+001 4.972002e+001 -5.019525e-001 1.522537e+002 -5.323248e-001 1.517371e+002 -2.771583e+001 8.579897e+001
891719585.6 -2.362034e+001 -2.226529e+000 -5.357793e-001 1.328409e+002 -5.535117e-001 1.322119e+002 -2.605411e+001 2.580614e+001
897767582.64 -2.219106e+001 -4.378821e+001 -5.247263e-001 1.131560e+002 -5.444729e-001 1.128438e+002 -2.426821e+001 -2.024210e+001
903815579.68 -2.173177e+001 -8.021484e+001 -4.592329e-001 9.347255e+001 -4.813055e-001 9.290691e+001 -2.342409e+001 -5.851449e+001
909863576.72 -2.241389e+001 -1.145186e+002 -4.742003e-001 7.353956e+001 -4.714263e-001 7.293410e+001 -2.414051e+001 -9.264477e+001
915911573.76 -2.454062e+001 -1.462823e+002 -4.758696e-001 5.359069e+001 -4.873046e-001 5.333355e+001 -2.640476e+001 -1.234276e+002
921959570.8 -2.895872e+001 -1.758987e+002 -5.097027e-001 3.385149e+001 -5.078564e-001 3.335345e+001 -3.156948e+001 -1.503288e+002
928007567.84 -3.948069e+001 1.639393e+002 -4.850510e-001 1.447273e+001 -4.889823e-001 1.352036e+001 -4.390187e+001 -1.116107e+002
934055564.88 -3.686734e+001 -7.245202e+001 -4.873782e-001 -5.310937e+000 -4.835597e-001 -6.180105e+000 -3.246272e+001 -6.413985e+001
940103561.92 -3.001092e+001 -1.007974e+002 -5.142617e-001 -2.514282e+001 -4.925964e-001 -2.585974e+001 -2.785754e+001 -9.062389e+001
