!Agilent Technologies,E8364A,US41440322,A.04.87.01
!Agilent E8364A: A.04.87.01
!Date: Thursday, July 11, 2024 14:22:37
!Correction: S11(Full 2 Port SOLT,1,2) S21(Full 2 Port SOLT,1,2) S12(Full 2 Port SOLT,1,2) S22(Full 2 Port SOLT,1,2)
!S2P File: Measurements: S11, S21, S12, S22:
# Hz S  dB   R 50
45000000 -1.161599e-001 -1.169388e+001 -3.323151e+001 1.440270e+002 -3.233295e+001 9.253651e+000 -3.499874e-001 -4.282084e+001
48117968.75 7.606362e-002 -1.145520e+001 -3.368423e+001 8.978431e+001 -3.595952e+001 5.213684e+001 -5.188788e-001 -4.805754e+001
51235937.5 2.361102e-002 -1.445962e+001 -3.778539e+001 3.898754e+000 -3.520305e+001 -8.532726e+000 -3.132608e-001 -5.254916e+001
54353906.25 -1.116224e-001 -1.847756e+001 -4.636879e+001 3.098776e+001 -3.708663e+001 -6.146735e+001 3.994467e-003 -5.346742e+001
57471875 -3.445260e-001 -1.825145e+001 -4.091242e+001 -6.462670e+001 -3.585352e+001 -1.124554e+002 -1.606548e-002 -5.621201e+001
60589843.75 -8.057257e-002 -1.907378e+001 -4.281062e+001 1.402464e+002 -4.688560e+001 -1.751257e+002 -3.110659e-001 -5.877383e+001
63707812.5 -1.513014e-001 -2.177071e+001 -3.935596e+001 4.075781e+001 -5.414046e+001 1.033182e+002 -2.026108e-001 -6.087305e+001
66825781.25 -1.128624e-001 -2.155313e+001 -3.919798e+001 1.216682e+002 -3.665311e+001 -1.938173e+001 -1.702943e-001 -6.594083e+001
69943750 2.077851e-002 -2.189184e+001 -4.057515e+001 -7.630302e+001 -4.551604e+001 -1.462231e+002 -9.116687e-002 -6.904466e+001
73061718.75 -3.410574e-002 -2.217858e+001 -4.530306e+001 -3.017703e+001 -4.331967e+001 1.135313e+002 -9.263878e-002 -7.099281e+001
76179687.5 -1.381297e-001 -2.352741e+001 -4.574880e+001 5.664566e+000 -4.404307e+001 9.395003e+000 -1.287463e-001 -7.295977e+001
79297656.25 -1.904427e-001 -2.435760e+001 -4.991258e+001 -1.050525e+002 -4.988237e+001 -8.052520e+000 -1.687757e-001 -7.729014e+001
82415625 -4.829687e-002 -2.541099e+001 -4.326051e+001 -1.287388e+002 -4.925871e+001 7.053130e+001 -1.202694e-001 -7.994983e+001
85533593.75 -6.842255e-002 -2.574515e+001 -4.267092e+001 -1.051484e+002 -4.538083e+001 -3.705784e+001 -1.198540e-001 -8.430352e+001
88651562.5 -5.147392e-003 -2.647621e+001 -5.577027e+001 3.092928e+001 -4.880473e+001 -2.283524e+001 -5.291882e-002 -8.744289e+001
91769531.25 -6.829424e-002 -2.752134e+001 -4.591625e+001 -1.094185e+002 -5.565211e+001 -9.171923e+001 -4.612654e-002 -9.023258e+001
94887500 -2.956236e-002 -2.947099e+001 -4.440101e+001 -3.984365e+001 -5.420564e+001 -1.720703e+002 -6.919778e-002 -9.248350e+001
98005468.75 -6.390603e-002 -2.940806e+001 -5.747867e+001 -1.730656e+001 -4.760022e+001 1.100111e+002 -1.557137e-001 -9.451591e+001
101123437.5 -1.174426e-001 -3.049684e+001 -4.457806e+001 -3.809454e+001 -5.307307e+001 5.308401e+001 -6.479326e-002 -9.788552e+001
104241406.25 -1.344605e-001 -3.251104e+001 -4.543973e+001 1.262473e+002 -5.056178e+001 1.049088e+002 -2.086830e-001 -1.006922e+002
107359375 -7.789408e-002 -3.303500e+001 -4.315043e+001 -1.425047e+002 -4.666467e+001 -1.279300e+002 -1.908891e-001 -1.041386e+002
110477343.75 -5.111170e-002 -3.356479e+001 -4.292649e+001 1.149684e+002 -5.199588e+001 -9.354382e+001 -1.960161e-001 -1.073818e+002
113595312.5 -5.063813e-002 -3.404000e+001 -4.933643e+001 1.152300e+002 -5.235669e+001 1.179517e+002 -1.544069e-001 -1.103198e+002
116713281.25 -2.982392e-002 -3.493256e+001 -5.243355e+001 -1.114921e+002 -6.625366e+001 2.169823e+001 -1.296975e-001 -1.128861e+002
119831250 -7.193482e-002 -3.607571e+001 -5.484840e+001 2.642632e+001 -5.389127e+001 -4.321341e+001 -1.022145e-001 -1.162573e+002
122949218.75 -8.297893e-003 -3.739581e+001 -4.746567e+001 1.275166e+002 -5.471953e+001 -1.203891e+002 -7.707600e-002 -1.190057e+002
126067187.5 -2.544016e-002 -3.840536e+001 -5.881570e+001 6.131574e+001 -5.240814e+001 -6.863089e+001 -7.478329e-002 -1.221884e+002
129185156.25 -3.872317e-002 -3.912910e+001 -5.264277e+001 -3.821215e+001 -5.927404e+001 -5.227608e+001 -1.046072e-001 -1.251045e+002
132303125 -3.935242e-002 -4.015073e+001 -5.262011e+001 1.077748e+002 -5.400965e+001 1.479752e+002 -1.094857e-001 -1.280957e+002
135421093.75 -2.697593e-002 -4.111546e+001 -4.833357e+001 1.129921e+002 -6.299668e+001 -3.614495e+001 -1.626514e-001 -1.311933e+002
138539062.5 -8.223797e-002 -4.188216e+001 -5.545118e+001 1.915623e+001 -5.048005e+001 1.037925e+002 -1.141521e-001 -1.338904e+002
141657031.25 -7.261305e-002 -4.272007e+001 -6.194354e+001 -1.735424e+001 -5.928210e+001 -3.931977e+001 -9.663481e-002 -1.367393e+002
144775000 -1.838521e-002 -4.378377e+001 -4.571325e+001 -1.580555e+002 -5.995864e+001 9.044336e+001 -1.111602e-001 -1.397396e+002
147892968.75 -3.984343e-002 -4.471536e+001 -6.848125e+001 1.593242e+002 -6.472899e+001 1.215876e+002 -1.201354e-001 -1.428606e+002
151010937.5 3.633283e-003 -4.569141e+001 -5.066859e+001 -9.445103e+001 -5.300983e+001 -1.624831e+002 -1.079859e-001 -1.453533e+002
154128906.25 -1.080315e-002 -4.634600e+001 -5.571201e+001 1.403733e+002 -5.506666e+001 -1.491780e+001 -1.286153e-001 -1.485740e+002
157246875 -9.054322e-002 -4.744622e+001 -5.426427e+001 3.425961e+001 -6.733235e+001 -1.299857e+002 -1.313809e-001 -1.515766e+002
160364843.75 -8.162127e-002 -4.849961e+001 -5.042290e+001 -6.071960e+001 -6.153849e+001 -2.113070e+001 -1.461562e-001 -1.541906e+002
163482812.5 -8.215085e-002 -4.940557e+001 -4.971949e+001 -1.718720e+002 -5.299403e+001 -6.361370e+001 -1.519766e-001 -1.571215e+002
166600781.25 -1.348102e-001 -5.009442e+001 -6.122977e+001 9.187773e+001 -6.534240e+001 7.535349e+001 -1.559771e-001 -1.603768e+002
169718750 -1.513244e-001 -5.112590e+001 -6.012238e+001 -1.792455e+002 -5.191976e+001 6.412766e+001 -1.731376e-001 -1.630853e+002
172836718.75 -1.293291e-001 -5.204269e+001 -5.356638e+001 4.479266e+001 -5.472404e+001 -6.094299e+001 -2.008011e-001 -1.659227e+002
175954687.5 -1.185291e-001 -5.290952e+001 -5.524192e+001 1.183814e+002 -5.010971e+001 -1.736812e+001 -2.116242e-001 -1.688737e+002
179072656.25 -1.147913e-001 -5.379071e+001 -5.629983e+001 -1.484003e+002 -5.741873e+001 1.684603e+002 -1.739064e-001 -1.714641e+002
182190625 -1.249937e-001 -5.477843e+001 -5.948054e+001 -1.659037e+002 -5.372004e+001 1.245445e+002 -2.011461e-001 -1.747672e+002
185308593.75 -1.143974e-001 -5.586617e+001 -4.984706e+001 9.396270e+001 -5.384526e+001 -1.607104e+002 -2.523206e-001 -1.776012e+002
188426562.5 -6.525015e-002 -5.645992e+001 -6.344264e+001 4.403628e+001 -5.850723e+001 -1.707337e+002 -2.165491e-001 1.796685e+002
191544531.25 -1.288836e-001 -5.754776e+001 -5.394730e+001 6.382819e+001 -5.226596e+001 -3.979350e+001 -2.149186e-001 1.764980e+002
194662500 -1.528742e-001 -5.825030e+001 -5.410883e+001 8.272255e+001 -6.191093e+001 3.740512e+001 -2.306292e-001 1.737778e+002
197780468.75 -1.156115e-001 -5.957522e+001 -4.999413e+001 -3.094083e+000 -6.270779e+001 5.490241e+001 -2.421628e-001 1.708302e+002
200898437.5 -1.194973e-001 -6.052453e+001 -5.646024e+001 7.155607e+001 -6.559011e+001 -7.241376e+001 -2.676442e-001 1.678542e+002
204016406.25 -1.454764e-001 -6.154267e+001 -5.114390e+001 7.134296e+001 -6.090514e+001 8.231197e+001 -2.470291e-001 1.652938e+002
207134375 -9.776220e-002 -6.232685e+001 -5.666256e+001 -6.521445e+001 -6.287626e+001 -9.749178e+001 -2.541671e-001 1.623611e+002
210252343.75 -1.050690e-001 -6.313621e+001 -5.784938e+001 2.954480e+000 -6.349848e+001 -6.642340e+001 -2.714798e-001 1.593595e+002
213370312.5 -1.000503e-001 -6.421786e+001 -5.887638e+001 -2.391119e+001 -6.080351e+001 -1.531868e+002 -2.532909e-001 1.564510e+002
216488281.25 -8.353051e-002 -6.520689e+001 -6.115873e+001 -2.475158e+001 -5.293662e+001 -4.313168e+001 -2.311477e-001 1.537668e+002
219606250 -7.262267e-002 -6.589436e+001 -5.853077e+001 1.250057e+002 -5.812370e+001 -1.389922e+002 -3.034481e-001 1.507892e+002
222724218.75 -9.313898e-002 -6.667621e+001 -6.678614e+001 1.007220e+002 -5.625347e+001 1.161723e+002 -2.952451e-001 1.482662e+002
225842187.5 -1.054203e-001 -6.776553e+001 -5.589019e+001 2.178212e+001 -5.520438e+001 1.035026e+002 -3.022780e-001 1.449843e+002
228960156.25 -9.224118e-002 -6.854966e+001 -6.136762e+001 4.994987e+000 -6.224883e+001 -7.683020e+000 -3.002365e-001 1.425839e+002
232078125 -9.147551e-002 -6.948683e+001 -5.725949e+001 -1.237044e+002 -7.000051e+001 1.010855e+002 -3.009328e-001 1.396504e+002
235196093.75 -1.340947e-001 -7.067648e+001 -5.470742e+001 -1.397177e+002 -5.539920e+001 1.637072e+002 -2.993841e-001 1.367374e+002
238314062.5 -1.722418e-001 -7.167934e+001 -6.445983e+001 -5.506424e+001 -6.310630e+001 -7.154215e+001 -2.976592e-001 1.335698e+002
241432031.25 -1.810777e-001 -7.161827e+001 -5.619608e+001 1.071124e+000 -5.889867e+001 7.935001e+001 -2.547983e-001 1.304974e+002
244550000 -1.682680e-001 -7.232305e+001 -5.767731e+001 -7.989724e+001 -5.493938e+001 2.318560e+001 -2.809020e-001 1.278303e+002
247667968.75 -6.334240e-002 -7.397793e+001 -6.050820e+001 -4.409897e+001 -5.534811e+001 -1.706770e+001 -3.121891e-001 1.250167e+002
250785937.5 -1.165363e-001 -7.505434e+001 -5.082269e+001 1.523540e+002 -7.362663e+001 -9.254062e+001 -3.344452e-001 1.227252e+002
253903906.25 -1.634979e-001 -7.624880e+001 -5.856347e+001 6.511003e+001 -6.111947e+001 1.280692e+002 -3.128527e-001 1.197883e+002
257021875 -1.163315e-001 -7.764499e+001 -5.517069e+001 -6.765477e+001 -6.063544e+001 -2.132624e+001 -3.096128e-001 1.163665e+002
260139843.75 -9.834755e-002 -7.856171e+001 -6.035833e+001 1.688415e+002 -5.999899e+001 -6.024507e-001 -3.262382e-001 1.132697e+002
263257812.5 -1.579950e-001 -7.928683e+001 -5.773315e+001 -1.567778e+002 -5.639430e+001 -1.114624e+002 -3.420393e-001 1.113339e+002
266375781.25 -1.702577e-001 -8.144923e+001 -5.703381e+001 1.313271e+002 -6.168626e+001 1.746465e+002 -4.859809e-001 1.093008e+002
269493750 -2.180725e-001 -8.162846e+001 -5.220915e+001 -1.189418e+002 -6.156304e+001 -1.084537e+002 -4.390154e-001 1.062350e+002
272611718.75 -2.261182e-001 -8.141404e+001 -6.770234e+001 -1.296555e+002 -6.361286e+001 6.838805e+001 -3.235458e-001 1.032211e+002
275729687.5 -2.131112e-001 -8.203984e+001 -5.923124e+001 -1.348144e-001 -5.749933e+001 1.722472e+002 -2.498728e-001 1.004315e+002
278847656.25 -1.932584e-001 -8.293353e+001 -5.547580e+001 -2.795214e+001 -7.025811e+001 -4.907519e+001 -2.829552e-001 9.662647e+001
281965625 -1.552922e-001 -8.386741e+001 -6.622334e+001 -1.532882e+002 -6.933490e+001 2.450794e+001 -1.803249e-001 9.349328e+001
285083593.75 -2.161932e-001 -8.485138e+001 -6.376835e+001 8.258704e+001 -5.859398e+001 -2.725522e+001 -2.275064e-001 9.052436e+001
288201562.5 -1.845517e-001 -8.593642e+001 -6.039198e+001 -9.993031e+001 -5.595126e+001 -3.265612e+001 -2.987305e-001 8.762065e+001
291319531.25 -1.384501e-001 -8.672443e+001 -6.089620e+001 -1.505403e+001 -5.829675e+001 2.689466e+001 -2.870155e-001 8.477148e+001
294437500 -1.364205e-001 -8.774270e+001 -6.537635e+001 1.447386e+002 -7.238538e+001 -1.789444e+002 -3.312860e-001 8.162003e+001
297555468.75 -1.428803e-001 -8.889083e+001 -6.520492e+001 1.035970e+002 -6.351444e+001 8.718768e+001 -3.545296e-001 7.860271e+001
300673437.5 -1.400015e-001 -8.983664e+001 -7.053352e+001 6.420314e+001 -5.573314e+001 -1.518852e+002 -3.557650e-001 7.574650e+001
303791406.25 -1.779024e-001 -9.065649e+001 -6.270271e+001 1.404955e+002 -5.538481e+001 2.278226e+001 -3.558007e-001 7.291805e+001
306909375 -1.671146e-001 -9.155228e+001 -7.320226e+001 -3.698238e+001 -5.917107e+001 -6.418375e+000 -3.462987e-001 7.010854e+001
310027343.75 -1.866926e-001 -9.247511e+001 -6.485799e+001 1.386816e+002 -5.931303e+001 5.342010e+001 -3.019120e-001 6.709879e+001
313145312.5 -1.870848e-001 -9.317946e+001 -6.665210e+001 -1.415633e+002 -6.046600e+001 1.022293e+002 -3.055281e-001 6.413817e+001
316263281.25 -1.839366e-001 -9.400844e+001 -7.365506e+001 -9.410428e+001 -6.052174e+001 -1.699407e+002 -3.045711e-001 6.129566e+001
319381250 -1.802951e-001 -9.500958e+001 -5.948527e+001 -1.653421e+002 -6.412141e+001 -7.576238e+001 -3.359253e-001 5.818863e+001
322499218.75 -2.087958e-001 -9.579446e+001 -6.581752e+001 4.061412e+001 -7.058827e+001 3.069374e+001 -3.459624e-001 5.510418e+001
325617187.5 -2.368407e-001 -9.663237e+001 -6.161919e+001 -7.773512e+001 -6.369635e+001 -9.245324e+001 -3.332890e-001 5.207875e+001
328735156.25 -2.365153e-001 -9.798223e+001 -7.542738e+001 -7.409189e+001 -6.829270e+001 1.777088e+002 -3.397975e-001 4.906964e+001
331853125 -2.485826e-001 -9.873652e+001 -5.789410e+001 1.797418e+002 -8.011385e+001 1.351971e+002 -3.110173e-001 4.642929e+001
334971093.75 -2.385602e-001 -9.956737e+001 -6.109979e+001 -1.223391e+002 -6.283370e+001 1.449432e+002 -2.969249e-001 4.327040e+001
338089062.5 -2.780140e-001 -1.003798e+002 -6.044041e+001 3.390773e+001 -6.396404e+001 -5.723386e+001 -2.960831e-001 4.034395e+001
341207031.25 -3.258456e-001 -1.014702e+002 -6.521383e+001 -1.363832e+002 -5.766571e+001 -1.415830e+002 -2.946887e-001 3.731414e+001
344325000 -2.972404e-001 -1.023789e+002 -6.632534e+001 -1.187615e+002 -6.839406e+001 1.435525e+002 -2.986926e-001 3.453180e+001
347442968.75 -2.443117e-001 -1.032835e+002 -7.011045e+001 6.786183e+001 -6.435734e+001 1.092881e+002 -3.100856e-001 3.162175e+001
350560937.5 -2.366811e-001 -1.040295e+002 -6.918807e+001 7.047985e+001 -7.308151e+001 -1.986759e+001 -3.102985e-001 2.864742e+001
353678906.25 -2.687979e-001 -1.051850e+002 -6.317365e+001 -5.093411e+001 -6.202056e+001 1.458565e+002 -3.054261e-001 2.582732e+001
356796875 -2.722362e-001 -1.059195e+002 -6.147629e+001 2.418371e+001 -6.124714e+001 -5.098359e+001 -3.149781e-001 2.290986e+001
359914843.75 -2.651837e-001 -1.068269e+002 -8.863259e+001 -1.250422e+002 -6.392887e+001 -1.286074e+002 -3.173244e-001 1.990878e+001
363032812.5 -2.688572e-001 -1.076368e+002 -7.113749e+001 6.599850e+001 -6.615569e+001 -8.932652e+001 -3.118207e-001 1.681470e+001
366150781.25 -2.719256e-001 -1.087124e+002 -7.437708e+001 -9.258673e+001 -7.409144e+001 -2.017693e+001 -2.814020e-001 1.368348e+001
369268750 -2.662221e-001 -1.097393e+002 -5.640524e+001 -3.182444e+001 -6.966664e+001 -1.731508e+002 -3.020303e-001 1.094625e+001
372386718.75 -2.753041e-001 -1.103209e+002 -7.105849e+001 -1.366983e+002 -6.626904e+001 1.475576e+002 -2.986061e-001 7.664357e+000
375504687.5 -2.750964e-001 -1.111458e+002 -7.948346e+001 -1.169832e+002 -6.749538e+001 -1.365823e+000 -2.992898e-001 5.015007e+000
378622656.25 -2.764003e-001 -1.119737e+002 -7.492586e+001 -1.509905e+002 -6.311123e+001 -4.524311e+001 -2.867242e-001 1.930639e+000
381740625 -2.802309e-001 -1.130155e+002 -8.464172e+001 -6.264914e+001 -5.995882e+001 1.691136e+002 -3.081798e-001 -1.068027e+000
384858593.75 -2.668314e-001 -1.138685e+002 -6.210922e+001 -6.078527e+001 -6.826115e+001 1.664483e+002 -2.866470e-001 -4.341148e+000
387976562.5 -2.796329e-001 -1.146664e+002 -6.491915e+001 8.950610e+001 -6.811468e+001 -5.380219e+001 -2.979584e-001 -7.309243e+000
391094531.25 -2.769378e-001 -1.156475e+002 -6.194925e+001 1.422887e+002 -7.420805e+001 1.714865e+002 -2.950278e-001 -1.028091e+001
394212500 -2.641709e-001 -1.164362e+002 -6.408902e+001 -1.492597e+002 -6.707730e+001 -1.321671e+002 -2.833575e-001 -1.329168e+001
397330468.75 -2.741151e-001 -1.173876e+002 -8.020635e+001 1.065807e+002 -7.526598e+001 -1.567255e+002 -2.867286e-001 -1.649930e+001
400448437.5 -3.088087e-001 -1.183106e+002 -5.679510e+001 -1.648887e+002 -6.589149e+001 3.254045e+001 -2.570331e-001 -1.959187e+001
403566406.25 -2.835807e-001 -1.190209e+002 -6.849616e+001 -1.018283e+002 -6.751624e+001 3.452696e+001 -2.632134e-001 -2.278450e+001
406684375 -3.101909e-001 -1.198938e+002 -5.997787e+001 -1.333861e+000 -7.821840e+001 -1.275269e+002 -2.643708e-001 -2.581700e+001
409802343.75 -2.920384e-001 -1.207362e+002 -5.799677e+001 4.792501e+001 -7.091412e+001 1.398895e+002 -2.462676e-001 -2.893000e+001
412920312.5 -3.383122e-001 -1.216059e+002 -6.508961e+001 -1.202452e+002 -7.596922e+001 1.748222e+002 -2.501070e-001 -3.207453e+001
416038281.25 -3.230138e-001 -1.224387e+002 -6.234038e+001 3.373010e+001 -6.905486e+001 1.011764e+002 -2.570068e-001 -3.530772e+001
419156250 -3.071345e-001 -1.235399e+002 -6.916996e+001 -1.087192e+002 -5.998273e+001 8.591515e+001 -3.137557e-001 -3.844907e+001
422274218.75 -3.279764e-001 -1.247086e+002 -5.935820e+001 -1.735773e+002 -6.456445e+001 -4.253529e+001 -2.659669e-001 -4.152585e+001
425392187.5 -3.448904e-001 -1.254211e+002 -7.167022e+001 -8.386320e+001 -6.616281e+001 -9.725485e+001 -2.584295e-001 -4.454348e+001
428510156.25 -3.382913e-001 -1.262734e+002 -7.552055e+001 -1.487064e+002 -5.843422e+001 1.510991e+002 -2.420294e-001 -4.778118e+001
431628125 -3.450896e-001 -1.269402e+002 -6.062700e+001 8.282693e+001 -6.079231e+001 1.750944e+002 -2.505879e-001 -5.086843e+001
434746093.75 -3.400683e-001 -1.277349e+002 -7.736057e+001 4.496334e+001 -6.261765e+001 -1.302148e+002 -2.543795e-001 -5.403638e+001
437864062.5 -3.266051e-001 -1.290187e+002 -7.088556e+001 4.136782e+001 -6.612209e+001 -1.131083e+002 -2.756024e-001 -5.714833e+001
440982031.25 -3.552957e-001 -1.296901e+002 -6.442507e+001 -1.281726e+002 -7.649641e+001 8.810610e+001 -2.292982e-001 -6.015575e+001
444100000 -3.194117e-001 -1.306049e+002 -7.079417e+001 -1.376347e+002 -5.716378e+001 1.107044e+001 -2.500680e-001 -6.330524e+001
447217968.75 -3.197464e-001 -1.315018e+002 -6.161678e+001 -6.137206e+001 -7.295059e+001 -9.458955e+001 -2.271483e-001 -6.634940e+001
450335937.5 -3.315009e-001 -1.324187e+002 -6.765430e+001 -1.404575e+002 -6.668661e+001 4.369545e+000 -2.292321e-001 -6.965205e+001
453453906.25 -3.393444e-001 -1.333264e+002 -6.687725e+001 7.359028e+001 -6.138685e+001 8.665819e+001 -2.499254e-001 -7.272687e+001
456571875 -3.314087e-001 -1.341697e+002 -8.273712e+001 -1.476568e+002 -6.532996e+001 -1.484954e+002 -2.829674e-001 -7.562639e+001
459689843.75 -3.322964e-001 -1.349133e+002 -7.648264e+001 -2.807003e+001 -6.857387e+001 -1.249174e+002 -2.874297e-001 -7.850580e+001
462807812.5 -3.131708e-001 -1.356080e+002 -6.563808e+001 -4.905961e+001 -7.398445e+001 1.555293e+002 -2.875257e-001 -8.158694e+001
465925781.25 -3.317663e-001 -1.367946e+002 -6.773605e+001 4.785260e+001 -7.693662e+001 1.400704e+002 -2.955127e-001 -8.449911e+001
469043750 -3.601886e-001 -1.375479e+002 -6.557085e+001 -7.761935e+001 -7.542253e+001 1.439391e+002 -3.167241e-001 -8.752546e+001
472161718.75 -3.499373e-001 -1.383360e+002 -6.711836e+001 -7.488375e+001 -6.855998e+001 1.553465e+002 -3.000571e-001 -9.057447e+001
475279687.5 -3.606813e-001 -1.390935e+002 -6.593716e+001 1.470616e+002 -6.796801e+001 1.104725e+001 -3.003085e-001 -9.351503e+001
478397656.25 -3.614241e-001 -1.399826e+002 -6.195489e+001 -5.667021e+001 -6.894225e+001 -6.809242e+001 -3.096145e-001 -9.654961e+001
481515625 -3.446451e-001 -1.408082e+002 -6.860788e+001 -1.245447e+002 -6.958720e+001 -1.751079e+002 -3.186692e-001 -9.947119e+001
484633593.75 -3.898886e-001 -1.417202e+002 -6.569843e+001 -5.458106e+001 -6.143685e+001 -4.935968e+001 -3.088220e-001 -1.023269e+002
487751562.5 -3.656504e-001 -1.426838e+002 -7.312482e+001 9.142836e+001 -7.617966e+001 8.073656e+001 -3.303721e-001 -1.054815e+002
490869531.25 -3.502990e-001 -1.433429e+002 -6.891717e+001 -7.641300e+001 -6.549677e+001 -3.333570e+001 -3.617193e-001 -1.084691e+002
493987500 -3.841450e-001 -1.443314e+002 -6.627615e+001 8.485046e+001 -6.011002e+001 -1.620237e+002 -3.495820e-001 -1.113312e+002
497105468.75 -3.755255e-001 -1.450615e+002 -5.983643e+001 1.569990e+001 -6.704701e+001 9.906750e+001 -3.897601e-001 -1.142046e+002
500223437.5 -3.583848e-001 -1.460814e+002 -6.482181e+001 4.910010e+001 -6.448459e+001 -4.669617e+001 -3.740549e-001 -1.171121e+002
503341406.25 -3.424139e-001 -1.467393e+002 -6.594817e+001 -1.081749e+002 -6.569910e+001 1.419786e+002 -3.545453e-001 -1.201230e+002
506459375 -3.672268e-001 -1.475795e+002 -8.101170e+001 -1.109084e+002 -6.676436e+001 -1.587328e+002 -3.645069e-001 -1.232746e+002
