!Agilent Technologies,E8364A,US41440322,A.04.87.01
!Agilent E8364A: A.04.87.01
!Date: Thursday, July 11, 2024 14:17:47
!Correction: S11(Full 2 Port SOLT,1,2) S21(Full 2 Port SOLT,1,2) S12(Full 2 Port SOLT,1,2) S22(Full 2 Port SOLT,1,2)
!S2P File: Measurements: S11, S21, S12, S22:
# Hz S  dB   R 50
45000000 -2.838204e+001 -1.721383e+002 -2.302988e-001 -2.751892e+001 -1.949279e-001 -3.227938e+001 -2.530469e+001 -5.110112e+001
46558984.375 -4.785645e+001 4.875656e+001 -2.239788e-001 -2.807997e+001 -8.774288e-002 -3.210381e+001 -2.544926e+001 -7.100003e+001
48117968.75 -2.592361e+001 -1.041737e+002 -1.326340e-001 -3.008564e+001 -1.880587e-001 -3.395878e+001 -3.058331e+001 -6.762991e+001
49676953.125 -3.200608e+001 -6.856396e+001 -9.139764e-002 -3.140474e+001 -6.132159e-002 -3.373887e+001 -2.459271e+001 -8.511385e+001
51235937.5 -2.412459e+001 -6.989808e+001 -3.860438e-002 -3.429870e+001 -4.187627e-001 -3.444614e+001 -2.125715e+001 -1.050128e+002
52794921.875 -2.763786e+001 -1.163613e+002 -3.685193e-001 -3.553719e+001 -1.496369e-001 -3.514386e+001 -2.338409e+001 -8.354917e+001
54353906.25 -3.486636e+001 -9.940150e+001 -1.757185e-001 -3.625327e+001 4.407014e-002 -3.652908e+001 -3.289379e+001 -1.029120e+002
55912890.625 -2.757719e+001 -1.113155e+002 -1.843679e-001 -3.630426e+001 -1.331063e-001 -3.932153e+001 -2.977154e+001 -1.172995e+002
57471875 -3.275009e+001 -1.438674e+002 -2.766595e-001 -3.659849e+001 -2.467783e-001 -4.039325e+001 -2.571144e+001 -1.092904e+002
59030859.375 -2.572442e+001 -9.036319e+001 -9.038710e-002 -3.901486e+001 -3.116779e-001 -3.950724e+001 -2.644388e+001 -1.148207e+002
60589843.75 -2.730611e+001 -1.082635e+002 -6.802710e-002 -4.066194e+001 -2.492844e-002 -4.156924e+001 -2.399700e+001 -1.222929e+002
62148828.125 -2.618085e+001 -1.094229e+002 -1.783336e-001 -4.259231e+001 1.198485e-001 -4.080128e+001 -3.092218e+001 -1.649749e+002
63707812.5 -2.665883e+001 -9.945739e+001 -2.469384e-001 -4.307007e+001 1.457945e-001 -4.273685e+001 -3.628791e+001 -1.460602e+002
65266796.875 -2.516946e+001 -1.051209e+002 -3.434243e-001 -4.385807e+001 -1.455787e-002 -4.370466e+001 -2.905633e+001 -1.531788e+002
66825781.25 -2.513309e+001 -1.238237e+002 -1.923296e-001 -4.556503e+001 4.032804e-002 -4.550079e+001 -2.731195e+001 -1.410735e+002
68384765.625 -2.683508e+001 -1.009394e+002 -1.728644e-001 -4.509502e+001 4.462630e-003 -4.582933e+001 -3.026938e+001 -1.382453e+002
69943750 -2.571944e+001 -1.160244e+002 -5.618466e-002 -4.628793e+001 -1.084344e-001 -4.690833e+001 -2.809831e+001 -1.296082e+002
71502734.375 -2.606703e+001 -1.303900e+002 -1.979031e-001 -4.774030e+001 -1.388991e-001 -4.825660e+001 -2.837816e+001 -1.639121e+002
73061718.75 -2.604761e+001 -1.324698e+002 -8.507046e-002 -4.828092e+001 -1.149125e-001 -4.969506e+001 -3.151058e+001 -1.387641e+002
74620703.125 -2.908809e+001 -1.171423e+002 -1.674150e-001 -4.973737e+001 -8.115761e-002 -4.912438e+001 -2.999761e+001 -1.256853e+002
76179687.5 -2.859490e+001 -1.255895e+002 -1.494015e-001 -5.041791e+001 -9.369666e-002 -5.098351e+001 -3.282069e+001 -9.489508e+001
77738671.875 -2.756306e+001 -1.206135e+002 -1.081905e-001 -5.079501e+001 -1.263730e-001 -5.211460e+001 -2.949570e+001 -1.297497e+002
79297656.25 -2.731514e+001 -1.274490e+002 -1.756794e-001 -5.243598e+001 -2.002993e-001 -5.314039e+001 -2.894299e+001 -1.382194e+002
80856640.625 -2.717697e+001 -1.119954e+002 -2.423431e-001 -5.308056e+001 -1.053552e-001 -5.360541e+001 -2.953527e+001 -1.387561e+002
82415625 -2.768112e+001 -1.115124e+002 -2.106699e-001 -5.432669e+001 -8.862259e-002 -5.471112e+001 -2.814592e+001 -1.440584e+002
83974609.375 -2.750851e+001 -1.014229e+002 -1.281710e-001 -5.567930e+001 -1.446486e-001 -5.594280e+001 -2.850574e+001 -1.562182e+002
85533593.75 -2.928336e+001 -1.004670e+002 -1.171381e-001 -5.677090e+001 -8.656538e-002 -5.652084e+001 -2.713428e+001 -1.449041e+002
87092578.125 -2.847823e+001 -1.057601e+002 -1.219448e-001 -5.739629e+001 -1.633577e-001 -5.795194e+001 -2.588508e+001 -1.552337e+002
88651562.5 -2.846668e+001 -1.061572e+002 -1.324344e-001 -5.857285e+001 -1.936718e-001 -5.870951e+001 -2.578369e+001 -1.560635e+002
90210546.875 -2.705140e+001 -1.152820e+002 -8.100924e-002 -5.930684e+001 -8.880647e-002 -5.942940e+001 -2.550505e+001 -1.449810e+002
91769531.25 -2.511837e+001 -1.208452e+002 -1.547543e-001 -6.072730e+001 -1.761500e-001 -6.060772e+001 -2.536199e+001 -1.513709e+002
93328515.625 -2.636035e+001 -1.228230e+002 -1.616081e-001 -6.168298e+001 -1.430628e-001 -6.199259e+001 -2.542722e+001 -1.528411e+002
94887500 -2.495130e+001 -1.254927e+002 -1.564333e-001 -6.252507e+001 -1.560730e-001 -6.312809e+001 -2.473187e+001 -1.603734e+002
96446484.375 -2.571826e+001 -1.254597e+002 -1.552409e-001 -6.402625e+001 -9.921666e-002 -6.421470e+001 -2.495520e+001 -1.612585e+002
98005468.75 -2.604695e+001 -1.316516e+002 -2.152001e-001 -6.489003e+001 -6.328730e-002 -6.524416e+001 -2.511327e+001 -1.603158e+002
99564453.125 -2.595533e+001 -1.312028e+002 -2.777750e-001 -6.586153e+001 -1.239728e-001 -6.557014e+001 -2.465845e+001 -1.638592e+002
101123437.5 -2.507162e+001 -1.314162e+002 -1.715256e-001 -6.737395e+001 -1.518800e-001 -6.714925e+001 -2.591850e+001 -1.602074e+002
102682421.875 -2.512405e+001 -1.329160e+002 -1.664594e-001 -6.845284e+001 -1.018573e-001 -6.807796e+001 -2.514147e+001 -1.722057e+002
104241406.25 -2.495524e+001 -1.241188e+002 -1.440460e-001 -6.885483e+001 -1.225623e-001 -6.904648e+001 -2.529178e+001 -1.705446e+002
105800390.625 -2.463988e+001 -1.308381e+002 -1.919598e-001 -7.025246e+001 -1.819977e-001 -7.039491e+001 -2.469640e+001 -1.768382e+002
107359375 -2.456329e+001 -1.381467e+002 -1.735457e-001 -7.110278e+001 -1.376120e-001 -7.179490e+001 -2.483925e+001 -1.706583e+002
108918359.375 -2.496124e+001 -1.439648e+002 -1.929478e-001 -7.219966e+001 -1.811710e-001 -7.245316e+001 -2.488247e+001 -1.790047e+002
110477343.75 -2.407232e+001 -1.369225e+002 -1.868428e-001 -7.329830e+001 -1.623524e-001 -7.349554e+001 -2.547863e+001 -1.686413e+002
112036328.125 -2.510388e+001 -1.377653e+002 -2.312005e-001 -7.470818e+001 -1.831713e-001 -7.440140e+001 -2.432924e+001 -1.740683e+002
113595312.5 -2.445159e+001 -1.332911e+002 -1.605186e-001 -7.574805e+001 -1.894180e-001 -7.558952e+001 -2.426619e+001 -1.759561e+002
115154296.875 -2.456642e+001 -1.357915e+002 -2.040198e-001 -7.647932e+001 -2.093002e-001 -7.660687e+001 -2.444863e+001 -1.755654e+002
116713281.25 -2.443715e+001 -1.340837e+002 -1.096080e-001 -7.759071e+001 -1.406358e-001 -7.745450e+001 -2.715195e+001 1.791214e+002
118272265.625 -2.411128e+001 -1.334812e+002 -1.814668e-001 -7.844935e+001 -1.811151e-001 -7.852851e+001 -2.586572e+001 1.734303e+002
119831250 -2.419384e+001 -1.357834e+002 -1.800158e-001 -7.958131e+001 -1.723921e-001 -7.919419e+001 -2.521742e+001 1.742120e+002
121390234.375 -2.356302e+001 -1.356478e+002 -1.331136e-001 -8.059656e+001 -1.070366e-001 -8.059489e+001 -2.417886e+001 1.774332e+002
122949218.75 -2.412451e+001 -1.365514e+002 -2.307862e-001 -8.142643e+001 -1.864514e-001 -8.163773e+001 -2.440692e+001 1.742304e+002
124508203.125 -2.464981e+001 -1.387855e+002 -1.884159e-001 -8.253444e+001 -1.307411e-001 -8.283943e+001 -2.364940e+001 1.747284e+002
126067187.5 -2.392478e+001 -1.427986e+002 -1.792034e-001 -8.343964e+001 -1.739634e-001 -8.376577e+001 -2.443517e+001 1.670033e+002
127626171.875 -2.407682e+001 -1.436182e+002 -1.904745e-001 -8.457797e+001 -1.772929e-001 -8.463425e+001 -2.367715e+001 1.668011e+002
129185156.25 -2.436401e+001 -1.448717e+002 -1.922652e-001 -8.583353e+001 -1.992754e-001 -8.602975e+001 -2.368906e+001 1.662516e+002
130744140.625 -2.480133e+001 -1.442755e+002 -2.005189e-001 -8.672060e+001 -2.163414e-001 -8.671897e+001 -2.392837e+001 1.642432e+002
132303125 -2.391077e+001 -1.391206e+002 -1.777296e-001 -8.738354e+001 -1.850070e-001 -8.772326e+001 -2.377320e+001 1.632069e+002
133862109.375 -2.361674e+001 -1.398274e+002 -1.938412e-001 -8.880335e+001 -1.785555e-001 -8.884955e+001 -2.352497e+001 1.617580e+002
135421093.75 -2.364094e+001 -1.448618e+002 -1.889423e-001 -8.953505e+001 -1.752914e-001 -8.971891e+001 -2.314611e+001 1.573425e+002
136980078.125 -2.296626e+001 -1.439037e+002 -1.828651e-001 -9.070690e+001 -2.080612e-001 -9.089709e+001 -2.316458e+001 1.586179e+002
138539062.5 -2.335409e+001 -1.459610e+002 -1.890109e-001 -9.154951e+001 -1.765159e-001 -9.154985e+001 -2.312962e+001 1.539302e+002
140098046.875 -2.394816e+001 -1.531731e+002 -1.819382e-001 -9.255593e+001 -1.994180e-001 -9.277120e+001 -2.306883e+001 1.516803e+002
141657031.25 -2.392732e+001 -1.508322e+002 -1.718984e-001 -9.386873e+001 -1.692767e-001 -9.369650e+001 -2.324601e+001 1.467230e+002
143216015.625 -2.368756e+001 -1.502889e+002 -2.376564e-001 -9.483470e+001 -1.808767e-001 -9.477736e+001 -2.293849e+001 1.484573e+002
144775000 -2.349652e+001 -1.520549e+002 -1.806330e-001 -9.584026e+001 -2.082302e-001 -9.591561e+001 -2.340089e+001 1.480642e+002
146333984.375 -2.345197e+001 -1.485728e+002 -2.043123e-001 -9.654353e+001 -1.958448e-001 -9.713720e+001 -2.293250e+001 1.449146e+002
147892968.75 -2.334776e+001 -1.509322e+002 -2.357793e-001 -9.809800e+001 -2.337856e-001 -9.784358e+001 -2.336068e+001 1.432390e+002
149451953.125 -2.346355e+001 -1.522532e+002 -1.971164e-001 -9.870604e+001 -1.823241e-001 -9.872689e+001 -2.330591e+001 1.433540e+002
151010937.5 -2.367129e+001 -1.508254e+002 -2.493525e-001 -9.978363e+001 -2.464615e-001 -1.000603e+002 -2.348534e+001 1.453073e+002
152569921.875 -2.325498e+001 -1.527421e+002 -2.202550e-001 -1.008003e+002 -2.136279e-001 -1.008884e+002 -2.334568e+001 1.431861e+002
154128906.25 -2.374133e+001 -1.529612e+002 -2.075478e-001 -1.019496e+002 -2.258837e-001 -1.018091e+002 -2.317221e+001 1.410285e+002
155687890.625 -2.375471e+001 -1.570453e+002 -2.423496e-001 -1.029283e+002 -2.303887e-001 -1.032367e+002 -2.378460e+001 1.364648e+002
157246875 -2.370575e+001 -1.586790e+002 -2.557794e-001 -1.040926e+002 -2.064283e-001 -1.041197e+002 -2.373439e+001 1.345979e+002
158805859.375 -2.327938e+001 -1.590569e+002 -2.287963e-001 -1.048869e+002 -2.242260e-001 -1.052164e+002 -2.364697e+001 1.342310e+002
160364843.75 -2.346606e+001 -1.590824e+002 -2.150931e-001 -1.059599e+002 -1.920514e-001 -1.060249e+002 -2.381547e+001 1.306715e+002
161923828.125 -2.370452e+001 -1.577673e+002 -2.457611e-001 -1.069871e+002 -1.974893e-001 -1.070890e+002 -2.381538e+001 1.270909e+002
163482812.5 -2.357204e+001 -1.585017e+002 -2.390124e-001 -1.080562e+002 -2.058208e-001 -1.081433e+002 -2.325018e+001 1.228456e+002
165041796.875 -2.334322e+001 -1.602451e+002 -2.708505e-001 -1.089695e+002 -2.687722e-001 -1.091530e+002 -2.319403e+001 1.207605e+002
166600781.25 -2.402260e+001 -1.619364e+002 -2.327257e-001 -1.099429e+002 -2.765222e-001 -1.099154e+002 -2.344415e+001 1.164722e+002
168159765.625 -2.369298e+001 -1.621968e+002 -2.893353e-001 -1.111824e+002 -2.387410e-001 -1.110151e+002 -2.332057e+001 1.156998e+002
169718750 -2.383574e+001 -1.649855e+002 -2.213334e-001 -1.120417e+002 -2.431627e-001 -1.120666e+002 -2.327114e+001 1.145879e+002
171277734.375 -2.365613e+001 -1.650278e+002 -2.237058e-001 -1.132131e+002 -2.385665e-001 -1.133817e+002 -2.376493e+001 1.118404e+002
172836718.75 -2.361087e+001 -1.662294e+002 -2.728732e-001 -1.140015e+002 -2.302817e-001 -1.142351e+002 -2.378520e+001 1.078111e+002
174395703.125 -2.370396e+001 -1.647052e+002 -2.325695e-001 -1.150493e+002 -2.174595e-001 -1.151221e+002 -2.394682e+001 1.083682e+002
175954687.5 -2.385982e+001 -1.644942e+002 -2.560458e-001 -1.163360e+002 -2.193407e-001 -1.161900e+002 -2.363404e+001 1.090433e+002
177513671.875 -2.411412e+001 -1.643666e+002 -2.486892e-001 -1.170775e+002 -2.243291e-001 -1.173717e+002 -2.349077e+001 1.071358e+002
179072656.25 -2.362077e+001 -1.657381e+002 -2.735409e-001 -1.183852e+002 -1.947809e-001 -1.183737e+002 -2.331518e+001 1.047302e+002
180631640.625 -2.410972e+001 -1.671699e+002 -2.407738e-001 -1.190768e+002 -1.719169e-001 -1.194528e+002 -2.324429e+001 1.030990e+002
182190625 -2.368467e+001 -1.686440e+002 -2.463452e-001 -1.200306e+002 -2.398870e-001 -1.204504e+002 -2.281013e+001 9.951191e+001
183749609.375 -2.382948e+001 -1.683376e+002 -2.592026e-001 -1.211102e+002 -1.950371e-001 -1.215604e+002 -2.282979e+001 1.008792e+002
185308593.75 -2.383540e+001 -1.684037e+002 -2.501471e-001 -1.219399e+002 -1.894869e-001 -1.225328e+002 -2.271760e+001 9.892627e+001
186867578.125 -2.387265e+001 -1.703571e+002 -2.467517e-001 -1.231156e+002 -2.236057e-001 -1.231199e+002 -2.293251e+001 9.636321e+001
188426562.5 -2.359608e+001 -1.702860e+002 -2.280914e-001 -1.241160e+002 -1.995129e-001 -1.243511e+002 -2.317050e+001 9.653712e+001
189985546.875 -2.358924e+001 -1.705658e+002 -2.397063e-001 -1.249619e+002 -2.247696e-001 -1.253978e+002 -2.322690e+001 9.456103e+001
191544531.25 -2.376742e+001 -1.717456e+002 -2.323986e-001 -1.262278e+002 -2.269580e-001 -1.265774e+002 -2.328014e+001 9.422926e+001
193103515.625 -2.354195e+001 -1.712533e+002 -2.463429e-001 -1.270905e+002 -2.517391e-001 -1.274673e+002 -2.312089e+001 9.242167e+001
194662500 -2.369158e+001 -1.734313e+002 -2.412573e-001 -1.282083e+002 -3.020328e-001 -1.285708e+002 -2.300467e+001 8.996319e+001
196221484.375 -2.348507e+001 -1.739274e+002 -2.080170e-001 -1.291231e+002 -2.344401e-001 -1.295472e+002 -2.336267e+001 8.903939e+001
197780468.75 -2.357999e+001 -1.734641e+002 -2.653870e-001 -1.302285e+002 -2.597404e-001 -1.304813e+002 -2.319037e+001 8.785762e+001
199339453.125 -2.357442e+001 -1.736687e+002 -2.603579e-001 -1.314030e+002 -2.788288e-001 -1.314539e+002 -2.343702e+001 8.502074e+001
200898437.5 -2.334146e+001 -1.752037e+002 -2.489538e-001 -1.323103e+002 -2.938898e-001 -1.326837e+002 -2.348094e+001 8.289867e+001
202457421.875 -2.338605e+001 -1.761260e+002 -2.531624e-001 -1.332373e+002 -2.625338e-001 -1.335292e+002 -2.376192e+001 8.204570e+001
204016406.25 -2.377946e+001 -1.757382e+002 -2.715011e-001 -1.343109e+002 -2.559398e-001 -1.344487e+002 -2.339971e+001 7.989055e+001
205575390.625 -2.353821e+001 -1.758034e+002 -2.737787e-001 -1.355233e+002 -2.568242e-001 -1.355561e+002 -2.353496e+001 7.754322e+001
207134375 -2.404326e+001 -1.758879e+002 -2.891541e-001 -1.363794e+002 -2.583481e-001 -1.366460e+002 -2.345728e+001 7.729111e+001
208693359.375 -2.387173e+001 -1.754794e+002 -2.751011e-001 -1.375917e+002 -2.406602e-001 -1.377578e+002 -2.367245e+001 7.405555e+001
210252343.75 -2.403452e+001 -1.768617e+002 -2.961217e-001 -1.383748e+002 -2.377104e-001 -1.385912e+002 -2.347219e+001 7.220869e+001
211811328.125 -2.417951e+001 -1.771143e+002 -2.434105e-001 -1.398306e+002 -2.497897e-001 -1.395850e+002 -2.351699e+001 7.051200e+001
213370312.5 -2.399342e+001 -1.760178e+002 -2.684563e-001 -1.405041e+002 -2.629324e-001 -1.405658e+002 -2.340193e+001 6.696578e+001
214929296.875 -2.404373e+001 -1.748544e+002 -2.488953e-001 -1.416611e+002 -2.414746e-001 -1.411282e+002 -2.350373e+001 6.439347e+001
216488281.25 -2.413105e+001 -1.759754e+002 -2.745126e-001 -1.426059e+002 -2.938864e-001 -1.423771e+002 -2.346449e+001 6.277268e+001
218047265.625 -2.382327e+001 -1.750345e+002 -2.287569e-001 -1.434637e+002 -2.761009e-001 -1.436042e+002 -2.359170e+001 6.070821e+001
219606250 -2.417074e+001 -1.749554e+002 -2.697730e-001 -1.443507e+002 -2.823934e-001 -1.447271e+002 -2.375704e+001 5.869910e+001
221165234.375 -2.393339e+001 -1.759307e+002 -2.833096e-001 -1.453465e+002 -2.963691e-001 -1.458429e+002 -2.341062e+001 5.776125e+001
222724218.75 -2.419121e+001 -1.769531e+002 -2.613555e-001 -1.465075e+002 -2.812774e-001 -1.470544e+002 -2.338076e+001 5.562953e+001
224283203.125 -2.394661e+001 -1.765296e+002 -2.657168e-001 -1.474694e+002 -2.864798e-001 -1.482236e+002 -2.366583e+001 5.472719e+001
225842187.5 -2.420909e+001 -1.758092e+002 -2.700937e-001 -1.486248e+002 -2.624266e-001 -1.492363e+002 -2.362863e+001 5.339933e+001
227401171.875 -2.451964e+001 -1.745753e+002 -2.794290e-001 -1.494287e+002 -2.550446e-001 -1.500895e+002 -2.364010e+001 5.040433e+001
228960156.25 -2.443471e+001 -1.762980e+002 -2.555692e-001 -1.505276e+002 -2.722349e-001 -1.511973e+002 -2.399852e+001 4.976485e+001
230519140.625 -2.433431e+001 -1.761893e+002 -2.762422e-001 -1.515228e+002 -2.818628e-001 -1.520240e+002 -2.395400e+001 4.591217e+001
232078125 -2.464198e+001 -1.744638e+002 -2.550821e-001 -1.527574e+002 -2.527101e-001 -1.531692e+002 -2.394739e+001 4.627817e+001
233637109.375 -2.411485e+001 -1.778043e+002 -2.382389e-001 -1.536656e+002 -2.288897e-001 -1.543090e+002 -2.432401e+001 4.364837e+001
235196093.75 -2.412342e+001 -1.760932e+002 -2.712546e-001 -1.548052e+002 -2.540400e-001 -1.553744e+002 -2.419321e+001 4.053154e+001
236755078.125 -2.421199e+001 -1.769381e+002 -2.590830e-001 -1.557458e+002 -2.138771e-001 -1.566666e+002 -2.411627e+001 3.948136e+001
238314062.5 -2.431405e+001 -1.758013e+002 -2.693741e-001 -1.564689e+002 -2.764278e-001 -1.573854e+002 -2.395708e+001 3.503561e+001
239873046.875 -2.441828e+001 -1.758124e+002 -2.357706e-001 -1.576295e+002 -2.917618e-001 -1.581506e+002 -2.409723e+001 3.330421e+001
241432031.25 -2.419907e+001 -1.754081e+002 -2.093171e-001 -1.584913e+002 -3.800851e-001 -1.587064e+002 -2.414723e+001 3.040720e+001
242991015.625 -2.448068e+001 -1.740855e+002 -2.729881e-001 -1.598298e+002 -3.999523e-001 -1.592947e+002 -2.398862e+001 2.831938e+001
244550000 -2.416742e+001 -1.722534e+002 -2.553587e-001 -1.606799e+002 -3.464563e-001 -1.601286e+002 -2.412219e+001 2.435558e+001
246108984.375 -2.445475e+001 -1.720476e+002 -2.697797e-001 -1.614809e+002 -3.215367e-001 -1.615482e+002 -2.413691e+001 2.528989e+001
247667968.75 -2.453940e+001 -1.733368e+002 -3.019221e-001 -1.626875e+002 -2.626218e-001 -1.631225e+002 -2.394199e+001 2.370859e+001
249226953.125 -2.424246e+001 -1.739690e+002 -4.174705e-001 -1.630388e+002 -1.861786e-001 -1.646196e+002 -2.393649e+001 2.154157e+001
250785937.5 -2.422582e+001 -1.738198e+002 -4.396711e-001 -1.640883e+002 -1.583613e-001 -1.661924e+002 -2.376285e+001 1.911623e+001
252344921.875 -2.437737e+001 -1.754811e+002 -3.361671e-001 -1.644716e+002 -1.566379e-001 -1.673633e+002 -2.366340e+001 1.502735e+001
253903906.25 -2.414941e+001 -1.742566e+002 -2.657494e-001 -1.659943e+002 -2.261391e-001 -1.683377e+002 -2.376295e+001 1.449137e+001
255462890.625 -2.434002e+001 -1.742576e+002 -2.322371e-001 -1.680236e+002 -2.998658e-001 -1.692098e+002 -2.342308e+001 9.785385e+000
257021875 -2.445055e+001 -1.737806e+002 -1.524492e-001 -1.691779e+002 -3.296345e-001 -1.701494e+002 -2.329042e+001 6.466316e+000
258580859.375 -2.437382e+001 -1.732295e+002 -1.636860e-001 -1.708257e+002 -3.429705e-001 -1.711061e+002 -2.341114e+001 3.386188e+000
260139843.75 -2.445209e+001 -1.739514e+002 -1.951438e-001 -1.721719e+002 -3.377604e-001 -1.721042e+002 -2.322471e+001 1.960054e+000
261698828.125 -2.433835e+001 -1.717455e+002 -2.366555e-001 -1.729753e+002 -3.344596e-001 -1.727007e+002 -2.336667e+001 -4.664197e-002
263257812.5 -2.415074e+001 -1.709948e+002 -2.764750e-001 -1.736505e+002 -3.629540e-001 -1.731081e+002 -2.314916e+001 -1.557935e+000
264816796.875 -2.397025e+001 -1.725733e+002 -2.801489e-001 -1.748918e+002 -4.508003e-001 -1.735067e+002 -2.350849e+001 -3.794084e+000
266375781.25 -2.406192e+001 -1.725334e+002 -3.293508e-001 -1.766525e+002 -4.663054e-001 -1.740435e+002 -2.335419e+001 -5.583226e+000
267934765.625 -2.426203e+001 -1.715807e+002 -3.626597e-001 -1.775109e+002 -4.390862e-001 -1.753880e+002 -2.328268e+001 -6.897217e+000
269493750 -2.411958e+001 -1.716168e+002 -3.917915e-001 -1.779643e+002 -4.011470e-001 -1.761786e+002 -2.337375e+001 -9.002869e+000
271052734.375 -2.431063e+001 -1.707702e+002 -3.579876e-001 -1.785914e+002 -3.513541e-001 -1.777275e+002 -2.317177e+001 -1.054843e+001
272611718.75 -2.437379e+001 -1.702045e+002 -3.872300e-001 -1.792777e+002 -2.992286e-001 -1.786721e+002 -2.286695e+001 -1.234986e+001
274170703.125 -2.411598e+001 -1.697216e+002 -3.893339e-001 1.799305e+002 -2.587262e-001 -1.795251e+002 -2.277934e+001 -1.444527e+001
