!Agilent Technologies,E8364A,US41440322,A.04.87.01
!Agilent E8364A: A.04.87.01
!Date: Thursday, July 11, 2024 14:16:32
!Correction: S11(Full 2 Port SOLT,1,2) S21(Full 2 Port SOLT,1,2) S12(Full 2 Port SOLT,1,2) S22(Full 2 Port SOLT,1,2)
!S2P File: Measurements: S11, S21, S12, S22:
# Hz S  dB   R 50
45000000 -3.173163e+001 -9.840159e+001 -1.718441e-002 -2.664063e+001 -3.489931e-001 -3.066683e+001 -2.528061e+001 -1.061069e+002
48117968.75 -3.442424e+001 -4.879302e+001 -2.248232e-002 -3.117996e+001 -1.427961e-001 -3.271269e+001 -2.333814e+001 -8.823667e+001
51235937.5 -2.867060e+001 -1.009376e+002 4.732479e-002 -3.370006e+001 -7.070541e-002 -3.333969e+001 -2.418516e+001 -8.753600e+001
54353906.25 -2.779912e+001 -1.259556e+002 -2.020011e-001 -3.672367e+001 -1.303543e-001 -3.722081e+001 -2.788680e+001 -1.069083e+002
57471875 -3.018563e+001 -1.063278e+002 -8.982786e-002 -3.805873e+001 -2.578962e-001 -3.955996e+001 -2.754932e+001 -7.529574e+001
60589843.75 -2.817584e+001 -1.064041e+002 -4.182204e-001 -4.085861e+001 -1.193199e-001 -4.133068e+001 -2.780895e+001 -1.173776e+002
63707812.5 -2.673361e+001 -1.084429e+002 -3.657214e-001 -4.398612e+001 1.902601e-002 -4.195007e+001 -3.009567e+001 -1.519956e+002
66825781.25 -2.697063e+001 -1.114582e+002 -1.950324e-001 -4.484545e+001 -9.005135e-002 -4.548229e+001 -3.054775e+001 -1.557535e+002
69943750 -2.568520e+001 -1.091214e+002 -4.898209e-002 -4.641164e+001 -2.593218e-002 -4.721194e+001 -2.743863e+001 -1.365709e+002
73061718.75 -3.042826e+001 -1.211145e+002 -1.535323e-001 -4.812826e+001 -1.079929e-001 -4.906876e+001 -2.893189e+001 -1.488020e+002
76179687.5 -3.044892e+001 -1.253453e+002 -3.115228e-001 -5.130894e+001 -1.194235e-001 -5.209066e+001 -3.228017e+001 -1.063020e+002
79297656.25 -2.683437e+001 -1.238028e+002 -1.986842e-001 -5.266990e+001 -1.962330e-001 -5.261270e+001 -3.045055e+001 -1.269155e+002
82415625 -2.780088e+001 -1.178096e+002 -1.062844e-001 -5.483707e+001 -1.318942e-001 -5.500390e+001 -2.950262e+001 -1.337655e+002
85533593.75 -2.752986e+001 -1.051227e+002 -1.776800e-001 -5.706001e+001 -1.849246e-001 -5.683825e+001 -2.782425e+001 -1.506476e+002
88651562.5 -2.692247e+001 -1.090899e+002 -1.904719e-001 -5.892811e+001 -1.183366e-001 -5.912182e+001 -2.649412e+001 -1.507326e+002
91769531.25 -2.574399e+001 -1.207565e+002 -1.998117e-001 -6.062217e+001 -1.615054e-001 -6.088324e+001 -2.549698e+001 -1.522021e+002
94887500 -2.434076e+001 -1.256696e+002 -2.344745e-001 -6.277020e+001 -1.728657e-001 -6.317119e+001 -2.517778e+001 -1.529056e+002
98005468.75 -2.524176e+001 -1.245923e+002 -1.118326e-001 -6.540230e+001 -8.221044e-002 -6.530962e+001 -2.480660e+001 -1.562235e+002
101123437.5 -2.523593e+001 -1.259287e+002 -2.162330e-001 -6.722530e+001 -1.551899e-001 -6.727105e+001 -2.546908e+001 -1.621931e+002
104241406.25 -2.460518e+001 -1.316233e+002 -2.218767e-001 -6.919524e+001 -1.929525e-001 -6.938280e+001 -2.515660e+001 -1.748902e+002
107359375 -2.379273e+001 -1.312823e+002 -2.241750e-001 -7.091193e+001 -2.352417e-001 -7.159344e+001 -2.542444e+001 -1.741719e+002
110477343.75 -2.509461e+001 -1.388390e+002 -1.452800e-001 -7.332582e+001 -1.516387e-001 -7.335101e+001 -2.494476e+001 -1.745897e+002
113595312.5 -2.410650e+001 -1.321974e+002 -1.398971e-001 -7.548675e+001 -1.772428e-001 -7.560947e+001 -2.407107e+001 -1.739540e+002
116713281.25 -2.457540e+001 -1.344660e+002 -1.828759e-001 -7.775498e+001 -1.493205e-001 -7.798112e+001 -2.671516e+001 1.783951e+002
119831250 -2.407063e+001 -1.400919e+002 -1.612346e-001 -7.986669e+001 -1.575996e-001 -7.966769e+001 -2.560085e+001 1.726053e+002
122949218.75 -2.369457e+001 -1.361735e+002 -1.662578e-001 -8.147020e+001 -1.639974e-001 -8.183176e+001 -2.517827e+001 1.743767e+002
126067187.5 -2.459631e+001 -1.435734e+002 -1.860716e-001 -8.365221e+001 -2.015264e-001 -8.370808e+001 -2.400973e+001 1.704514e+002
129185156.25 -2.413793e+001 -1.420717e+002 -1.606090e-001 -8.609489e+001 -1.884109e-001 -8.551385e+001 -2.377177e+001 1.610168e+002
132303125 -2.387548e+001 -1.414405e+002 -2.216260e-001 -8.790220e+001 -2.567608e-001 -8.781115e+001 -2.330826e+001 1.654134e+002
135421093.75 -2.364812e+001 -1.408846e+002 -2.288133e-001 -8.975727e+001 -2.087233e-001 -9.003057e+001 -2.317178e+001 1.550595e+002
138539062.5 -2.332696e+001 -1.463878e+002 -1.861452e-001 -9.199803e+001 -2.368908e-001 -9.183708e+001 -2.366838e+001 1.539511e+002
141657031.25 -2.365265e+001 -1.500736e+002 -2.256325e-001 -9.421111e+001 -2.098795e-001 -9.390115e+001 -2.297672e+001 1.475918e+002
144775000 -2.327409e+001 -1.495057e+002 -2.082916e-001 -9.573816e+001 -2.067108e-001 -9.606346e+001 -2.269828e+001 1.466770e+002
147892968.75 -2.328448e+001 -1.552310e+002 -1.858816e-001 -9.800195e+001 -2.621012e-001 -9.822211e+001 -2.281639e+001 1.458450e+002
151010937.5 -2.338209e+001 -1.532592e+002 -1.607219e-001 -1.001217e+002 -2.238655e-001 -1.000763e+002 -2.368127e+001 1.427186e+002
154128906.25 -2.348001e+001 -1.549575e+002 -2.756681e-001 -1.021191e+002 -2.185015e-001 -1.020250e+002 -2.396481e+001 1.421774e+002
157246875 -2.341433e+001 -1.550426e+002 -2.348648e-001 -1.041094e+002 -2.270467e-001 -1.042073e+002 -2.356047e+001 1.349632e+002
160364843.75 -2.360918e+001 -1.586178e+002 -2.733331e-001 -1.059541e+002 -2.536343e-001 -1.062180e+002 -2.375069e+001 1.259237e+002
163482812.5 -2.342625e+001 -1.596903e+002 -2.793609e-001 -1.081142e+002 -2.346155e-001 -1.083406e+002 -2.325151e+001 1.218161e+002
166600781.25 -2.352515e+001 -1.608410e+002 -2.366931e-001 -1.099344e+002 -2.498228e-001 -1.102834e+002 -2.307831e+001 1.155183e+002
169718750 -2.360841e+001 -1.641684e+002 -2.430110e-001 -1.121335e+002 -2.621194e-001 -1.123330e+002 -2.344101e+001 1.118613e+002
172836718.75 -2.369932e+001 -1.676919e+002 -2.401421e-001 -1.143690e+002 -2.102034e-001 -1.141983e+002 -2.351317e+001 1.102473e+002
175954687.5 -2.371173e+001 -1.675618e+002 -3.099851e-001 -1.165027e+002 -2.438744e-001 -1.165082e+002 -2.367475e+001 1.055061e+002
179072656.25 -2.377083e+001 -1.678336e+002 -2.741976e-001 -1.185330e+002 -2.319036e-001 -1.183482e+002 -2.338917e+001 1.051524e+002
182190625 -2.395624e+001 -1.683772e+002 -2.357922e-001 -1.203298e+002 -2.231491e-001 -1.204246e+002 -2.291547e+001 1.010077e+002
185308593.75 -2.381862e+001 -1.698335e+002 -2.606794e-001 -1.223046e+002 -2.225991e-001 -1.223659e+002 -2.270913e+001 9.620691e+001
188426562.5 -2.364689e+001 -1.710334e+002 -2.948029e-001 -1.240763e+002 -2.456867e-001 -1.243889e+002 -2.289176e+001 9.567888e+001
191544531.25 -2.347601e+001 -1.723657e+002 -2.463447e-001 -1.264748e+002 -2.568372e-001 -1.266053e+002 -2.287224e+001 9.224012e+001
194662500 -2.380373e+001 -1.732129e+002 -2.602772e-001 -1.283669e+002 -2.701342e-001 -1.285302e+002 -2.319697e+001 8.923067e+001
197780468.75 -2.364039e+001 -1.740745e+002 -3.014275e-001 -1.302228e+002 -2.784588e-001 -1.307615e+002 -2.318629e+001 8.581010e+001
200898437.5 -2.371610e+001 -1.751572e+002 -2.724998e-001 -1.322794e+002 -2.839085e-001 -1.328889e+002 -2.339807e+001 8.318040e+001
204016406.25 -2.370869e+001 -1.755021e+002 -3.063510e-001 -1.346892e+002 -2.778532e-001 -1.346008e+002 -2.364227e+001 7.974368e+001
207134375 -2.399554e+001 -1.780696e+002 -2.781633e-001 -1.363654e+002 -2.889178e-001 -1.366020e+002 -2.340015e+001 7.560280e+001
210252343.75 -2.404132e+001 -1.752124e+002 -2.913774e-001 -1.386260e+002 -2.977967e-001 -1.388034e+002 -2.370542e+001 7.191750e+001
213370312.5 -2.382933e+001 -1.764937e+002 -2.554882e-001 -1.407828e+002 -3.193424e-001 -1.406829e+002 -2.330505e+001 6.837693e+001
216488281.25 -2.396442e+001 -1.754409e+002 -2.752035e-001 -1.427070e+002 -2.979106e-001 -1.423655e+002 -2.346889e+001 6.410835e+001
219606250 -2.425987e+001 -1.767618e+002 -3.121148e-001 -1.446597e+002 -2.910970e-001 -1.447767e+002 -2.318831e+001 5.928897e+001
222724218.75 -2.405345e+001 -1.767752e+002 -2.901314e-001 -1.467871e+002 -2.925982e-001 -1.469259e+002 -2.363836e+001 5.426435e+001
225842187.5 -2.407190e+001 -1.764158e+002 -2.763296e-001 -1.486255e+002 -2.848703e-001 -1.493547e+002 -2.391831e+001 5.434966e+001
228960156.25 -2.443716e+001 -1.772233e+002 -2.598099e-001 -1.507143e+002 -2.482989e-001 -1.512045e+002 -2.358973e+001 4.972829e+001
232078125 -2.449190e+001 -1.762413e+002 -2.592434e-001 -1.529036e+002 -2.514065e-001 -1.531619e+002 -2.385789e+001 4.651977e+001
235196093.75 -2.450549e+001 -1.769665e+002 -2.982759e-001 -1.550365e+002 -2.363153e-001 -1.555618e+002 -2.403761e+001 4.182268e+001
238314062.5 -2.452299e+001 -1.761424e+002 -2.987381e-001 -1.565663e+002 -2.644440e-001 -1.576432e+002 -2.394285e+001 3.591993e+001
241432031.25 -2.460295e+001 -1.751339e+002 -2.562453e-001 -1.588241e+002 -3.910421e-001 -1.589305e+002 -2.397768e+001 3.128563e+001
244550000 -2.445707e+001 -1.734753e+002 -2.546026e-001 -1.609550e+002 -3.906786e-001 -1.604745e+002 -2.357666e+001 2.641082e+001
247667968.75 -2.442537e+001 -1.744283e+002 -3.394307e-001 -1.627564e+002 -2.766531e-001 -1.632955e+002 -2.362530e+001 2.322767e+001
250785937.5 -2.455529e+001 -1.736936e+002 -4.550126e-001 -1.640723e+002 -1.589327e-001 -1.660019e+002 -2.336906e+001 1.931859e+001
253903906.25 -2.437243e+001 -1.739415e+002 -2.732011e-001 -1.662517e+002 -2.676071e-001 -1.683269e+002 -2.349614e+001 1.563112e+001
257021875 -2.420468e+001 -1.764240e+002 -1.744233e-001 -1.695786e+002 -3.528688e-001 -1.701302e+002 -2.328717e+001 8.259579e+000
260139843.75 -2.444342e+001 -1.738899e+002 -2.014483e-001 -1.725236e+002 -3.401202e-001 -1.718167e+002 -2.314550e+001 1.885877e+000
263257812.5 -2.430671e+001 -1.716158e+002 -3.197228e-001 -1.736718e+002 -3.708293e-001 -1.731206e+002 -2.288958e+001 -1.518194e+000
266375781.25 -2.410301e+001 -1.723432e+002 -3.607225e-001 -1.766209e+002 -4.598487e-001 -1.745016e+002 -2.324364e+001 -3.762596e+000
269493750 -2.420858e+001 -1.716912e+002 -4.068460e-001 -1.779150e+002 -4.333136e-001 -1.766482e+002 -2.327633e+001 -9.111793e+000
272611718.75 -2.428438e+001 -1.700982e+002 -4.179747e-001 -1.795892e+002 -3.017858e-001 -1.787721e+002 -2.293728e+001 -1.062402e+001
275729687.5 -2.418126e+001 -1.698424e+002 -4.238191e-001 1.789366e+002 -2.637249e-001 1.793812e+002 -2.250812e+001 -1.790484e+001
278847656.25 -2.382348e+001 -1.696378e+002 -3.666307e-001 1.766417e+002 -2.903119e-001 1.762270e+002 -2.215421e+001 -2.269039e+001
281965625 -2.409998e+001 -1.688425e+002 -3.718592e-001 1.747441e+002 -2.795830e-001 1.740906e+002 -2.227654e+001 -2.595624e+001
285083593.75 -2.385000e+001 -1.687720e+002 -3.498713e-001 1.725530e+002 -2.991725e-001 1.723402e+002 -2.237553e+001 -2.875290e+001
288201562.5 -2.340115e+001 -1.682934e+002 -3.694503e-001 1.704371e+002 -3.337667e-001 1.701755e+002 -2.205913e+001 -3.370540e+001
291319531.25 -2.328727e+001 -1.688581e+002 -3.384844e-001 1.683889e+002 -3.181973e-001 1.679220e+002 -2.197453e+001 -3.879346e+001
294437500 -2.310224e+001 -1.696941e+002 -3.783365e-001 1.664005e+002 -3.183340e-001 1.657872e+002 -2.206679e+001 -4.292657e+001
297555468.75 -2.299739e+001 -1.692243e+002 -3.670139e-001 1.643473e+002 -3.043437e-001 1.639390e+002 -2.170659e+001 -4.554220e+001
300673437.5 -2.287581e+001 -1.693356e+002 -3.404637e-001 1.621909e+002 -3.279044e-001 1.619591e+002 -2.140769e+001 -4.845630e+001
303791406.25 -2.270217e+001 -1.708873e+002 -3.658233e-001 1.602953e+002 -3.497939e-001 1.599140e+002 -2.137693e+001 -5.245676e+001
306909375 -2.253007e+001 -1.711066e+002 -3.707424e-001 1.582296e+002 -3.643130e-001 1.580229e+002 -2.139668e+001 -5.726872e+001
310027343.75 -2.247606e+001 -1.712050e+002 -3.836589e-001 1.563135e+002 -3.601324e-001 1.559812e+002 -2.132066e+001 -6.048147e+001
313145312.5 -2.226862e+001 -1.719252e+002 -3.936920e-001 1.541145e+002 -3.564416e-001 1.540191e+002 -2.130108e+001 -6.500648e+001
316263281.25 -2.201093e+001 -1.731057e+002 -3.489936e-001 1.519233e+002 -3.475639e-001 1.518170e+002 -2.121329e+001 -6.879221e+001
319381250 -2.192996e+001 -1.730291e+002 -3.854394e-001 1.501177e+002 -3.486961e-001 1.497236e+002 -2.111977e+001 -7.249149e+001
322499218.75 -2.182682e+001 -1.743345e+002 -3.708264e-001 1.478800e+002 -3.799521e-001 1.478574e+002 -2.090006e+001 -7.650509e+001
325617187.5 -2.173362e+001 -1.745955e+002 -3.999106e-001 1.459218e+002 -3.770099e-001 1.456853e+002 -2.070190e+001 -8.059971e+001
328735156.25 -2.147967e+001 -1.754444e+002 -3.699465e-001 1.439909e+002 -3.764850e-001 1.436717e+002 -2.069547e+001 -8.431142e+001
331853125 -2.139606e+001 -1.775424e+002 -3.830726e-001 1.418933e+002 -3.668525e-001 1.415367e+002 -2.051119e+001 -8.905771e+001
334971093.75 -2.137236e+001 -1.777022e+002 -3.891048e-001 1.398646e+002 -4.034624e-001 1.394919e+002 -2.051891e+001 -9.206940e+001
338089062.5 -2.109493e+001 -1.775929e+002 -3.961958e-001 1.379445e+002 -3.642273e-001 1.375640e+002 -2.048360e+001 -9.649378e+001
341207031.25 -2.068845e+001 -1.785864e+002 -4.114597e-001 1.358212e+002 -3.518282e-001 1.355355e+002 -2.039235e+001 -1.002923e+002
344325000 -2.047466e+001 -1.798606e+002 -3.736045e-001 1.336774e+002 -3.717610e-001 1.335144e+002 -2.028802e+001 -1.043343e+002
347442968.75 -2.031960e+001 1.791847e+002 -3.926320e-001 1.317695e+002 -3.705906e-001 1.314537e+002 -2.026427e+001 -1.096067e+002
350560937.5 -2.017800e+001 1.779035e+002 -3.994892e-001 1.296603e+002 -3.783454e-001 1.293831e+002 -2.004884e+001 -1.136736e+002
353678906.25 -2.007439e+001 1.765964e+002 -3.861662e-001 1.276260e+002 -4.153498e-001 1.274687e+002 -1.997417e+001 -1.168583e+002
356796875 -1.991102e+001 1.762493e+002 -3.757328e-001 1.254715e+002 -3.959211e-001 1.255557e+002 -1.981389e+001 -1.202405e+002
359914843.75 -1.966386e+001 1.749949e+002 -4.171807e-001 1.234805e+002 -4.462760e-001 1.235150e+002 -1.969587e+001 -1.254242e+002
363032812.5 -1.944799e+001 1.740831e+002 -4.241059e-001 1.215293e+002 -4.546582e-001 1.213684e+002 -1.971795e+001 -1.294224e+002
366150781.25 -1.933930e+001 1.730222e+002 -4.382393e-001 1.194021e+002 -4.324166e-001 1.193450e+002 -1.947738e+001 -1.332517e+002
369268750 -1.924077e+001 1.716433e+002 -4.583961e-001 1.174191e+002 -4.689297e-001 1.171868e+002 -1.937903e+001 -1.364199e+002
372386718.75 -1.905275e+001 1.705404e+002 -4.500001e-001 1.153076e+002 -4.226902e-001 1.151113e+002 -1.917609e+001 -1.409052e+002
375504687.5 -1.893759e+001 1.692265e+002 -4.440818e-001 1.133854e+002 -4.068041e-001 1.132517e+002 -1.903792e+001 -1.442615e+002
378622656.25 -1.892712e+001 1.679972e+002 -4.913478e-001 1.112715e+002 -4.212126e-001 1.113538e+002 -1.903384e+001 -1.479283e+002
381740625 -1.874206e+001 1.670087e+002 -4.686866e-001 1.092060e+002 -4.404225e-001 1.093670e+002 -1.900361e+001 -1.504733e+002
384858593.75 -1.858211e+001 1.654608e+002 -4.572244e-001 1.071755e+002 -4.293013e-001 1.071505e+002 -1.888235e+001 -1.541170e+002
387976562.5 -1.837456e+001 1.640995e+002 -4.733424e-001 1.053497e+002 -4.228962e-001 1.051777e+002 -1.877957e+001 -1.568183e+002
391094531.25 -1.824373e+001 1.634512e+002 -5.000557e-001 1.032928e+002 -4.396591e-001 1.030515e+002 -1.863845e+001 -1.601728e+002
394212500 -1.805975e+001 1.618858e+002 -4.858045e-001 1.012180e+002 -4.358541e-001 1.011393e+002 -1.849459e+001 -1.645974e+002
397330468.75 -1.792776e+001 1.612718e+002 -4.905152e-001 9.921420e+001 -4.264670e-001 9.902625e+001 -1.834069e+001 -1.676538e+002
400448437.5 -1.784081e+001 1.597111e+002 -4.954312e-001 9.728481e+001 -4.708397e-001 9.720217e+001 -1.827444e+001 -1.695534e+002
403566406.25 -1.770867e+001 1.583388e+002 -4.731570e-001 9.522915e+001 -4.634158e-001 9.505945e+001 -1.812737e+001 -1.724938e+002
406684375 -1.766096e+001 1.571725e+002 -4.745598e-001 9.318736e+001 -4.544221e-001 9.305000e+001 -1.788042e+001 -1.754043e+002
409802343.75 -1.747004e+001 1.558274e+002 -4.523163e-001 9.123818e+001 -4.736858e-001 9.075956e+001 -1.794918e+001 -1.788199e+002
412920312.5 -1.741624e+001 1.541882e+002 -4.527457e-001 8.928522e+001 -4.384269e-001 8.864679e+001 -1.790151e+001 1.779282e+002
416038281.25 -1.727555e+001 1.525450e+002 -4.686280e-001 8.719492e+001 -4.317702e-001 8.676685e+001 -1.776898e+001 1.748129e+002
419156250 -1.719698e+001 1.505206e+002 -5.192792e-001 8.491433e+001 -4.782085e-001 8.462966e+001 -1.776140e+001 1.714129e+002
422274218.75 -1.711240e+001 1.492866e+002 -5.092449e-001 8.301180e+001 -4.692150e-001 8.286611e+001 -1.766325e+001 1.694687e+002
425392187.5 -1.710517e+001 1.474604e+002 -5.156851e-001 8.090457e+001 -4.832383e-001 8.086436e+001 -1.764602e+001 1.669099e+002
428510156.25 -1.703360e+001 1.462143e+002 -5.421903e-001 7.904226e+001 -5.081068e-001 7.879942e+001 -1.748793e+001 1.641861e+002
431628125 -1.698586e+001 1.446106e+002 -5.091405e-001 7.686024e+001 -5.327046e-001 7.692962e+001 -1.752220e+001 1.617659e+002
434746093.75 -1.696033e+001 1.432376e+002 -5.125790e-001 7.487778e+001 -5.008354e-001 7.475551e+001 -1.748962e+001 1.588006e+002
437864062.5 -1.693132e+001 1.416262e+002 -5.450785e-001 7.271836e+001 -5.064312e-001 7.279955e+001 -1.752086e+001 1.557833e+002
440982031.25 -1.690677e+001 1.400241e+002 -5.340346e-001 7.079825e+001 -5.130841e-001 7.062101e+001 -1.761213e+001 1.528368e+002
444100000 -1.692852e+001 1.387896e+002 -5.318296e-001 6.899077e+001 -5.182903e-001 6.865578e+001 -1.758018e+001 1.500155e+002
447217968.75 -1.693480e+001 1.378480e+002 -5.240694e-001 6.711388e+001 -5.591811e-001 6.677579e+001 -1.762650e+001 1.474541e+002
450335937.5 -1.698561e+001 1.363437e+002 -5.506827e-001 6.481747e+001 -5.436682e-001 6.477014e+001 -1.753360e+001 1.445905e+002
453453906.25 -1.700350e+001 1.349719e+002 -5.668797e-001 6.295099e+001 -5.570949e-001 6.270171e+001 -1.764630e+001 1.408912e+002
456571875 -1.709127e+001 1.331580e+002 -5.667690e-001 6.088799e+001 -5.500782e-001 6.074892e+001 -1.766611e+001 1.379508e+002
459689843.75 -1.708517e+001 1.318337e+002 -5.365757e-001 5.882315e+001 -5.206978e-001 5.871054e+001 -1.771381e+001 1.348913e+002
462807812.5 -1.718915e+001 1.305782e+002 -5.714741e-001 5.675489e+001 -4.951485e-001 5.663467e+001 -1.773018e+001 1.319630e+002
465925781.25 -1.722864e+001 1.293177e+002 -5.554812e-001 5.482438e+001 -5.251409e-001 5.470391e+001 -1.774738e+001 1.284013e+002
469043750 -1.726391e+001 1.285529e+002 -5.266709e-001 5.299506e+001 -5.255960e-001 5.266865e+001 -1.777652e+001 1.256382e+002
472161718.75 -1.735624e+001 1.273351e+002 -4.986959e-001 5.091635e+001 -5.122907e-001 5.063985e+001 -1.780882e+001 1.227654e+002
475279687.5 -1.732864e+001 1.260268e+002 -5.157279e-001 4.890338e+001 -5.190982e-001 4.859921e+001 -1.787066e+001 1.201273e+002
478397656.25 -1.737319e+001 1.243773e+002 -5.098874e-001 4.696993e+001 -5.018065e-001 4.657102e+001 -1.788233e+001 1.166812e+002
481515625 -1.740870e+001 1.234776e+002 -5.139714e-001 4.508269e+001 -5.022361e-001 4.447858e+001 -1.792932e+001 1.134243e+002
484633593.75 -1.752922e+001 1.221642e+002 -5.301234e-001 4.280623e+001 -5.074714e-001 4.224403e+001 -1.792589e+001 1.101954e+002
487751562.5 -1.757749e+001 1.212347e+002 -5.376384e-001 4.080609e+001 -5.086425e-001 4.037696e+001 -1.796801e+001 1.063555e+002
490869531.25 -1.759742e+001 1.200323e+002 -5.139800e-001 3.856166e+001 -5.073283e-001 3.838775e+001 -1.794899e+001 1.035100e+002
493987500 -1.764876e+001 1.191247e+002 -5.186903e-001 3.670789e+001 -5.258385e-001 3.623677e+001 -1.796023e+001 1.000245e+002
497105468.75 -1.771162e+001 1.180006e+002 -5.474228e-001 3.463037e+001 -5.385356e-001 3.426880e+001 -1.795769e+001 9.706068e+001
500223437.5 -1.773889e+001 1.166736e+002 -5.150765e-001 3.240609e+001 -5.381211e-001 3.223094e+001 -1.793143e+001 9.396746e+001
503341406.25 -1.782406e+001 1.154856e+002 -5.259154e-001 3.046447e+001 -5.156297e-001 3.017153e+001 -1.791856e+001 9.038480e+001
506459375 -1.791064e+001 1.145918e+002 -5.565330e-001 2.835735e+001 -5.156959e-001 2.804286e+001 -1.788193e+001 8.690092e+001
509577343.75 -1.794742e+001 1.133167e+002 -5.479342e-001 2.657079e+001 -5.072232e-001 2.613646e+001 -1.790528e+001 8.363139e+001
