!Agilent Technologies,E8364A,US41440322,A.04.87.01
!Agilent E8364A: A.04.87.01
!Date: Tuesday, July 16, 2024 12:19:35
!Correction: S11(Full 2 Port SOLT,1,2) S21(Full 2 Port SOLT,1,2) S12(Full 2 Port SOLT,1,2) S22(Full 2 Port SOLT,1,2)
!S2P File: Measurements: S11, S21, S12, S22:
# Hz S  dB   R 50
45000000 -2.716601e+001 -1.094119e+002 1.036688e-001 3.555414e+000 -1.690937e-001 -3.477269e-001 -3.112917e+001 1.475632e+001
48117968.75 -2.736638e+001 1.181086e+001 -1.907684e-001 3.100736e+000 6.125426e-002 -2.065103e-001 -2.243156e+001 1.039199e+001
51235937.5 -3.108494e+001 -4.694145e+000 3.585262e-002 1.660251e+000 -1.223529e-001 1.325136e+000 -2.576385e+001 2.243843e+001
54353906.25 -4.336063e+001 -1.369535e+002 1.127029e-001 3.767754e-001 8.980481e-002 1.006420e-001 -5.702230e+001 7.265335e+001
57471875 -4.230011e+001 1.287118e+002 -1.627267e-001 2.902100e+000 -1.444107e-001 -1.006253e+000 -2.915441e+001 -2.443331e+001
60589843.75 -3.806261e+001 2.769769e+001 -1.589269e-001 6.956984e-001 -5.699386e-002 7.412924e-001 -3.239416e+001 1.721378e+000
63707812.5 -4.161724e+001 7.285950e+001 -5.140305e-002 7.739921e-001 1.909841e-001 4.649059e-001 -3.510658e+001 -2.788941e+001
66825781.25 -4.262894e+001 -3.523060e+001 3.477176e-003 2.017177e+000 1.931066e-002 8.588361e-001 -4.044437e+001 -3.944021e+001
69943750 -3.992714e+001 -2.620422e+001 -2.551845e-003 2.061456e+000 9.612552e-002 7.865148e-001 -4.163750e+001 -1.574167e+002
73061718.75 -4.404692e+001 -6.804914e+000 -2.106364e-002 1.321996e+000 9.420186e-002 7.281814e-001 -3.868725e+001 6.743468e+001
76179687.5 -3.621686e+001 1.565975e+002 -8.035691e-002 1.670131e+000 7.868981e-002 9.299137e-001 -4.310212e+001 7.582627e+001
79297656.25 -3.859009e+001 1.679169e+002 5.250606e-002 9.812294e-001 8.618944e-002 1.058919e+000 -3.854980e+001 6.971375e+001
82415625 -4.106026e+001 -1.558829e+002 2.188964e-002 1.300453e+000 -3.150474e-002 1.654056e+000 -4.580369e+001 1.049451e+002
85533593.75 -4.540737e+001 1.059409e+002 1.897819e-002 2.431746e+000 -2.718008e-002 1.651521e+000 -4.741644e+001 1.253236e+002
88651562.5 -4.350905e+001 4.077768e+001 1.669450e-002 2.540797e+000 1.813419e-002 1.551266e+000 -4.327559e+001 1.208888e+002
91769531.25 -4.251682e+001 4.516125e+001 -3.943048e-002 2.061265e+000 6.636263e-002 2.287645e+000 -4.960577e+001 1.653610e+002
94887500 -3.844027e+001 1.992833e+001 4.446378e-002 2.640766e+000 8.435089e-002 1.994911e+000 -6.087384e+001 -6.571198e+001
98005468.75 -4.194203e+001 1.824011e+001 -7.438240e-002 2.317925e+000 1.190464e-001 1.781898e+000 -4.668966e+001 -6.253585e+001
101123437.5 -4.224582e+001 -3.332680e+001 -2.689777e-002 1.594600e+000 6.414963e-002 1.931295e+000 -4.506021e+001 1.520515e+001
104241406.25 -4.537628e+001 7.445448e+001 3.091482e-002 1.862175e+000 1.762206e-002 1.593635e+000 -4.402396e+001 -6.630186e+000
107359375 -4.789111e+001 1.047630e+002 3.120712e-002 2.094070e+000 1.835200e-002 1.734493e+000 -4.818414e+001 -1.515708e+001
110477343.75 -4.467384e+001 -7.644317e+001 -2.571034e-003 2.145314e+000 5.316145e-002 1.422858e+000 -4.447963e+001 -1.811507e+001
113595312.5 -5.671935e+001 6.714152e+001 8.308786e-003 1.827171e+000 4.776518e-003 1.594837e+000 -3.457687e+001 6.671100e+000
116713281.25 -5.737008e+001 7.910976e+001 4.838935e-002 1.936105e+000 2.484964e-002 1.663980e+000 -4.676607e+001 -1.632598e+002
119831250 -5.484666e+001 9.692857e+001 5.335141e-002 2.422976e+000 5.897487e-002 2.327101e+000 -4.908472e+001 -8.482497e+001
122949218.75 -4.333836e+001 5.013439e+001 6.079874e-002 2.301599e+000 5.160580e-002 1.994025e+000 -4.433638e+001 5.808378e+001
126067187.5 -4.836256e+001 -1.507856e+001 2.614421e-003 2.491504e+000 1.105623e-001 1.854657e+000 -4.578389e+001 -8.960689e+000
129185156.25 -4.793862e+001 5.663804e-001 3.690031e-002 2.288702e+000 5.398818e-002 2.262954e+000 -5.478737e+001 1.823214e+001
132303125 -4.867661e+001 8.007344e+001 4.855746e-002 2.483911e+000 3.100670e-002 2.300155e+000 -4.427845e+001 5.051432e+001
135421093.75 -4.749876e+001 6.523186e+001 5.557114e-002 2.309610e+000 -3.108403e-003 2.179099e+000 -4.354300e+001 2.105493e+001
138539062.5 -4.427577e+001 7.531654e+001 2.440792e-002 2.375436e+000 5.513782e-002 2.495502e+000 -4.391460e+001 7.663432e+000
141657031.25 -5.124498e+001 -2.950381e+001 4.301240e-002 2.438565e+000 5.292811e-002 2.401208e+000 -4.203624e+001 2.714141e+001
144775000 -5.626591e+001 1.361268e+002 3.200071e-002 2.936888e+000 5.637416e-002 2.527185e+000 -5.024993e+001 2.287396e+001
147892968.75 -5.750149e+001 6.720980e+001 4.585035e-002 2.578791e+000 5.255046e-002 2.424972e+000 -4.468216e+001 4.004515e+001
151010937.5 -4.677964e+001 9.812562e+001 4.889713e-002 2.514530e+000 7.481884e-002 2.700466e+000 -4.846132e+001 6.777917e+001
154128906.25 -5.444884e+001 6.917073e+000 3.769139e-002 2.914740e+000 3.958355e-002 2.517930e+000 -4.960893e+001 6.183284e+001
157246875 -4.935083e+001 1.017106e+002 2.921679e-002 2.833763e+000 1.848220e-002 2.739413e+000 -4.974366e+001 2.780359e+001
160364843.75 -5.103454e+001 1.190732e+002 -2.231214e-002 2.915108e+000 5.884006e-002 2.718432e+000 -5.652390e+001 -1.082642e+002
163482812.5 -4.900061e+001 1.115572e+002 9.520051e-003 2.711727e+000 4.977163e-002 2.611058e+000 -4.660835e+001 8.631522e+001
166600781.25 -4.656549e+001 9.515559e+001 7.011747e-003 3.084031e+000 2.300634e-002 2.606297e+000 -4.709470e+001 5.574816e+001
169718750 -5.765023e+001 1.490936e+002 2.157352e-002 3.267840e+000 4.185047e-002 2.793928e+000 -5.333400e+001 9.434678e+001
172836718.75 -5.307412e+001 1.240000e+002 3.100616e-002 3.213125e+000 8.046041e-002 2.892343e+000 -4.961910e+001 9.318595e+001
175954687.5 -5.301690e+001 6.337368e+001 5.361877e-002 2.880406e+000 7.585023e-002 2.887117e+000 -5.693423e+001 7.701829e+001
179072656.25 -5.528979e+001 1.248907e+002 2.177509e-002 3.430621e+000 8.766387e-002 2.907395e+000 -4.573153e+001 1.064514e+002
182190625 -5.324969e+001 1.332305e+002 -8.160764e-003 3.284102e+000 1.064947e-001 3.068803e+000 -4.046894e+001 3.942982e+001
185308593.75 -5.308799e+001 8.769588e+001 2.655401e-002 3.479087e+000 1.402853e-001 2.998000e+000 -4.174861e+001 3.967597e+001
188426562.5 -4.640724e+001 1.086152e+002 3.725144e-002 3.488959e+000 9.204562e-002 3.209768e+000 -5.915419e+001 1.298557e+002
191544531.25 -4.797515e+001 7.424762e+001 4.332189e-002 3.590778e+000 8.882640e-002 3.274363e+000 -4.924164e+001 8.159700e+001
194662500 -4.542682e+001 8.338333e+001 1.307949e-002 3.653091e+000 7.187822e-002 3.136839e+000 -4.961253e+001 8.682102e+001
197780468.75 -4.391761e+001 8.677271e+001 6.605788e-002 3.942940e+000 3.465277e-002 3.348703e+000 -4.487722e+001 1.220588e+002
200898437.5 -4.615218e+001 1.011386e+002 5.054162e-002 3.929049e+000 5.579392e-002 3.342787e+000 -4.895337e+001 1.241403e+002
204016406.25 -4.685869e+001 6.665834e+001 2.203298e-002 3.851405e+000 1.354602e-002 3.532439e+000 -4.542677e+001 1.298290e+002
207134375 -4.547895e+001 6.954813e+001 2.902620e-002 3.654685e+000 5.307336e-002 3.281633e+000 -4.630745e+001 1.085468e+002
210252343.75 -4.761696e+001 6.091924e+001 3.688202e-002 3.789964e+000 8.832152e-002 3.487956e+000 -4.596335e+001 1.208208e+002
213370312.5 -4.879021e+001 4.520370e+001 4.971064e-002 3.732426e+000 6.304381e-002 3.692759e+000 -4.584983e+001 1.525647e+002
216488281.25 -5.667627e+001 6.735066e+001 5.199896e-002 3.829545e+000 4.087025e-002 4.116219e+000 -4.713422e+001 1.460437e+002
219606250 -5.417333e+001 6.026452e+001 4.961123e-002 4.013904e+000 4.869984e-002 3.644836e+000 -4.638033e+001 1.556193e+002
222724218.75 -4.755745e+001 1.089085e+002 6.287833e-002 4.134035e+000 7.248785e-002 3.735230e+000 -4.349618e+001 1.421310e+002
225842187.5 -5.587906e+001 6.151851e+001 1.370210e-002 4.285330e+000 6.294587e-002 3.397886e+000 -4.368415e+001 1.748629e+002
228960156.25 -5.909903e+001 1.501919e+002 8.029339e-002 4.365010e+000 6.715650e-002 3.811603e+000 -4.866666e+001 1.608702e+002
232078125 -5.731005e+001 1.707245e+001 5.808628e-002 4.591295e+000 6.990287e-002 3.755693e+000 -4.708888e+001 1.576826e+002
235196093.75 -5.223948e+001 6.344915e+001 3.132319e-002 4.474953e+000 9.010793e-002 3.375808e+000 -4.318569e+001 1.537882e+002
238314062.5 -4.753811e+001 7.359589e+001 6.650148e-002 4.514653e+000 9.609542e-002 3.630915e+000 -4.423697e+001 1.491893e+002
241432031.25 -6.780867e+001 8.015797e+001 9.558737e-002 4.451977e+000 -2.432017e-002 4.304910e+000 -4.488663e+001 1.613474e+002
244550000 -5.998601e+001 4.459711e+001 4.505788e-002 4.951396e+000 1.085088e-002 4.958498e+000 -4.507367e+001 1.763229e+002
247667968.75 -6.654055e+001 -6.659286e+001 2.353000e-002 4.765044e+000 9.514500e-002 4.265516e+000 -4.404180e+001 1.544351e+002
250785937.5 -5.542070e+001 5.738041e+001 -1.104441e-001 5.623494e+000 1.641080e-001 3.383452e+000 -4.902796e+001 1.534395e+002
253903906.25 -5.592203e+001 5.523808e+001 4.655336e-002 5.583274e+000 1.221121e-001 3.351067e+000 -5.467324e+001 1.615858e+002
257021875 -5.699014e+001 7.037468e+001 1.481995e-001 4.214347e+000 3.808645e-002 3.695758e+000 -4.651958e+001 -1.551027e+002
260139843.75 -5.685668e+001 1.114523e+002 1.521835e-001 3.886855e+000 7.819553e-002 4.006996e+000 -5.178756e+001 -1.696976e+002
263257812.5 -4.932466e+001 -7.219028e+001 1.082198e-001 4.498128e+000 -3.324720e-002 4.360566e+000 -4.897244e+001 -9.938240e+001
266375781.25 -6.523099e+001 1.708416e+002 5.537681e-003 3.522395e+000 -5.546253e-002 5.614368e+000 -4.808584e+001 -1.255059e+002
269493750 -5.176109e+001 -1.052424e+002 2.953547e-002 4.181894e+000 -2.963479e-002 5.466455e+000 -5.811906e+001 -1.267060e+002
272611718.75 -5.541356e+001 -5.059505e+001 -2.346878e-002 4.621362e+000 1.194932e-002 5.386110e+000 -5.603474e+001 1.685742e+002
275729687.5 -5.936558e+001 -1.359688e+002 -5.155355e-002 4.995039e+000 7.012063e-002 5.441460e+000 -5.488377e+001 -1.009201e+002
278847656.25 -6.058646e+001 -1.037880e+002 2.710680e-002 5.083251e+000 9.934364e-002 4.622489e+000 -4.870665e+001 -7.709768e+001
281965625 -5.057348e+001 -4.597788e+001 -1.633214e-003 5.432597e+000 8.661457e-002 4.679094e+000 -6.747769e+001 1.563090e+002
285083593.75 -5.915350e+001 -8.465817e+001 3.670519e-003 5.289505e+000 1.009239e-001 4.831945e+000 -5.944659e+001 -1.043578e+001
288201562.5 -5.283571e+001 -1.370090e+002 2.191938e-002 5.271302e+000 6.360360e-002 4.774075e+000 -5.478057e+001 6.354770e+000
291319531.25 -5.179486e+001 -1.151828e+002 1.954633e-002 5.367700e+000 8.160425e-002 4.911425e+000 -5.715280e+001 -9.204068e+000
294437500 -5.497669e+001 -9.233624e+001 3.960256e-002 5.307631e+000 1.023326e-001 4.885556e+000 -5.445401e+001 -2.855482e+001
297555468.75 -5.195932e+001 -1.379298e+002 4.219142e-002 5.462711e+000 6.686154e-002 4.984225e+000 -5.811064e+001 7.698853e+000
300673437.5 -6.276728e+001 -5.787012e+001 5.256277e-002 5.473571e+000 6.675762e-002 5.069410e+000 -5.144630e+001 2.040905e+001
303791406.25 -6.487886e+001 6.347125e+001 3.849316e-002 5.504977e+000 4.384942e-002 5.286842e+000 -5.026939e+001 3.578196e+001
306909375 -7.460369e+001 -9.957762e+001 2.292689e-002 5.548183e+000 5.137581e-002 5.340777e+000 -4.844915e+001 3.951413e+001
310027343.75 -6.421933e+001 -1.370727e+002 2.554848e-002 5.730795e+000 5.800510e-002 5.631655e+000 -5.168347e+001 1.869129e+000
313145312.5 -5.768304e+001 1.032957e+002 2.305536e-002 5.755949e+000 6.441935e-002 5.523635e+000 -4.819703e+001 1.687571e+001
316263281.25 -5.706293e+001 9.451474e+001 3.738426e-002 5.719911e+000 5.259743e-002 5.382607e+000 -4.757582e+001 4.412654e+001
319381250 -5.454542e+001 9.008372e+001 3.378842e-002 5.745272e+000 5.628761e-002 5.518524e+000 -4.659078e+001 3.420724e+001
322499218.75 -5.111849e+001 8.257186e+001 2.201852e-002 5.820940e+000 6.260878e-002 5.540639e+000 -4.552828e+001 3.319186e+001
325617187.5 -4.903980e+001 1.029514e+002 4.022884e-002 6.066758e+000 7.805468e-002 5.562630e+000 -4.717003e+001 3.207738e+001
328735156.25 -5.061203e+001 1.069228e+002 3.830115e-002 6.014372e+000 7.065243e-002 5.559525e+000 -4.415564e+001 4.292329e+001
331853125 -4.799422e+001 1.189694e+002 5.246578e-002 6.144554e+000 6.895256e-002 5.499458e+000 -4.342205e+001 4.650591e+001
334971093.75 -4.594365e+001 9.892068e+001 4.936554e-002 6.351794e+000 7.091881e-002 5.751202e+000 -4.295871e+001 4.541061e+001
338089062.5 -4.494975e+001 8.603664e+001 5.712795e-002 6.142086e+000 7.591905e-002 5.997858e+000 -4.425385e+001 4.340195e+001
341207031.25 -4.664092e+001 8.282885e+001 7.985345e-002 6.364547e+000 9.646761e-002 6.005059e+000 -4.328476e+001 3.877061e+001
344325000 -4.472450e+001 9.195482e+001 6.968369e-002 6.347806e+000 9.304408e-002 6.069866e+000 -4.319950e+001 3.466932e+001
347442968.75 -4.624791e+001 9.476944e+001 7.068493e-002 6.287398e+000 9.899367e-002 5.856091e+000 -4.287969e+001 4.186502e+001
350560937.5 -4.596139e+001 9.437845e+001 2.638248e-002 6.278055e+000 7.842309e-002 5.988754e+000 -4.279897e+001 4.598847e+001
353678906.25 -4.528971e+001 9.256916e+001 5.986119e-002 6.286544e+000 1.004198e-001 6.235708e+000 -4.242561e+001 5.918480e+001
356796875 -4.420214e+001 9.372049e+001 6.718337e-002 6.502314e+000 9.564165e-002 6.489276e+000 -4.343173e+001 5.602705e+001
359914843.75 -4.305750e+001 8.857240e+001 3.786160e-002 6.614182e+000 5.747441e-002 6.372109e+000 -4.275370e+001 5.972822e+001
363032812.5 -4.499829e+001 8.675863e+001 3.295914e-002 6.622543e+000 5.470519e-002 6.391641e+000 -4.322699e+001 7.407074e+001
366150781.25 -4.529824e+001 8.896265e+001 4.752810e-002 6.914519e+000 5.181778e-002 6.236981e+000 -4.255982e+001 8.176406e+001
369268750 -4.609684e+001 8.522153e+001 1.605491e-002 6.892024e+000 4.508372e-002 6.410315e+000 -4.209961e+001 7.950448e+001
372386718.75 -4.510354e+001 8.266908e+001 7.496817e-002 6.728457e+000 1.044298e-001 6.439025e+000 -4.422419e+001 7.920721e+001
375504687.5 -4.469501e+001 8.066171e+001 2.997217e-002 6.734715e+000 1.050112e-001 6.491150e+000 -4.273490e+001 8.026215e+001
378622656.25 -4.307436e+001 8.213638e+001 6.884903e-002 6.731707e+000 8.265261e-002 6.556057e+000 -4.183324e+001 8.852647e+001
381740625 -4.339045e+001 8.665615e+001 3.603848e-002 6.795426e+000 5.673638e-002 6.714681e+000 -4.248571e+001 9.867381e+001
384858593.75 -4.376985e+001 7.440097e+001 3.193914e-002 6.867361e+000 9.482824e-002 6.593465e+000 -4.219654e+001 1.030283e+002
387976562.5 -4.266907e+001 7.819888e+001 5.227418e-002 6.952202e+000 9.675504e-002 6.576092e+000 -4.191557e+001 1.041548e+002
391094531.25 -4.314092e+001 7.790694e+001 2.556178e-002 6.940999e+000 8.301422e-002 6.760005e+000 -4.187525e+001 1.006187e+002
394212500 -4.255597e+001 7.963741e+001 3.853983e-002 7.180966e+000 8.215107e-002 6.837691e+000 -4.198120e+001 1.077921e+002
397330468.75 -4.284135e+001 7.050665e+001 7.015574e-002 7.032529e+000 9.353080e-002 6.816032e+000 -4.113185e+001 1.129435e+002
400448437.5 -4.324900e+001 6.856822e+001 4.628241e-002 7.191271e+000 5.969123e-002 7.015662e+000 -3.941197e+001 1.091437e+002
403566406.25 -4.317756e+001 6.712672e+001 5.912950e-002 7.340027e+000 7.627686e-002 6.957410e+000 -3.996283e+001 1.034998e+002
406684375 -4.358065e+001 7.479296e+001 4.993552e-002 7.241617e+000 6.581847e-002 7.143527e+000 -4.023077e+001 1.173180e+002
409802343.75 -4.372213e+001 7.493983e+001 7.687369e-002 7.423757e+000 1.025966e-001 6.918680e+000 -4.126532e+001 1.257898e+002
412920312.5 -4.379222e+001 6.962150e+001 7.304900e-002 7.370383e+000 7.558021e-002 7.054021e+000 -4.171052e+001 1.265227e+002
416038281.25 -4.314954e+001 5.587582e+001 5.389750e-002 7.513132e+000 1.053798e-001 7.156794e+000 -4.215527e+001 1.334714e+002
419156250 -4.372997e+001 5.041799e+001 2.238067e-002 7.520936e+000 9.624627e-002 7.061420e+000 -4.213064e+001 1.340685e+002
422274218.75 -4.437821e+001 4.881311e+001 2.799054e-002 7.410580e+000 7.249714e-002 7.232611e+000 -4.261989e+001 1.399982e+002
425392187.5 -4.445803e+001 3.893991e+001 -4.094618e-003 7.652305e+000 4.924357e-002 7.582617e+000 -4.344040e+001 1.442038e+002
428510156.25 -4.590229e+001 3.744836e+001 5.418172e-002 7.708210e+000 6.549604e-002 7.664124e+000 -4.325073e+001 1.474406e+002
431628125 -4.659942e+001 3.900640e+001 5.654343e-002 7.503634e+000 8.459777e-002 7.588685e+000 -4.303798e+001 1.541402e+002
434746093.75 -4.669004e+001 2.154629e+001 5.548779e-002 7.785138e+000 7.261276e-002 7.687711e+000 -4.267079e+001 1.515836e+002
437864062.5 -4.726725e+001 2.871507e+001 6.550108e-002 7.845428e+000 8.426394e-002 7.670927e+000 -4.293901e+001 1.600595e+002
440982031.25 -4.779508e+001 2.603335e+001 5.186025e-002 7.947624e+000 5.968352e-002 7.741447e+000 -4.325011e+001 1.648381e+002
444100000 -4.682219e+001 2.233448e+001 6.882775e-002 8.191023e+000 4.831449e-002 7.646541e+000 -4.237045e+001 1.676847e+002
447217968.75 -5.177148e+001 2.909758e+001 4.231463e-002 8.000149e+000 6.009242e-002 7.689687e+000 -4.434932e+001 1.721044e+002
450335937.5 -5.470146e+001 5.345691e+000 3.828239e-002 8.261453e+000 6.028925e-002 7.735034e+000 -4.397523e+001 1.752081e+002
453453906.25 -5.462511e+001 3.548468e+000 5.993202e-002 8.074825e+000 6.534289e-002 7.896122e+000 -4.677957e+001 -1.748812e+002
456571875 -5.122930e+001 4.512396e+000 6.386730e-002 7.874593e+000 7.170250e-002 7.627344e+000 -4.654283e+001 -1.714335e+002
459689843.75 -5.300287e+001 -1.158300e+001 6.833316e-002 8.083732e+000 7.504840e-002 7.994405e+000 -4.708307e+001 -1.714951e+002
462807812.5 -5.254585e+001 -3.554345e+001 4.082038e-002 8.153126e+000 8.060337e-002 7.964720e+000 -4.671438e+001 -1.716535e+002
465925781.25 -5.653607e+001 -5.198724e+001 1.998965e-002 8.298028e+000 8.800019e-002 8.168833e+000 -4.916562e+001 -1.621730e+002
469043750 -5.642577e+001 -1.014002e+002 7.572240e-002 8.336905e+000 8.806098e-002 8.053136e+000 -4.783511e+001 -1.628509e+002
472161718.75 -5.670194e+001 -7.920155e+001 8.776321e-002 8.247881e+000 9.167220e-002 8.280792e+000 -4.923906e+001 -1.680807e+002
475279687.5 -6.251073e+001 -1.131735e+002 8.080257e-002 8.356059e+000 8.922524e-002 8.340727e+000 -5.041696e+001 -1.634709e+002
478397656.25 -5.897093e+001 -1.416417e+002 4.289800e-002 8.620950e+000 7.334954e-002 8.368750e+000 -5.188696e+001 -1.618199e+002
481515625 -6.789596e+001 -1.460265e+002 5.500416e-002 8.643494e+000 9.399355e-002 8.257038e+000 -5.228042e+001 -1.557084e+002
484633593.75 -6.092945e+001 -1.764599e+002 4.904844e-002 8.782292e+000 1.062412e-001 8.232646e+000 -5.874259e+001 -1.166914e+002
487751562.5 -6.053017e+001 -1.760085e+002 2.819363e-002 8.818377e+000 8.716588e-002 8.250229e+000 -5.686181e+001 -9.824499e+001
490869531.25 -5.523645e+001 1.678349e+002 2.477809e-002 8.870156e+000 1.201661e-001 8.479129e+000 -6.032736e+001 -8.960862e+001
493987500 -5.366076e+001 1.714633e+002 5.527947e-002 8.855713e+000 8.179608e-002 8.419017e+000 -6.552708e+001 -2.538325e+001
497105468.75 -5.230440e+001 1.329534e+002 2.211591e-002 8.797214e+000 8.796217e-002 8.586442e+000 -5.647507e+001 4.414331e+001
500223437.5 -5.000010e+001 1.383846e+002 2.076138e-002 8.984609e+000 8.084565e-002 8.522558e+000 -5.233461e+001 2.870670e+001
503341406.25 -5.075325e+001 1.334173e+002 6.401752e-002 9.000615e+000 7.885899e-002 8.515385e+000 -4.875713e+001 3.397453e+001
506459375 -4.933822e+001 1.404696e+002 5.384111e-002 9.037672e+000 8.994091e-002 8.623875e+000 -4.793284e+001 2.357615e+001
509577343.75 -5.029600e+001 1.264727e+002 3.865779e-002 9.111163e+000 1.131542e-001 8.646817e+000 -4.545483e+001 2.508502e+001
512695312.5 -4.999070e+001 1.332834e+002 2.864201e-002 9.387068e+000 1.024926e-001 8.929910e+000 -4.401646e+001 2.601433e+001
515813281.25 -4.794114e+001 1.236237e+002 2.361021e-002 9.266464e+000 1.032519e-001 8.930847e+000 -4.437089e+001 3.552798e+001
518931250 -4.678306e+001 1.153207e+002 5.244192e-002 9.401112e+000 7.712369e-002 9.012971e+000 -4.405742e+001 3.058649e+001
522049218.75 -4.669983e+001 1.051627e+002 6.391398e-002 9.427105e+000 7.853761e-002 9.031544e+000 -4.330041e+001 3.457220e+001
