!Agilent Technologies,E8364A,US41440322,A.04.87.01
!Agilent E8364A: A.04.87.01
!Date: Tuesday, July 16, 2024 13:06:47
!Correction: S11(Full 2 Port SOLT,1,2) S21(Full 2 Port SOLT,1,2) S12(Full 2 Port SOLT,1,2) S22(Full 2 Port SOLT,1,2)
!S2P File: Measurements: S11, S21, S12, S22:
# Hz S  dB   R 50
45000000 -2.835463e+001 4.019806e+001 -3.035873e+001 1.027455e+002 -4.046227e+001 5.407811e+001 -7.530315e-002 1.247764e+002
48117968.75 -3.128793e+001 -5.822615e+001 -4.276426e+001 8.875800e+001 -3.115645e+001 1.740916e+002 -8.722989e-002 1.093001e+002
51235937.5 -2.970486e+001 -5.934234e+001 -3.456606e+001 1.519314e+002 -3.831999e+001 -1.117871e+000 1.834916e-001 9.161456e+001
54353906.25 -4.575317e+001 -5.844770e+001 -4.128268e+001 -7.896796e+001 -4.364919e+001 1.460674e+002 -5.812843e-001 7.796945e+001
57471875 -3.934916e+001 -1.379065e+002 -3.191506e+001 1.461099e+002 -3.912210e+001 -5.619584e+001 -4.024687e-001 5.960286e+001
60589843.75 -3.117751e+001 -1.077713e+002 -3.938090e+001 1.774466e+002 -4.000336e+001 9.171107e+001 -2.572439e-001 4.242630e+001
63707812.5 -4.038887e+001 -7.974838e+001 -3.387194e+001 1.621756e+002 -4.506321e+001 1.124672e+002 -2.407563e-001 2.756389e+001
66825781.25 -4.802757e+001 -1.750877e+002 -4.118908e+001 8.103422e+000 -3.900605e+001 9.247372e+001 -1.971943e-001 1.132517e+001
69943750 -3.513258e+001 -1.003565e+002 -4.474944e+001 -7.383737e+001 -4.695210e+001 -1.674249e+002 -3.246702e-001 -4.660339e+000
73061718.75 -3.542304e+001 4.276965e+001 -4.483842e+001 -1.120774e+002 -4.438287e+001 1.774965e+002 -4.782605e-001 -1.999748e+001
76179687.5 -4.189004e+001 1.028106e+002 -3.910526e+001 -1.300591e+002 -4.028974e+001 1.137785e+002 -4.581057e-001 -3.553825e+001
79297656.25 -3.840441e+001 4.207241e+001 -3.812857e+001 9.660822e+001 -4.790999e+001 -1.368511e+001 -3.091102e-001 -5.146128e+001
82415625 -3.765642e+001 5.558743e+001 -4.064865e+001 -1.438270e+002 -4.444388e+001 1.190349e+002 -2.976020e-001 -6.805738e+001
85533593.75 -3.102863e+001 1.329355e+001 -5.721038e+001 -1.773120e+001 -5.444734e+001 8.884947e+001 -3.149642e-001 -8.418087e+001
88651562.5 -3.275543e+001 5.014753e-001 -4.204942e+001 -1.359257e+002 -5.840266e+001 1.475544e+002 -3.189836e-001 -1.005940e+002
91769531.25 -3.380050e+001 4.138578e+000 -5.672391e+001 1.139085e+002 -4.460265e+001 -6.490912e+001 -3.479070e-001 -1.170288e+002
94887500 -3.237471e+001 1.076773e+001 -6.765491e+001 -1.613474e+002 -4.411084e+001 1.525411e+002 -3.283891e-001 -1.324922e+002
98005468.75 -3.347265e+001 8.398032e+000 -5.633766e+001 4.393264e+001 -4.434929e+001 1.544140e+002 -3.531610e-001 -1.487043e+002
101123437.5 -3.321893e+001 -9.395339e+000 -4.521136e+001 3.829604e+001 -5.682822e+001 -1.120356e+002 -4.045425e-001 -1.650044e+002
104241406.25 -3.453394e+001 -9.064761e+000 -5.230554e+001 -1.011398e+002 -5.560013e+001 1.742872e+002 -3.653495e-001 1.780667e+002
107359375 -3.667737e+001 -1.609884e+001 -5.108622e+001 3.205667e+001 -6.155728e+001 -7.807940e+001 -4.757541e-001 1.617587e+002
110477343.75 -3.696125e+001 -2.684469e+001 -4.414901e+001 -1.531366e+002 -5.500872e+001 1.405701e+002 -4.320946e-001 1.452067e+002
113595312.5 -3.699088e+001 -3.855141e+001 -4.997123e+001 5.069042e+001 -4.848764e+001 6.721379e+001 -4.270197e-001 1.289016e+002
116713281.25 -3.513237e+001 -4.918539e+001 -5.239912e+001 1.454793e+002 -5.449722e+001 4.443671e+001 -4.034735e-001 1.122309e+002
119831250 -3.911800e+001 -4.122441e+001 -4.492117e+001 -3.152227e+001 -5.310509e+001 -1.057384e+002 -4.353032e-001 9.662403e+001
122949218.75 -4.165905e+001 -4.533245e+001 -5.102041e+001 -3.717025e+001 -5.486049e+001 1.400016e+002 -4.141978e-001 8.100577e+001
126067187.5 -4.176354e+001 -4.658067e+001 -5.253028e+001 7.377810e+001 -4.835002e+001 -8.453707e+001 -4.373757e-001 6.485084e+001
129185156.25 -4.082310e+001 -4.295219e+001 -5.430719e+001 -2.602051e+001 -5.026791e+001 1.424455e+002 -4.588739e-001 4.817847e+001
132303125 -4.595541e+001 -2.224025e+001 -4.279911e+001 8.924599e+001 -5.582153e+001 2.214836e+001 -4.521365e-001 3.283131e+001
135421093.75 -4.178748e+001 1.553936e+001 -4.703131e+001 7.864106e+001 -5.882898e+001 7.836462e+001 -4.529151e-001 1.656545e+001
138539062.5 -4.432588e+001 -3.130047e+000 -5.317491e+001 7.934702e+001 -5.931779e+001 -5.284097e+001 -4.996497e-001 1.129945e+000
141657031.25 -4.154992e+001 1.683602e+000 -5.700201e+001 -1.132552e+002 -5.669938e+001 6.176704e+001 -4.494243e-001 -1.518821e+001
144775000 -3.910935e+001 7.677137e+000 -5.301569e+001 -7.595192e+001 -5.193144e+001 4.664536e+001 -4.791853e-001 -3.120517e+001
147892968.75 -3.933333e+001 3.535970e+001 -4.927628e+001 -3.514656e+001 -4.990621e+001 -1.722003e+002 -4.046274e-001 -4.722994e+001
151010937.5 -3.707286e+001 3.017474e+001 -5.411345e+001 1.452605e+002 -6.666320e+001 6.089704e+001 -3.846945e-001 -6.314370e+001
154128906.25 -3.559496e+001 1.256129e+001 -5.047475e+001 -5.337152e+000 -5.496833e+001 8.349580e+001 -4.156765e-001 -7.926301e+001
157246875 -3.685237e+001 2.101496e+001 -5.987949e+001 -1.532278e+002 -5.794325e+001 -1.228057e+001 -4.250263e-001 -9.526948e+001
160364843.75 -3.486744e+001 1.323128e+001 -5.516243e+001 7.972808e+001 -5.963252e+001 1.795146e+002 -4.951783e-001 -1.115322e+002
163482812.5 -3.492050e+001 -1.436874e+000 -7.675755e+001 -7.377795e+001 -4.969675e+001 -8.989220e+001 -4.950431e-001 -1.280798e+002
166600781.25 -3.428893e+001 -3.509506e+000 -4.967398e+001 8.238891e+001 -5.695033e+001 -9.372927e+001 -5.107576e-001 -1.442534e+002
169718750 -3.572412e+001 -6.722398e+000 -5.235662e+001 -1.211838e+002 -6.877371e+001 -1.725524e+002 -4.965507e-001 -1.609931e+002
172836718.75 -3.492004e+001 -1.200338e-001 -8.157616e+001 6.586942e+001 -5.519887e+001 5.108655e+001 -5.178944e-001 -1.776918e+002
175954687.5 -3.468859e+001 -1.121470e+001 -5.483845e+001 -3.255511e+001 -6.431104e+001 1.419888e+002 -4.646827e-001 1.658681e+002
179072656.25 -3.523521e+001 -2.166642e+001 -5.163749e+001 1.742046e+002 -7.419436e+001 -1.600609e+002 -4.725735e-001 1.497706e+002
182190625 -3.727889e+001 -1.520999e+001 -5.414775e+001 -8.930872e+001 -6.323543e+001 1.491489e+002 -4.826924e-001 1.333039e+002
185308593.75 -3.725799e+001 -2.599645e+001 -5.234757e+001 -1.284472e+001 -6.647689e+001 1.197747e+002 -4.780077e-001 1.170557e+002
188426562.5 -4.048037e+001 -3.901389e+001 -5.079948e+001 -6.255117e+000 -5.691103e+001 1.252317e+002 -4.869009e-001 1.012271e+002
191544531.25 -4.371166e+001 -5.178321e+001 -7.587438e+001 -1.191470e+002 -6.579031e+001 -5.408479e+001 -4.917147e-001 8.510099e+001
194662500 -4.480846e+001 -2.964949e+001 -5.905858e+001 -1.618334e+002 -6.569207e+001 1.691036e+002 -4.562556e-001 6.897704e+001
197780468.75 -4.801632e+001 -2.356288e+001 -6.008312e+001 -1.279459e+002 -5.680196e+001 -8.463366e+001 -5.352917e-001 5.334657e+001
200898437.5 -5.922605e+001 1.814198e+001 -5.792899e+001 1.384499e+002 -5.396176e+001 8.411027e+001 -4.550728e-001 3.756612e+001
204016406.25 -4.873575e+001 4.852676e+001 -5.592445e+001 6.050096e+001 -6.061322e+001 -5.400537e+001 -5.261250e-001 2.136882e+001
207134375 -4.558856e+001 4.421548e+001 -6.086042e+001 7.143387e+001 -7.044341e+001 4.905518e+001 -5.630193e-001 5.495333e+000
210252343.75 -4.258855e+001 4.957967e+001 -6.540862e+001 -5.991615e+001 -6.131429e+001 -1.638728e+002 -5.555995e-001 -1.022196e+001
213370312.5 -4.004779e+001 4.011455e+001 -6.658741e+001 1.052903e+002 -6.356748e+001 -5.798235e+001 -5.486557e-001 -2.643125e+001
216488281.25 -4.019683e+001 3.293156e+001 -5.268986e+001 -1.536054e+002 -7.268005e+001 -9.096481e+001 -5.441794e-001 -4.233933e+001
219606250 -3.944306e+001 3.467944e+001 -5.488921e+001 1.315029e+002 -5.991330e+001 -1.740850e+002 -5.416623e-001 -5.859740e+001
222724218.75 -3.686931e+001 2.739875e+001 -5.635105e+001 3.789363e+001 -6.037639e+001 6.002728e+001 -5.482385e-001 -7.492323e+001
225842187.5 -3.624232e+001 2.962855e+001 -6.228476e+001 -1.787361e+002 -5.826109e+001 2.148931e+001 -6.114177e-001 -9.111290e+001
228960156.25 -3.588876e+001 1.995649e+001 -5.236248e+001 -1.037383e+002 -7.728274e+001 -4.636101e+001 -5.403365e-001 -1.072065e+002
232078125 -3.684167e+001 1.207055e+001 -5.485456e+001 1.546054e+002 -6.044283e+001 1.734810e+002 -5.114334e-001 -1.237160e+002
235196093.75 -3.576883e+001 9.438865e+000 -5.898028e+001 1.355064e+001 -5.581451e+001 -9.500834e+001 -5.392840e-001 -1.398479e+002
238314062.5 -3.637714e+001 1.166911e-001 -7.034019e+001 -2.168574e+001 -6.081506e+001 9.575082e+001 -5.104606e-001 -1.561639e+002
241432031.25 -3.576881e+001 -1.806446e+000 -5.815956e+001 1.154192e+002 -6.182122e+001 1.333927e+002 -5.022900e-001 -1.727303e+002
244550000 -3.497755e+001 -1.196136e+001 -5.645707e+001 -1.011962e+002 -5.782783e+001 -7.695662e+001 -5.383040e-001 1.709539e+002
247667968.75 -3.584012e+001 -2.160558e+001 -5.602890e+001 1.229390e+002 -7.890090e+001 6.945036e+001 -5.856520e-001 1.548486e+002
250785937.5 -3.711877e+001 -2.368968e+001 -5.826392e+001 1.102412e+002 -7.376041e+001 -6.589777e+000 -6.489176e-001 1.385631e+002
253903906.25 -3.894432e+001 -3.039204e+001 -5.581630e+001 -1.357085e+002 -6.230685e+001 -1.655006e+002 -6.294429e-001 1.223000e+002
257021875 -4.004613e+001 -2.745726e+001 -5.490309e+001 -8.069736e+001 -5.880753e+001 -7.337885e+001 -5.912809e-001 1.054131e+002
260139843.75 -4.085229e+001 -5.494315e+001 -5.924704e+001 -1.318396e+002 -7.727351e+001 -2.400494e+001 -6.126519e-001 8.914082e+001
263257812.5 -4.115267e+001 -5.511158e+001 -5.936481e+001 1.016059e+002 -6.471684e+001 -2.191163e+001 -6.739215e-001 7.363510e+001
266375781.25 -4.394322e+001 -6.156271e+001 -6.106020e+001 -1.400107e+002 -6.282184e+001 -1.660833e+002 -8.437595e-001 5.839787e+001
269493750 -4.761434e+001 -3.676689e+001 -5.327949e+001 -6.822905e+001 -5.627810e+001 5.105133e+001 -8.427054e-001 4.225568e+001
272611718.75 -5.086100e+001 -3.166508e+001 -5.322359e+001 -7.087569e+001 -5.377469e+001 9.497447e+001 -7.597178e-001 2.634599e+001
275729687.5 -5.162583e+001 7.014187e+001 -5.431622e+001 5.816534e+001 -6.057660e+001 1.700215e+002 -6.316886e-001 1.022222e+001
278847656.25 -4.578867e+001 3.868877e+001 -5.843188e+001 -3.172435e+001 -5.433980e+001 6.421784e+001 -6.002963e-001 -6.036122e+000
281965625 -4.172580e+001 4.724717e+001 -5.824337e+001 6.688809e+001 -6.216093e+001 -3.751721e+001 -5.604767e-001 -2.234555e+001
285083593.75 -3.908031e+001 3.895013e+001 -5.697331e+001 6.756003e+001 -6.203513e+001 1.755420e+002 -5.921192e-001 -3.826831e+001
288201562.5 -3.796438e+001 4.779719e+001 -5.766452e+001 1.100480e+002 -5.723567e+001 1.790836e+002 -6.525033e-001 -5.404534e+001
291319531.25 -3.808711e+001 3.811833e+001 -5.784148e+001 2.183363e+001 -6.380039e+001 -1.423591e+002 -6.586109e-001 -7.025127e+001
294437500 -3.611756e+001 3.046070e+001 -6.275440e+001 -3.877655e+001 -6.169954e+001 1.364147e+002 -6.560228e-001 -8.604586e+001
297555468.75 -3.601448e+001 2.209290e+001 -7.094622e+001 5.469043e+001 -8.148653e+001 -3.089146e+001 -6.276944e-001 -1.020310e+002
300673437.5 -3.623705e+001 1.338275e+001 -5.789561e+001 1.115956e+002 -6.664654e+001 -4.613613e+001 -6.514198e-001 -1.180454e+002
303791406.25 -3.595081e+001 1.036791e+001 -6.516628e+001 -4.686643e+000 -7.601367e+001 9.279555e+001 -7.016103e-001 -1.341241e+002
306909375 -3.584351e+001 4.605649e+000 -7.323827e+001 -8.225619e+001 -7.012794e+001 -4.279578e+001 -7.385197e-001 -1.506358e+002
310027343.75 -3.622510e+001 4.254966e+000 -5.797640e+001 -1.085155e+002 -7.048315e+001 1.123664e+002 -7.536694e-001 -1.670865e+002
313145312.5 -3.597459e+001 -2.884160e+000 -6.858605e+001 3.739837e+001 -6.901236e+001 3.077766e+001 -7.419763e-001 1.763247e+002
316263281.25 -3.614754e+001 -1.160548e+001 -6.366947e+001 -3.026382e+001 -6.141574e+001 -9.671621e+001 -7.861341e-001 1.599680e+002
319381250 -3.703665e+001 -1.822828e+001 -5.950351e+001 -3.503864e+001 -5.862553e+001 9.762992e+001 -7.585768e-001 1.432727e+002
322499218.75 -3.733999e+001 -2.112235e+001 -6.812648e+001 1.187921e+002 -5.836886e+001 -1.640068e+002 -7.329230e-001 1.266728e+002
325617187.5 -3.839442e+001 -2.550374e+001 -5.725127e+001 -1.011391e+002 -6.454908e+001 1.062459e+002 -7.591258e-001 1.101970e+002
328735156.25 -3.910451e+001 -2.912204e+001 -6.288205e+001 4.081330e+000 -6.075525e+001 -4.098298e+001 -7.189445e-001 9.402180e+001
331853125 -4.060496e+001 -4.116633e+001 -6.279074e+001 6.595718e+001 -6.720686e+001 -9.438081e+001 -7.014061e-001 7.800973e+001
334971093.75 -4.245028e+001 -2.927225e+001 -6.404501e+001 -3.649981e+001 -8.089114e+001 -5.121926e+001 -6.950874e-001 6.211235e+001
338089062.5 -4.573607e+001 -2.210883e+001 -6.289892e+001 1.020435e+002 -7.211201e+001 -4.101596e+001 -6.958630e-001 4.615031e+001
341207031.25 -4.949434e+001 1.493939e+001 -5.643226e+001 2.418926e+000 -5.960099e+001 1.331145e+001 -6.844743e-001 3.039430e+001
344325000 -4.828426e+001 2.606637e+001 -7.959488e+001 6.191800e+001 -7.152637e+001 -1.387295e+002 -7.000075e-001 1.468949e+001
347442968.75 -4.506349e+001 4.779086e+001 -7.331889e+001 1.718052e+002 -6.239944e+001 -9.939225e+001 -7.242690e-001 -8.294407e-001
350560937.5 -4.323539e+001 4.534042e+001 -7.358069e+001 1.209528e+002 -6.446059e+001 -1.705635e+002 -7.496236e-001 -1.680290e+001
353678906.25 -4.026979e+001 4.738286e+001 -6.428557e+001 -1.268715e+002 -6.883826e+001 -3.619616e+001 -7.480148e-001 -3.239838e+001
356796875 -4.014165e+001 4.761335e+001 -7.073611e+001 -1.073441e+002 -5.736015e+001 -4.100103e+001 -7.300825e-001 -4.847552e+001
359914843.75 -3.839292e+001 3.770232e+001 -6.189143e+001 4.669344e+001 -6.290632e+001 -6.187539e+001 -7.767495e-001 -6.448038e+001
363032812.5 -3.815940e+001 3.186135e+001 -7.054482e+001 1.170431e+002 -5.713058e+001 -1.218621e+002 -7.531581e-001 -8.079477e+001
366150781.25 -3.787996e+001 3.122052e+001 -6.670680e+001 1.612151e+002 -7.334377e+001 1.729968e+002 -7.607685e-001 -9.705981e+001
369268750 -3.713013e+001 2.549135e+001 -5.741587e+001 1.256402e+002 -6.911154e+001 2.631210e+001 -7.347846e-001 -1.135563e+002
372386718.75 -3.643159e+001 1.587895e+001 -5.816768e+001 -1.553973e+002 -7.371294e+001 -6.266860e+000 -7.208861e-001 -1.299525e+002
375504687.5 -3.635483e+001 9.133705e+000 -7.365189e+001 -1.124224e+002 -6.386385e+001 2.972320e+001 -7.537699e-001 -1.463433e+002
378622656.25 -3.694512e+001 -8.527614e-001 -5.612152e+001 9.183647e+001 -6.863232e+001 1.555975e+002 -7.645617e-001 -1.628971e+002
381740625 -3.725935e+001 -3.103500e+000 -7.246204e+001 7.162955e+001 -6.309123e+001 -1.499858e+001 -7.756183e-001 -1.792474e+002
384858593.75 -3.836146e+001 -6.505788e+000 -6.038577e+001 -7.346512e+001 -6.537170e+001 -8.225677e+001 -7.946606e-001 1.645098e+002
387976562.5 -3.890701e+001 -7.932032e+000 -6.870564e+001 -1.436672e+002 -6.277557e+001 6.375026e+001 -7.532737e-001 1.480221e+002
391094531.25 -3.977714e+001 -1.688371e+001 -6.567747e+001 -1.159254e+001 -7.747250e+001 7.032872e+001 -7.457308e-001 1.319521e+002
394212500 -4.269036e+001 -1.799086e+001 -5.993501e+001 6.851665e+001 -6.235469e+001 -1.613734e+002 -7.667060e-001 1.157586e+002
397330468.75 -4.571970e+001 -2.855670e+001 -6.398740e+001 1.679844e+002 -6.394778e+001 8.732507e+001 -7.766078e-001 9.965173e+001
400448437.5 -4.637442e+001 -2.579025e+001 -7.219862e+001 -1.233814e+002 -6.920803e+001 4.900483e+001 -7.678571e-001 8.359876e+001
403566406.25 -4.970139e+001 -1.282542e+001 -7.009847e+001 2.597584e+001 -6.281019e+001 1.437700e+002 -7.791295e-001 6.773784e+001
406684375 -5.187535e+001 1.461448e+001 -6.985246e+001 -9.225206e+000 -6.357024e+001 -1.657079e+002 -8.027679e-001 5.192102e+001
409802343.75 -4.840853e+001 4.570401e+001 -6.099206e+001 1.439609e+002 -7.205112e+001 1.445621e+002 -7.830529e-001 3.589125e+001
412920312.5 -4.593106e+001 7.014040e+001 -6.033411e+001 1.424778e+002 -7.816762e+001 -7.813229e+001 -7.816837e-001 1.996288e+001
416038281.25 -4.267876e+001 6.676949e+001 -8.438814e+001 3.629028e+000 -6.673836e+001 -7.102854e+001 -7.839367e-001 4.227407e+000
419156250 -4.046171e+001 6.600181e+001 -5.926267e+001 -1.787176e+002 -6.024807e+001 3.622586e+001 -7.993648e-001 -1.198134e+001
422274218.75 -3.928786e+001 5.926573e+001 -7.455047e+001 3.236046e+001 -6.686655e+001 -2.886475e+001 -7.919770e-001 -2.797264e+001
425392187.5 -3.872269e+001 5.337368e+001 -7.027630e+001 -1.266572e+001 -6.948383e+001 3.782921e-002 -7.553605e-001 -4.399590e+001
428510156.25 -3.722523e+001 5.212321e+001 -7.145177e+001 -7.900919e+001 -7.601546e+001 4.486728e+001 -7.785912e-001 -6.025731e+001
431628125 -3.654759e+001 4.560437e+001 -6.798306e+001 7.995469e+001 -7.102697e+001 1.772005e+002 -8.090075e-001 -7.646458e+001
434746093.75 -3.612296e+001 3.791161e+001 -6.326582e+001 6.925890e+001 -6.298722e+001 -1.793148e+002 -8.056601e-001 -9.236842e+001
437864062.5 -3.613843e+001 3.291173e+001 -6.505497e+001 9.224725e+001 -5.953564e+001 8.944447e+001 -7.837290e-001 -1.086311e+002
440982031.25 -3.545368e+001 2.348664e+001 -6.302046e+001 -7.624274e+001 -6.682804e+001 2.836613e+001 -7.840453e-001 -1.249097e+002
444100000 -3.590132e+001 1.823504e+001 -6.707669e+001 9.835873e+001 -6.893037e+001 -1.925516e+001 -7.709299e-001 -1.410000e+002
447217968.75 -3.643390e+001 1.013437e+001 -7.109357e+001 -6.090647e+001 -7.362894e+001 1.654497e+001 -7.776458e-001 -1.571567e+002
450335937.5 -3.688388e+001 5.093665e+000 -6.418451e+001 3.905428e+001 -7.391808e+001 -1.424353e+001 -8.036433e-001 -1.733409e+002
453453906.25 -3.727379e+001 -5.560605e-002 -7.073343e+001 1.904938e+001 -6.969511e+001 6.467835e+000 -8.425494e-001 1.703389e+002
456571875 -3.738693e+001 -5.086948e+000 -6.936690e+001 -9.361752e+001 -6.532040e+001 5.752179e+001 -8.362555e-001 1.542848e+002
459689843.75 -3.811272e+001 -1.076914e+001 -6.715935e+001 -6.839046e+001 -6.932767e+001 -1.413834e+002 -8.591008e-001 1.378909e+002
462807812.5 -3.998509e+001 -1.215278e+001 -6.829161e+001 1.748142e+001 -7.287276e+001 -2.440849e+001 -8.583912e-001 1.217386e+002
465925781.25 -4.107490e+001 -1.408971e+001 -7.319898e+001 1.265333e+002 -6.455551e+001 -1.756090e+002 -8.887341e-001 1.051041e+002
469043750 -4.296178e+001 -1.143360e+001 -7.343344e+001 1.691165e+002 -6.730790e+001 -1.618797e+002 -8.749715e-001 8.887119e+001
472161718.75 -4.401916e+001 -1.069493e+001 -6.751655e+001 -2.359695e+000 -6.406400e+001 6.940699e+001 -8.747054e-001 7.261533e+001
475279687.5 -4.639571e+001 1.109639e+001 -6.196968e+001 1.113049e+002 -6.800439e+001 -5.877314e+001 -8.759139e-001 5.621819e+001
478397656.25 -4.673322e+001 3.157003e+001 -6.677157e+001 -1.125632e+002 -8.001728e+001 3.431516e+001 -8.856922e-001 4.008823e+001
481515625 -4.564882e+001 4.621699e+001 -7.401957e+001 -9.770923e+001 -6.476564e+001 1.079159e+002 -8.575057e-001 2.412245e+001
484633593.75 -4.325143e+001 5.256030e+001 -7.049574e+001 -1.946734e+001 -6.350135e+001 8.982578e+001 -8.437551e-001 8.253110e+000
487751562.5 -4.090313e+001 5.790184e+001 -7.031523e+001 -1.768557e+002 -7.032028e+001 -1.037295e+002 -8.446832e-001 -7.515175e+000
490869531.25 -3.993565e+001 5.849769e+001 -7.404903e+001 -1.102873e+002 -6.645817e+001 9.277502e+001 -8.469745e-001 -2.340874e+001
493987500 -3.868597e+001 5.144508e+001 -6.556850e+001 1.760831e+002 -6.527946e+001 -1.291193e+002 -8.564433e-001 -3.910499e+001
497105468.75 -3.804690e+001 4.778584e+001 -6.071164e+001 -1.750951e+002 -7.107068e+001 -6.032854e+001 -8.791407e-001 -5.491977e+001
500223437.5 -3.686833e+001 4.194670e+001 -6.334134e+001 6.042226e+001 -7.549479e+001 -4.801353e+001 -8.864207e-001 -7.072543e+001
503341406.25 -3.641526e+001 3.646886e+001 -6.285225e+001 -5.270169e+001 -6.735661e+001 -1.742202e+002 -8.808260e-001 -8.675483e+001
506459375 -3.584444e+001 3.278924e+001 -8.681407e+001 2.887319e+001 -6.979174e+001 -1.251016e+002 -9.167891e-001 -1.028533e+002
509577343.75 -3.579364e+001 2.198833e+001 -6.422942e+001 3.892207e+001 -7.589252e+001 1.279014e+002 -9.332126e-001 -1.190001e+002
