!Agilent Technologies,E8364A,US41440322,A.04.87.01
!Agilent E8364A: A.04.87.01
!Date: Tuesday, July 16, 2024 13:07:25
!Correction: S11(Full 2 Port SOLT,1,2) S21(Full 2 Port SOLT,1,2) S12(Full 2 Port SOLT,1,2) S22(Full 2 Port SOLT,1,2)
!S2P File: Measurements: S11, S21, S12, S22:
# Hz S  dB   R 50
45000000 -3.371457e-001 1.233629e+002 -4.933543e+001 1.234670e+001 -3.209841e+001 1.975581e+001 -2.998236e+001 1.514500e+002
48117968.75 -2.053809e-001 1.077113e+002 -3.346809e+001 1.018583e+002 -4.551563e+001 -1.503092e+002 -3.699089e+001 -1.080562e+002
51235937.5 -2.784221e-001 9.205229e+001 -3.361107e+001 1.596912e+002 -3.782949e+001 6.584325e+001 -2.973127e+001 -8.377797e+001
54353906.25 -3.493911e-001 7.595869e+001 -3.188801e+001 1.726059e+002 -4.284099e+001 -1.659449e+002 -3.221626e+001 -3.978222e+001
57471875 -4.135296e-001 6.052918e+001 -3.452750e+001 8.098363e-001 -4.775687e+001 -4.018265e+001 -4.571853e+001 -5.696516e+000
60589843.75 -3.932019e-001 4.309964e+001 -4.294423e+001 1.404205e+002 -3.825328e+001 -1.349154e+002 -2.944664e+001 -1.181737e+002
63707812.5 -5.336684e-001 2.638260e+001 -4.419356e+001 -3.971756e+001 -3.775032e+001 -2.661693e+001 -5.033593e+001 -1.100952e+002
66825781.25 -5.354583e-001 1.045145e+001 -3.880638e+001 -2.940241e+001 -3.771049e+001 -2.138193e+001 -4.456690e+001 7.555590e+001
69943750 -3.574429e-001 -3.882321e+000 -4.192019e+001 3.335722e+001 -4.261592e+001 7.311148e+001 -4.918111e+001 -9.966772e+001
73061718.75 -3.319536e-001 -2.077074e+001 -5.157522e+001 7.459727e+001 -4.576976e+001 2.246077e+001 -3.555988e+001 1.188419e+001
76179687.5 -4.925318e-001 -3.599980e+001 -5.131033e+001 -1.243886e+001 -5.726920e+001 1.370389e+000 -3.699720e+001 3.022799e+001
79297656.25 -4.268288e-001 -5.158858e+001 -4.208534e+001 2.017777e+001 -4.640638e+001 1.427000e+001 -3.268688e+001 4.550133e+001
82415625 -4.130196e-001 -6.706194e+001 -4.228870e+001 -1.533012e+002 -4.291225e+001 -3.014674e+001 -3.647520e+001 2.985252e+001
85533593.75 -3.008483e-001 -8.294527e+001 -4.128494e+001 -6.503421e+001 -5.888550e+001 4.960431e+001 -3.861753e+001 4.499694e+001
88651562.5 -3.937217e-001 -9.939983e+001 -4.308087e+001 -3.294149e+001 -4.960254e+001 -4.956754e+001 -4.623243e+001 6.310036e+001
91769531.25 -2.715594e-001 -1.160345e+002 -4.790449e+001 1.298311e+002 -6.018683e+001 -1.381751e+002 -3.865295e+001 -5.503181e+001
94887500 -3.824471e-001 -1.326592e+002 -3.937136e+001 -7.413316e+001 -4.798071e+001 -1.089226e+001 -3.768566e+001 -2.009379e+001
98005468.75 -3.782398e-001 -1.490381e+002 -4.167342e+001 8.721217e+001 -4.746233e+001 -1.228015e+001 -3.861068e+001 -8.161780e+000
101123437.5 -4.771070e-001 -1.652963e+002 -4.833173e+001 -1.772424e+002 -5.898751e+001 -8.529008e+001 -3.419036e+001 -7.261906e+000
104241406.25 -5.102712e-001 1.776305e+002 -4.738997e+001 -1.712329e+002 -4.194433e+001 -4.186459e+001 -3.681683e+001 -3.027784e+001
107359375 -4.968719e-001 1.614456e+002 -5.436030e+001 7.295293e+001 -4.767685e+001 -6.933882e+001 -3.452676e+001 -1.369855e+001
110477343.75 -4.859960e-001 1.451696e+002 -4.537066e+001 -7.435501e+001 -4.903739e+001 9.123798e+001 -3.327196e+001 -3.024431e+001
113595312.5 -5.209716e-001 1.285669e+002 -5.634455e+001 1.578749e+001 -4.765923e+001 3.230763e+001 -3.509156e+001 -4.625632e+001
116713281.25 -5.728022e-001 1.124016e+002 -4.886666e+001 3.943803e+001 -5.499755e+001 -6.448430e+001 -3.609667e+001 -3.698726e+001
119831250 -4.911028e-001 9.638452e+001 -5.044763e+001 -4.484078e+001 -5.209637e+001 -7.836787e+001 -3.636349e+001 -4.759599e+001
122949218.75 -4.734572e-001 8.003732e+001 -5.671555e+001 -1.440664e+002 -4.299187e+001 -1.679048e+002 -4.286666e+001 -7.998968e+001
126067187.5 -4.709635e-001 6.398909e+001 -5.144127e+001 -7.279565e+001 -4.934822e+001 1.741422e+002 -3.881079e+001 -6.003902e+001
129185156.25 -4.804498e-001 4.787238e+001 -4.947646e+001 -2.746803e+001 -5.357854e+001 -5.959117e+001 -4.721767e+001 -1.172161e+002
132303125 -4.862255e-001 3.231729e+001 -5.624133e+001 -1.722293e+002 -7.104557e+001 9.566097e+000 -6.266046e+001 3.834122e+001
135421093.75 -5.514933e-001 1.666938e+001 -5.381147e+001 1.659035e+002 -5.071068e+001 -1.308304e+002 -6.536662e+001 -1.053848e+002
138539062.5 -4.639361e-001 5.935559e-001 -5.287927e+001 -1.076975e+002 -5.368409e+001 1.781248e+002 -4.450134e+001 9.217870e+001
141657031.25 -4.618546e-001 -1.503242e+001 -5.574176e+001 1.264791e+002 -7.766964e+001 1.202254e+002 -4.384082e+001 4.975775e+001
144775000 -4.082002e-001 -3.120682e+001 -6.296880e+001 1.016607e+002 -5.072307e+001 -1.594251e+002 -4.283214e+001 3.179929e+001
147892968.75 -3.800406e-001 -4.715884e+001 -5.360637e+001 3.732136e+001 -5.244298e+001 5.824305e+001 -3.848279e+001 6.898534e+001
151010937.5 -3.695989e-001 -6.281630e+001 -6.054725e+001 -1.317885e+002 -6.190475e+001 1.555480e+002 -3.830932e+001 4.080507e+001
154128906.25 -3.621579e-001 -7.893343e+001 -5.585577e+001 7.771988e+001 -5.934233e+001 3.798068e+001 -3.812841e+001 2.836604e+001
157246875 -4.746885e-001 -9.514921e+001 -5.336291e+001 -1.339267e+002 -5.143229e+001 -5.091499e+001 -3.963596e+001 1.503703e+001
160364843.75 -4.481791e-001 -1.114009e+002 -4.960166e+001 3.191065e+001 -4.880111e+001 -8.530516e+001 -3.830885e+001 4.400118e+000
163482812.5 -5.415170e-001 -1.276995e+002 -5.420596e+001 -1.415851e+002 -5.699423e+001 1.035493e+002 -3.497132e+001 2.788310e+001
166600781.25 -5.271885e-001 -1.442878e+002 -5.654839e+001 1.399588e+002 -5.938639e+001 -1.838186e+001 -3.387737e+001 1.853581e+001
169718750 -5.492797e-001 -1.605688e+002 -5.622805e+001 2.395946e+001 -5.235025e+001 5.007088e+000 -3.436359e+001 9.208626e+000
172836718.75 -5.397170e-001 -1.773650e+002 -5.393743e+001 -4.955895e+001 -7.172416e+001 -3.679631e+001 -3.503120e+001 1.235795e+000
175954687.5 -5.617537e-001 1.663811e+002 -6.030430e+001 -6.801218e+000 -5.805028e+001 -1.558026e+002 -3.617016e+001 -3.658162e+000
179072656.25 -5.771474e-001 1.501299e+002 -4.970684e+001 9.174377e+001 -4.880711e+001 -1.114684e+002 -3.633979e+001 -1.316841e+001
182190625 -5.713588e-001 1.338319e+002 -5.494175e+001 -6.015182e+001 -5.893958e+001 -3.425164e+000 -3.574945e+001 -1.049451e+001
185308593.75 -5.631733e-001 1.173884e+002 -5.553752e+001 1.761526e+002 -5.571856e+001 -1.699617e+002 -3.868698e+001 -2.368103e+001
188426562.5 -5.526004e-001 1.013034e+002 -5.611929e+001 -9.205482e+001 -5.932658e+001 1.945086e+001 -4.308033e+001 -3.863132e+001
191544531.25 -5.295806e-001 8.506487e+001 -5.781090e+001 -2.971305e+000 -5.690380e+001 -1.479009e+002 -4.383462e+001 -5.029929e+001
194662500 -5.817407e-001 6.944588e+001 -5.703073e+001 -1.106225e+002 -6.235211e+001 -1.429014e+002 -4.551359e+001 -4.511182e+001
197780468.75 -6.060091e-001 5.333377e+001 -5.903166e+001 -9.078249e+001 -5.372216e+001 3.617459e+001 -4.763061e+001 -4.941082e+001
200898437.5 -5.576836e-001 3.734456e+001 -6.406271e+001 -2.088798e+001 -6.591393e+001 -1.243520e+002 -5.007789e+001 -9.223304e+000
204016406.25 -5.641290e-001 2.159997e+001 -5.533455e+001 -3.175097e+001 -5.724731e+001 8.934289e+001 -5.821117e+001 7.022923e+001
207134375 -5.767719e-001 5.517301e+000 -4.991024e+001 -1.450073e+002 -6.029947e+001 -1.783553e+002 -5.942288e+001 9.726973e+001
210252343.75 -5.549628e-001 -1.037160e+001 -4.754859e+001 -6.869949e+000 -6.171441e+001 -1.160047e+002 -4.758641e+001 9.112981e+001
213370312.5 -5.657328e-001 -2.620686e+001 -6.099317e+001 1.592461e+002 -5.750703e+001 1.268583e+002 -4.369593e+001 7.152715e+001
216488281.25 -5.554962e-001 -4.239954e+001 -6.115532e+001 2.630966e+001 -6.354476e+001 -7.620140e+001 -4.131882e+001 5.902431e+001
219606250 -5.457441e-001 -5.814588e+001 -6.711221e+001 7.217315e+001 -6.097135e+001 -7.304761e+001 -3.966058e+001 6.633174e+001
222724218.75 -5.864310e-001 -7.413657e+001 -5.575258e+001 -1.193234e+002 -5.918037e+001 1.002836e+002 -3.809159e+001 4.833104e+001
225842187.5 -5.675925e-001 -9.011514e+001 -5.657674e+001 1.573376e+002 -5.919280e+001 1.045041e+002 -3.843927e+001 4.827568e+001
228960156.25 -5.306882e-001 -1.064380e+002 -6.948959e+001 -4.770831e+001 -6.039027e+001 -9.729279e+001 -3.822352e+001 3.417015e+001
232078125 -5.832185e-001 -1.226669e+002 -5.200900e+001 -1.074053e+002 -5.860739e+001 1.363078e+002 -3.749762e+001 1.411869e+001
235196093.75 -6.005737e-001 -1.393819e+002 -5.265168e+001 1.565273e+002 -6.330301e+001 -1.872365e+001 -3.834521e+001 6.301877e+000
238314062.5 -6.695539e-001 -1.553236e+002 -5.915557e+001 1.122705e+002 -6.730099e+001 -1.438779e+002 -3.804913e+001 -1.157265e+001
241432031.25 -7.131506e-001 -1.713993e+002 -5.946800e+001 2.968470e+001 -5.102119e+001 4.641719e+001 -3.713415e+001 -1.354072e+001
244550000 -7.277207e-001 1.725161e+002 -5.904596e+001 -9.285812e+001 -5.759007e+001 7.682235e+001 -3.729668e+001 -2.069449e+001
247667968.75 -6.745675e-001 1.549431e+002 -5.064290e+001 -1.230385e+002 -6.139504e+001 -1.278709e+001 -3.746146e+001 -2.475776e+001
250785937.5 -6.724054e-001 1.386299e+002 -5.944959e+001 2.096200e+001 -5.888376e+001 2.897134e+001 -3.722195e+001 -3.961176e+001
253903906.25 -6.453089e-001 1.225672e+002 -6.868668e+001 2.889350e+001 -5.312205e+001 1.594938e+001 -3.755951e+001 -4.674811e+001
257021875 -6.282681e-001 1.060025e+002 -6.479612e+001 -1.397849e+002 -6.415441e+001 1.023829e+002 -3.909872e+001 -6.879665e+001
260139843.75 -6.082855e-001 8.994061e+001 -6.142110e+001 -6.523255e+000 -6.690793e+001 2.563315e+001 -3.986885e+001 -6.896553e+001
263257812.5 -6.485901e-001 7.430089e+001 -6.690969e+001 -9.273599e+000 -6.008794e+001 -3.834201e+001 -4.124356e+001 -6.303194e+001
266375781.25 -6.479154e-001 5.741650e+001 -5.044582e+001 4.045315e+001 -5.368530e+001 -1.241615e+002 -4.337550e+001 -9.902573e+001
269493750 -6.894416e-001 4.177213e+001 -7.564187e+001 -1.532336e+002 -6.203719e+001 -1.766086e+002 -4.470830e+001 -8.414642e+001
272611718.75 -7.252419e-001 2.645125e+001 -6.026250e+001 -1.518972e+000 -7.044145e+001 -1.098249e+002 -4.450763e+001 -8.046384e+001
275729687.5 -7.113244e-001 1.084062e+001 -5.854594e+001 5.937087e+001 -5.246798e+001 -1.436980e+001 -4.450698e+001 -7.124710e+001
278847656.25 -6.626917e-001 -4.698833e+000 -5.355029e+001 5.526977e-001 -6.389178e+001 -1.600348e+002 -4.754768e+001 -5.776588e+001
281965625 -6.348769e-001 -2.050838e+001 -5.791755e+001 -1.653983e+002 -6.391587e+001 9.610685e+001 -4.989715e+001 3.455289e+001
285083593.75 -6.269991e-001 -3.665085e+001 -6.402218e+001 -7.253553e+001 -8.566076e+001 -7.507019e+001 -4.695007e+001 5.934037e+001
288201562.5 -6.633891e-001 -5.305291e+001 -6.736804e+001 -1.005595e+002 -6.035960e+001 1.562467e+002 -4.226562e+001 4.297837e+001
291319531.25 -6.372234e-001 -6.906705e+001 -7.073495e+001 5.325122e+001 -5.761417e+001 -1.757885e+002 -4.028854e+001 2.855823e+001
294437500 -6.541613e-001 -8.520393e+001 -5.621201e+001 -1.431417e+001 -6.574838e+001 3.765413e+001 -3.782191e+001 2.104909e+001
297555468.75 -6.299025e-001 -1.016420e+002 -6.816264e+001 -9.638332e+001 -6.399737e+001 1.378220e+002 -3.707414e+001 1.665796e+001
300673437.5 -6.744501e-001 -1.181258e+002 -6.302015e+001 1.585638e+002 -6.258838e+001 -3.829630e+001 -3.679064e+001 6.730360e+000
303791406.25 -6.915283e-001 -1.341792e+002 -6.535676e+001 -2.022415e+001 -6.284505e+001 -4.790891e+001 -3.535394e+001 6.998219e+000
306909375 -7.095799e-001 -1.505411e+002 -7.429673e+001 -1.173448e+001 -7.225488e+001 1.797778e+002 -3.487661e+001 -3.205435e-001
310027343.75 -7.211460e-001 -1.669948e+002 -6.388267e+001 1.384194e+002 -6.634708e+001 -6.220101e+001 -3.502142e+001 -4.056280e+000
313145312.5 -7.309532e-001 1.766461e+002 -7.022296e+001 9.682907e+000 -7.312270e+001 1.589551e+002 -3.592233e+001 -9.829284e+000
316263281.25 -7.127059e-001 1.603891e+002 -6.527413e+001 -1.184023e+002 -6.730344e+001 9.587767e+001 -3.523903e+001 -1.350179e+001
319381250 -7.872866e-001 1.437837e+002 -5.832481e+001 1.099905e+002 -8.332990e+001 -1.651785e+002 -3.566914e+001 -1.912179e+001
322499218.75 -7.777128e-001 1.274736e+002 -6.109845e+001 3.228103e+001 -6.850851e+001 -1.602625e+002 -3.628779e+001 -2.816321e+001
325617187.5 -7.705618e-001 1.114467e+002 -6.012953e+001 -8.546635e+001 -6.646428e+001 1.396358e+002 -3.807110e+001 -3.462811e+001
328735156.25 -7.401291e-001 9.521491e+001 -5.552234e+001 -8.459167e+001 -6.316748e+001 -1.399201e+002 -3.834265e+001 -3.089051e+001
331853125 -7.736406e-001 7.916731e+001 -6.497273e+001 1.379776e+002 -7.231748e+001 1.478061e+002 -3.918159e+001 -3.050951e+001
334971093.75 -7.583188e-001 6.335967e+001 -7.108680e+001 -1.438695e+002 -6.935520e+001 -1.503050e+002 -4.239511e+001 -2.772208e+001
338089062.5 -7.368218e-001 4.778105e+001 -7.776849e+001 7.895222e+001 -6.159928e+001 8.921909e+001 -4.293414e+001 -1.616606e+001
341207031.25 -7.111331e-001 3.172206e+001 -6.689240e+001 1.553635e+002 -6.398152e+001 -1.514888e+002 -4.309824e+001 4.225648e+000
344325000 -7.092695e-001 1.580532e+001 -6.866449e+001 4.884294e+001 -6.776156e+001 -1.342908e+002 -4.148875e+001 2.487991e+001
347442968.75 -6.805094e-001 -1.514408e-001 -7.388058e+001 4.652003e+001 -6.123962e+001 9.204462e+001 -4.132043e+001 3.832747e+001
350560937.5 -7.005045e-001 -1.601879e+001 -6.104573e+001 1.298479e+002 -6.840893e+001 -8.373014e+001 -4.085592e+001 4.046876e+001
353678906.25 -6.987398e-001 -3.240929e+001 -6.206723e+001 1.076458e+002 -5.772067e+001 -1.722336e+002 -3.868634e+001 4.513890e+001
356796875 -7.044169e-001 -4.801425e+001 -5.765887e+001 2.203328e+001 -6.370236e+001 -1.145825e+002 -3.764854e+001 4.190982e+001
359914843.75 -7.286819e-001 -6.398228e+001 -5.804729e+001 8.860090e+001 -6.315108e+001 -1.568557e+001 -3.682912e+001 4.337848e+001
363032812.5 -7.415972e-001 -8.032564e+001 -6.662634e+001 3.283244e+001 -6.990595e+001 2.047466e+001 -3.617524e+001 3.929216e+001
366150781.25 -7.333387e-001 -9.663406e+001 -6.042334e+001 -1.307221e+002 -6.832169e+001 8.865747e+000 -3.556826e+001 3.775620e+001
369268750 -7.682744e-001 -1.128109e+002 -5.786408e+001 -7.595648e+001 -6.443253e+001 2.564557e+001 -3.594212e+001 2.788391e+001
372386718.75 -8.011644e-001 -1.291141e+002 -6.414130e+001 -1.645969e+002 -6.637360e+001 -8.454984e+001 -3.622308e+001 3.055418e+001
375504687.5 -8.181682e-001 -1.453647e+002 -6.831461e+001 9.800250e+001 -6.320032e+001 8.158542e+001 -3.634465e+001 1.924298e+001
378622656.25 -8.384326e-001 -1.617121e+002 -7.405920e+001 -9.379012e+001 -8.648818e+001 6.480019e+001 -3.636452e+001 1.985895e+001
381740625 -8.250282e-001 -1.781312e+002 -6.512558e+001 5.468269e+001 -6.306408e+001 3.887730e+001 -3.733146e+001 9.377691e+000
384858593.75 -8.155612e-001 1.656441e+002 -6.243187e+001 7.343789e+001 -7.421136e+001 -1.991934e+001 -3.841256e+001 6.869431e+000
387976562.5 -8.647974e-001 1.492868e+002 -6.500062e+001 7.637834e+001 -7.331203e+001 -8.968087e+001 -3.881858e+001 -1.384847e-001
391094531.25 -8.320298e-001 1.330732e+002 -6.093137e+001 1.505067e+002 -6.373547e+001 1.073409e+000 -4.055739e+001 -3.434982e+000
394212500 -8.234140e-001 1.167390e+002 -7.471194e+001 7.698667e+000 -7.183308e+001 -6.507950e+001 -4.393582e+001 -6.601992e+000
397330468.75 -8.171619e-001 1.006510e+002 -7.135748e+001 -7.126744e+001 -7.147204e+001 1.730392e+002 -4.688654e+001 2.895318e+000
400448437.5 -8.494722e-001 8.455005e+001 -7.826762e+001 6.584025e+001 -6.835704e+001 -1.798505e+001 -5.121510e+001 5.990604e+000
403566406.25 -8.347855e-001 6.889537e+001 -7.114192e+001 -5.306406e+001 -6.625285e+001 -4.192368e+001 -5.080955e+001 1.914105e+001
406684375 -8.119264e-001 5.295140e+001 -7.011710e+001 1.631569e+002 -6.328896e+001 1.035144e+002 -6.400353e+001 8.500277e+001
409802343.75 -8.054526e-001 3.696418e+001 -6.224906e+001 4.214361e+001 -7.372160e+001 1.281517e+002 -5.609578e+001 1.024020e+002
412920312.5 -7.797195e-001 2.116632e+001 -6.695345e+001 1.406745e+002 -6.864829e+001 1.093739e+002 -4.910123e+001 1.024521e+002
416038281.25 -7.977912e-001 5.390271e+000 -6.798777e+001 -1.509695e+002 -6.141191e+001 6.489550e+000 -4.655335e+001 9.251337e+001
419156250 -7.783700e-001 -1.033747e+001 -6.468690e+001 -9.924086e+001 -6.439679e+001 -1.591136e+002 -4.394264e+001 9.029960e+001
422274218.75 -8.180394e-001 -2.650494e+001 -7.085410e+001 -8.992339e+001 -7.138167e+001 1.091317e+002 -4.408591e+001 7.673284e+001
425392187.5 -8.126805e-001 -4.239860e+001 -6.520698e+001 2.977608e+001 -7.613957e+001 8.252998e+001 -4.329945e+001 6.391524e+001
428510156.25 -8.293183e-001 -5.851187e+001 -6.493767e+001 -1.272130e+002 -7.453336e+001 -7.751300e+001 -4.351457e+001 5.427281e+001
431628125 -8.494332e-001 -7.438597e+001 -6.719716e+001 7.112916e+001 -6.379790e+001 -1.085756e+002 -4.259638e+001 4.151610e+001
434746093.75 -8.470383e-001 -9.094719e+001 -6.986213e+001 5.266957e+001 -6.989895e+001 -1.683984e+002 -4.218759e+001 2.805599e+001
437864062.5 -8.605967e-001 -1.074397e+002 -6.361995e+001 1.431482e+002 -6.463312e+001 -1.484387e+002 -4.069499e+001 1.295209e+001
440982031.25 -8.698499e-001 -1.238595e+002 -7.560836e+001 -5.846187e+001 -7.096699e+001 -1.276750e+002 -4.018922e+001 5.250741e-002
444100000 -8.716857e-001 -1.402844e+002 -6.232009e+001 2.978492e+001 -6.731410e+001 1.453726e+002 -3.909286e+001 -1.090939e+001
447217968.75 -8.688548e-001 -1.565755e+002 -6.428294e+001 -1.207456e+002 -6.444617e+001 5.544198e+001 -3.885574e+001 -2.419479e+001
450335937.5 -8.984875e-001 -1.731155e+002 -7.623134e+001 -4.886302e+001 -7.322367e+001 1.259421e+002 -3.925372e+001 -3.314265e+001
453453906.25 -9.060813e-001 1.706765e+002 -6.588947e+001 3.646613e+001 -6.270225e+001 -6.061590e+001 -3.802445e+001 -4.587251e+001
456571875 -8.900478e-001 1.542923e+002 -6.813889e+001 5.704343e+001 -7.637688e+001 9.282600e+001 -3.778087e+001 -5.164287e+001
459689843.75 -8.645847e-001 1.378684e+002 -7.042671e+001 -6.202678e+001 -6.459825e+001 1.552666e+002 -3.810215e+001 -5.670288e+001
462807812.5 -9.133648e-001 1.217642e+002 -7.475363e+001 -1.450580e+001 -6.687250e+001 -1.560794e+001 -3.818567e+001 -6.283935e+001
465925781.25 -9.035150e-001 1.056050e+002 -6.756329e+001 4.995517e+001 -7.394743e+001 -1.079722e+002 -3.868244e+001 -7.266265e+001
469043750 -9.311515e-001 8.985730e+001 -6.494715e+001 -3.039193e+001 -6.857907e+001 -1.785614e+002 -3.899278e+001 -7.845895e+001
472161718.75 -9.174873e-001 7.373458e+001 -6.657269e+001 -9.895231e+001 -7.722476e+001 -5.837252e+000 -4.020657e+001 -8.507495e+001
475279687.5 -8.792883e-001 5.779456e+001 -7.342745e+001 1.188196e+002 -7.014735e+001 -4.778721e+001 -4.097637e+001 -9.263532e+001
478397656.25 -8.765713e-001 4.204052e+001 -6.977181e+001 -8.882959e+001 -7.078144e+001 1.016220e+002 -4.336404e+001 -8.435367e+001
481515625 -8.647078e-001 2.626905e+001 -6.895973e+001 -1.505120e+002 -7.178769e+001 1.427284e+002 -4.636972e+001 -8.227109e+001
484633593.75 -8.607893e-001 1.048312e+001 -6.962923e+001 -1.289076e+002 -8.112072e+001 1.051449e+002 -5.054119e+001 -5.749220e+001
487751562.5 -8.754449e-001 -5.247377e+000 -6.637384e+001 6.745835e+001 -6.746843e+001 1.501667e+002 -4.974237e+001 -1.825001e+001
490869531.25 -8.428130e-001 -2.093921e+001 -6.557618e+001 6.156379e+001 -6.502847e+001 -1.196339e+002 -4.540545e+001 7.927543e+000
493987500 -8.896267e-001 -3.699900e+001 -6.771072e+001 7.668422e+001 -6.598601e+001 5.334350e+001 -4.242274e+001 1.636559e+001
497105468.75 -8.531540e-001 -5.324092e+001 -6.506123e+001 4.728447e+001 -1.005827e+002 -7.552635e+001 -3.977116e+001 1.774521e+001
500223437.5 -8.915080e-001 -6.920847e+001 -7.023540e+001 -1.649678e+002 -6.674857e+001 -7.911581e+001 -3.771054e+001 1.393312e+001
503341406.25 -9.061639e-001 -8.559790e+001 -6.103748e+001 1.213879e+002 -6.898987e+001 -1.126657e+002 -3.680389e+001 1.048947e+001
506459375 -8.883623e-001 -1.016183e+002 -6.367503e+001 -8.594636e+001 -7.182582e+001 1.222336e+002 -3.577271e+001 8.143502e+000
509577343.75 -9.250013e-001 -1.181674e+002 -5.998908e+001 -1.065120e+002 -7.715845e+001 9.340114e+001 -3.495395e+001 5.666323e+000
