!Agilent Technologies,E8364A,US41440322,A.04.87.01
!Agilent E8364A: A.04.87.01
!Date: Tuesday, July 16, 2024 13:03:04
!Correction: S11(Full 2 Port SOLT,1,2) S21(Full 2 Port SOLT,1,2) S12(Full 2 Port SOLT,1,2) S22(Full 2 Port SOLT,1,2)
!S2P File: Measurements: S11, S21, S12, S22:
# Hz S  dB   R 50
45000000 -4.422322e-001 1.214498e+002 -3.597718e+001 -3.380516e+001 -3.733382e+001 1.639209e+002 1.375635e-001 1.250096e+002
48117968.75 -4.243062e-001 1.064401e+002 -3.524324e+001 5.952548e+001 -3.488089e+001 -9.199434e+001 3.747174e-002 1.083793e+002
51235937.5 -3.688458e-001 9.027448e+001 -3.062771e+001 -8.211139e+001 -3.310337e+001 1.765694e+002 -1.641169e-001 9.230090e+001
54353906.25 -3.373194e-002 7.529578e+001 -4.075454e+001 1.085579e+002 -3.503528e+001 1.624543e+002 -3.507586e-001 7.617339e+001
57471875 -3.666868e-001 5.749589e+001 -3.289525e+001 5.875366e+001 -3.374925e+001 -1.433252e+002 -3.852378e-001 6.011306e+001
60589843.75 -4.616476e-001 4.190236e+001 -4.155954e+001 7.249759e+001 -4.009531e+001 -1.456155e+002 -4.340487e-001 4.310283e+001
63707812.5 -4.027555e-001 2.435721e+001 -3.886151e+001 1.639136e+002 -3.886768e+001 1.774735e+002 -3.691352e-001 2.846028e+001
66825781.25 -2.347833e-001 8.729118e+000 -5.018483e+001 -4.701092e+001 -3.394689e+001 6.938674e+001 -2.639850e-001 1.226983e+001
69943750 -3.711226e-001 -6.051376e+000 -5.093537e+001 -1.558341e+002 -4.369915e+001 -3.413844e+000 -3.728849e-001 -4.578142e+000
73061718.75 -3.549629e-001 -2.233946e+001 -4.725193e+001 1.758803e+002 -3.753149e+001 8.629990e+001 -4.096996e-001 -2.059539e+001
76179687.5 -4.923063e-001 -3.774223e+001 -4.398416e+001 -1.556047e+002 -5.012105e+001 -2.597603e+001 -3.973299e-001 -3.571859e+001
79297656.25 -5.111585e-001 -5.359921e+001 -5.404912e+001 -1.433619e+002 -4.618304e+001 1.527824e+002 -4.505644e-001 -5.193167e+001
82415625 -4.138763e-001 -6.878999e+001 -5.340430e+001 -5.819129e+001 -4.246057e+001 -1.615182e+002 -2.972385e-001 -6.782754e+001
85533593.75 -3.370921e-001 -8.473290e+001 -4.200379e+001 -9.859256e+001 -4.561478e+001 1.241045e+002 -3.652986e-001 -8.384872e+001
88651562.5 -3.330249e-001 -1.015362e+002 -3.929250e+001 -1.391268e+002 -4.346093e+001 -9.859679e+001 -3.217917e-001 -1.009434e+002
91769531.25 -2.847660e-001 -1.186399e+002 -4.669418e+001 1.604509e+002 -4.251970e+001 -9.068327e+001 -3.676088e-001 -1.166906e+002
94887500 -4.595158e-001 -1.349063e+002 -4.246528e+001 -2.498135e+000 -4.302874e+001 -1.087164e+002 -3.351741e-001 -1.330125e+002
98005468.75 -4.737447e-001 -1.516523e+002 -4.895207e+001 7.422878e+001 -4.827967e+001 7.283130e+001 -3.648287e-001 -1.486438e+002
101123437.5 -5.232109e-001 -1.673570e+002 -4.598732e+001 1.409437e+002 -5.120047e+001 -8.695129e+001 -4.304811e-001 -1.652178e+002
104241406.25 -5.595996e-001 1.757786e+002 -4.375617e+001 -2.909393e+001 -5.211932e+001 9.526579e+001 -4.825307e-001 1.782693e+002
107359375 -5.403513e-001 1.589414e+002 -4.356918e+001 -1.035894e+002 -5.366778e+001 1.620139e+002 -4.210537e-001 1.612766e+002
110477343.75 -4.958108e-001 1.424421e+002 -4.976739e+001 2.075769e+001 -5.066785e+001 8.783911e+001 -4.928262e-001 1.454026e+002
113595312.5 -5.404292e-001 1.262513e+002 -4.783413e+001 -3.408675e+001 -5.573836e+001 -2.694333e+001 -4.507386e-001 1.289130e+002
116713281.25 -5.719277e-001 1.099739e+002 -5.580650e+001 1.035578e+002 -5.217351e+001 -5.999165e+001 -4.277740e-001 1.122831e+002
119831250 -5.293586e-001 9.390160e+001 -4.507940e+001 1.735135e+002 -5.668422e+001 2.376473e+001 -5.112045e-001 9.625131e+001
122949218.75 -5.356321e-001 7.741592e+001 -6.394717e+001 -2.283451e+001 -6.584442e+001 -1.782366e+002 -4.731391e-001 8.084559e+001
126067187.5 -5.439724e-001 6.109947e+001 -4.816807e+001 1.566209e+001 -5.114996e+001 -6.510560e+001 -4.610593e-001 6.427707e+001
129185156.25 -5.294603e-001 4.531108e+001 -4.367564e+001 -1.633664e+002 -5.046217e+001 1.793425e+002 -4.811449e-001 4.846481e+001
132303125 -5.278198e-001 2.939893e+001 -5.189652e+001 -1.064313e+002 -6.092867e+001 -9.857720e+001 -4.663510e-001 3.252088e+001
135421093.75 -5.595359e-001 1.355455e+001 -5.488344e+001 1.153912e+001 -4.837377e+001 1.698079e+002 -4.351710e-001 1.649931e+001
138539062.5 -4.985146e-001 -2.235398e+000 -4.737194e+001 4.833190e+001 -4.985073e+001 6.516264e+001 -4.611027e-001 6.406576e-001
141657031.25 -4.569694e-001 -1.809021e+001 -5.169271e+001 1.083372e+000 -4.984597e+001 1.040230e+002 -4.404912e-001 -1.533647e+001
144775000 -4.456324e-001 -3.427333e+001 -5.448586e+001 -1.076378e+002 -5.220388e+001 -8.549869e+001 -4.130757e-001 -3.110745e+001
147892968.75 -4.014438e-001 -5.057785e+001 -5.702958e+001 1.643989e+002 -6.306077e+001 1.661007e+002 -4.227327e-001 -4.705286e+001
151010937.5 -4.193112e-001 -6.615710e+001 -5.811407e+001 7.224545e+001 -5.305719e+001 -1.785974e+002 -4.041073e-001 -6.320231e+001
154128906.25 -4.643804e-001 -8.229208e+001 -4.964847e+001 1.642314e+002 -5.517488e+001 2.418999e+001 -3.927927e-001 -7.906956e+001
157246875 -4.662953e-001 -9.868151e+001 -5.159238e+001 -1.385455e+002 -5.633677e+001 9.069811e+001 -4.004292e-001 -9.544148e+001
160364843.75 -5.097167e-001 -1.150553e+002 -5.009104e+001 -5.436771e+001 -4.990706e+001 9.488417e+001 -4.361252e-001 -1.115977e+002
163482812.5 -5.566372e-001 -1.315727e+002 -5.100282e+001 -1.583827e+002 -6.562540e+001 -1.775596e+002 -4.668953e-001 -1.280103e+002
166600781.25 -5.600126e-001 -1.479225e+002 -5.651679e+001 -1.464758e+002 -5.637360e+001 -1.157272e+001 -4.858238e-001 -1.441074e+002
169718750 -5.449660e-001 -1.645479e+002 -5.293946e+001 5.978148e+001 -5.705313e+001 9.788062e+001 -4.507691e-001 -1.611268e+002
172836718.75 -5.929265e-001 1.791754e+002 -4.873220e+001 -8.283483e+001 -5.736883e+001 -1.186334e+002 -5.494186e-001 -1.777713e+002
175954687.5 -5.958263e-001 1.628335e+002 -5.821318e+001 1.045886e+002 -5.339843e+001 1.149171e+002 -5.246860e-001 1.658627e+002
179072656.25 -5.724316e-001 1.462089e+002 -6.051640e+001 -3.148147e+001 -5.412350e+001 -6.353928e+001 -5.247376e-001 1.495669e+002
182190625 -5.894556e-001 1.295970e+002 -5.956932e+001 -1.607015e+002 -5.875968e+001 7.367028e+001 -5.189216e-001 1.331957e+002
185308593.75 -5.664029e-001 1.134939e+002 -6.501939e+001 1.242389e+002 -5.804531e+001 -9.443980e+001 -5.172674e-001 1.172524e+002
188426562.5 -5.583018e-001 9.704357e+001 -5.686073e+001 3.961056e+001 -5.734959e+001 -5.624035e+001 -4.972116e-001 1.012808e+002
191544531.25 -5.506906e-001 8.114909e+001 -6.426567e+001 4.500582e+001 -6.076944e+001 -1.247314e+002 -4.839557e-001 8.510020e+001
194662500 -6.109307e-001 6.500507e+001 -5.269771e+001 -8.033344e+001 -6.110519e+001 4.009257e+001 -4.731044e-001 6.871838e+001
197780468.75 -5.951002e-001 4.911650e+001 -6.167241e+001 2.854819e+001 -5.971471e+001 1.530007e+002 -4.960465e-001 5.326524e+001
200898437.5 -5.795749e-001 3.337726e+001 -6.199001e+001 1.778976e+002 -6.385044e+001 1.338807e+002 -5.016780e-001 3.776748e+001
204016406.25 -6.178292e-001 1.726001e+001 -5.073289e+001 -1.588302e+002 -6.716219e+001 1.482339e+001 -5.133471e-001 2.160071e+001
207134375 -5.780655e-001 1.354588e+000 -5.634437e+001 -1.508416e+002 -8.128967e+001 -1.785907e+002 -5.454814e-001 5.606872e+000
210252343.75 -5.636135e-001 -1.480015e+001 -5.906459e+001 -1.744188e+002 -5.834499e+001 8.937584e+001 -5.394374e-001 -1.032459e+001
213370312.5 -5.836365e-001 -3.106081e+001 -6.037514e+001 1.069688e+002 -5.669598e+001 1.635649e+002 -5.513945e-001 -2.633803e+001
216488281.25 -5.750371e-001 -4.670238e+001 -5.899281e+001 1.284019e+002 -5.705688e+001 -1.483392e+002 -4.973015e-001 -4.267507e+001
219606250 -5.763274e-001 -6.285379e+001 -5.787273e+001 -8.266119e+001 -5.796550e+001 1.231619e+002 -5.463739e-001 -5.879185e+001
222724218.75 -6.087393e-001 -7.879443e+001 -6.390659e+001 4.763011e+001 -5.644757e+001 -1.471142e+002 -5.596910e-001 -7.475213e+001
225842187.5 -6.228566e-001 -9.526521e+001 -5.863234e+001 2.392373e+001 -5.497119e+001 1.719688e+002 -5.671639e-001 -9.118886e+001
228960156.25 -5.835668e-001 -1.114861e+002 -6.232051e+001 -7.830598e+001 -6.762246e+001 2.028452e+000 -5.578188e-001 -1.076256e+002
232078125 -6.301752e-001 -1.280715e+002 -5.034411e+001 1.365327e+002 -6.303571e+001 -1.322967e+002 -5.507638e-001 -1.235013e+002
235196093.75 -6.113130e-001 -1.444362e+002 -5.235462e+001 -5.164980e+001 -5.764868e+001 -2.134360e+001 -5.764349e-001 -1.400795e+002
238314062.5 -7.104767e-001 -1.608996e+002 -6.264937e+001 -6.910114e+001 -7.000826e+001 -4.823597e+001 -5.113765e-001 -1.561876e+002
241432031.25 -7.247835e-001 -1.767064e+002 -5.556950e+001 -1.620986e+002 -6.901366e+001 7.135500e+001 -5.037703e-001 -1.726920e+002
244550000 -7.336895e-001 1.670221e+002 -5.790498e+001 3.965625e+001 -5.154794e+001 8.568566e+001 -4.967898e-001 1.711159e+002
247667968.75 -6.617891e-001 1.496893e+002 -5.372026e+001 -1.001817e+002 -5.869802e+001 1.219229e+001 -5.774641e-001 1.548225e+002
250785937.5 -6.929844e-001 1.335585e+002 -6.418625e+001 1.603928e+002 -6.470686e+001 8.794919e+001 -6.292794e-001 1.386994e+002
253903906.25 -6.360219e-001 1.173069e+002 -5.495225e+001 8.200432e+001 -5.785971e+001 2.991763e+001 -6.198800e-001 1.223485e+002
257021875 -6.227993e-001 1.007811e+002 -6.095752e+001 -1.778324e+002 -7.512511e+001 8.175397e+001 -5.858788e-001 1.055360e+002
260139843.75 -6.478098e-001 8.422614e+001 -5.549958e+001 -4.011294e+001 -5.700530e+001 1.231630e+002 -6.101078e-001 8.909892e+001
263257812.5 -6.591869e-001 6.866204e+001 -6.602875e+001 -3.513390e+001 -6.126830e+001 -1.314987e+002 -6.699113e-001 7.361383e+001
266375781.25 -6.481788e-001 5.185519e+001 -6.231533e+001 4.213220e+001 -6.140203e+001 -3.490998e+001 -8.545434e-001 5.839392e+001
269493750 -6.766796e-001 3.608685e+001 -6.203242e+001 1.539751e+002 -5.782281e+001 1.251663e+002 -8.415936e-001 4.219760e+001
272611718.75 -7.349965e-001 2.102764e+001 -5.252103e+001 1.190707e+001 -5.912474e+001 1.184126e+002 -7.773265e-001 2.630324e+001
275729687.5 -7.502395e-001 5.274623e+000 -5.520813e+001 -6.882788e+001 -5.674973e+001 -1.698209e+002 -6.540384e-001 1.056548e+001
278847656.25 -6.653678e-001 -1.067939e+001 -5.233811e+001 1.174861e+002 -5.922601e+001 1.190350e+001 -5.786934e-001 -5.797950e+000
281965625 -7.240899e-001 -2.651053e+001 -6.215477e+001 -4.834354e+001 -5.268994e+001 -3.081185e+001 -5.890744e-001 -2.234677e+001
285083593.75 -6.768734e-001 -4.277684e+001 -6.284413e+001 2.773589e+001 -6.021069e+001 1.775483e+001 -6.350526e-001 -3.824794e+001
288201562.5 -6.816416e-001 -5.900098e+001 -5.826106e+001 3.704685e+001 -6.448104e+001 -8.162232e+001 -6.726142e-001 -5.414149e+001
291319531.25 -6.905964e-001 -7.521922e+001 -6.183248e+001 1.552874e+002 -6.461674e+001 7.715979e+001 -6.615449e-001 -7.012328e+001
294437500 -6.771910e-001 -9.157822e+001 -5.946000e+001 -3.457199e+001 -6.035717e+001 -6.885436e+000 -6.690252e-001 -8.599194e+001
297555468.75 -6.851580e-001 -1.082145e+002 -6.519258e+001 -1.102510e+002 -6.307412e+001 6.460355e+001 -6.550692e-001 -1.019692e+002
300673437.5 -6.989411e-001 -1.243941e+002 -6.322023e+001 -1.184551e+002 -5.943026e+001 1.078262e+001 -6.708981e-001 -1.182165e+002
303791406.25 -7.286885e-001 -1.406804e+002 -6.198677e+001 8.596842e+001 -5.842708e+001 -1.432705e+002 -7.209703e-001 -1.343578e+002
306909375 -7.604986e-001 -1.571151e+002 -6.823975e+001 1.682844e+002 -6.332771e+001 6.370011e+001 -7.425979e-001 -1.504390e+002
310027343.75 -7.722268e-001 -1.737146e+002 -5.951607e+001 1.036814e+002 -6.327324e+001 8.181750e+001 -7.679572e-001 -1.670893e+002
313145312.5 -7.172527e-001 1.698958e+002 -6.283086e+001 1.535216e+002 -6.032024e+001 1.573759e+002 -7.509539e-001 1.764034e+002
316263281.25 -7.454419e-001 1.533963e+002 -5.895716e+001 1.569415e+002 -6.198208e+001 1.665591e+002 -7.896802e-001 1.598395e+002
319381250 -7.653165e-001 1.371505e+002 -6.359879e+001 -2.593683e+001 -6.083855e+001 1.776730e+002 -7.649018e-001 1.434453e+002
322499218.75 -7.641165e-001 1.208421e+002 -5.962226e+001 -3.179321e+001 -6.195977e+001 -1.227317e+002 -7.512119e-001 1.265852e+002
325617187.5 -7.414370e-001 1.044295e+002 -5.766167e+001 1.135035e+002 -6.541668e+001 3.847691e+001 -7.172167e-001 1.103007e+002
328735156.25 -7.832681e-001 8.842035e+001 -6.651008e+001 -1.568483e+002 -6.585493e+001 1.059212e+002 -7.481807e-001 9.406393e+001
331853125 -7.877467e-001 7.228745e+001 -6.689532e+001 1.172459e+002 -7.948346e+001 -1.343677e+002 -7.384660e-001 7.806634e+001
334971093.75 -7.741411e-001 5.644949e+001 -6.836678e+001 -1.630353e+002 -6.066425e+001 6.826797e+001 -7.103307e-001 6.213049e+001
338089062.5 -7.712705e-001 4.066509e+001 -6.373001e+001 -7.940990e+001 -7.346384e+001 -2.954929e+001 -7.394573e-001 4.620387e+001
341207031.25 -7.549721e-001 2.466304e+001 -7.402664e+001 1.528871e+002 -6.418124e+001 -1.543793e+002 -7.130188e-001 3.046909e+001
344325000 -7.656625e-001 8.521605e+000 -6.252593e+001 -1.760382e+002 -6.301296e+001 -3.791348e+001 -7.077379e-001 1.474636e+001
347442968.75 -7.638276e-001 -7.277104e+000 -6.436462e+001 1.341580e+002 -6.478824e+001 -6.690689e+001 -7.217916e-001 -9.725810e-001
350560937.5 -7.340549e-001 -2.360750e+001 -7.411252e+001 1.032993e+002 -7.020107e+001 -2.664384e+001 -7.377957e-001 -1.652336e+001
353678906.25 -7.505042e-001 -3.925394e+001 -6.659776e+001 1.648608e+002 -5.829065e+001 3.166677e+001 -7.725133e-001 -3.241020e+001
356796875 -7.590709e-001 -5.582255e+001 -6.995953e+001 -6.917090e+001 -6.281076e+001 -8.915939e+001 -7.500327e-001 -4.844395e+001
359914843.75 -7.629416e-001 -7.174422e+001 -5.925183e+001 9.380508e+001 -6.345090e+001 -9.987403e+001 -7.373666e-001 -6.459069e+001
363032812.5 -7.845600e-001 -8.806374e+001 -6.018181e+001 -1.262054e+002 -6.575279e+001 -5.918286e+001 -7.560710e-001 -8.065469e+001
366150781.25 -8.009661e-001 -1.043449e+002 -6.198578e+001 -6.331007e+001 -6.525978e+001 1.139847e+002 -7.531983e-001 -9.703008e+001
369268750 -7.923616e-001 -1.208790e+002 -6.362045e+001 1.345616e+002 -7.312625e+001 -1.437870e+002 -7.810978e-001 -1.134934e+002
372386718.75 -8.072025e-001 -1.370600e+002 -5.902385e+001 7.141280e+001 -5.892382e+001 -6.465765e+001 -7.519201e-001 -1.298849e+002
375504687.5 -8.300933e-001 -1.534765e+002 -6.939846e+001 1.035381e+002 -6.686913e+001 -1.298637e+001 -7.609244e-001 -1.462843e+002
378622656.25 -8.392511e-001 -1.697860e+002 -6.642713e+001 9.910524e+001 -7.614274e+001 1.562342e+002 -7.722721e-001 -1.627774e+002
381740625 -8.701404e-001 1.738622e+002 -5.880766e+001 1.215381e+002 -7.300497e+001 -1.110852e+002 -7.885183e-001 -1.792351e+002
384858593.75 -8.554966e-001 1.573369e+002 -6.187967e+001 -7.151482e+001 -6.667689e+001 1.289417e+002 -7.959818e-001 1.645104e+002
387976562.5 -8.524364e-001 1.410381e+002 -7.032020e+001 1.334693e+002 -6.422649e+001 -1.240190e+002 -7.595391e-001 1.484041e+002
391094531.25 -8.609213e-001 1.247971e+002 -6.236621e+001 1.050544e+002 -7.549335e+001 -5.894132e+001 -7.673098e-001 1.319866e+002
394212500 -8.351917e-001 1.084522e+002 -6.915687e+001 5.590650e+001 -6.593416e+001 1.703208e+002 -7.679284e-001 1.157656e+002
397330468.75 -8.674470e-001 9.250909e+001 -6.334233e+001 -8.201062e+001 -6.079723e+001 8.401292e+001 -7.832996e-001 9.968251e+001
400448437.5 -8.626586e-001 7.640491e+001 -6.598512e+001 1.863505e+001 -6.226429e+001 -3.345800e+001 -7.741928e-001 8.357095e+001
403566406.25 -8.758304e-001 6.050669e+001 -7.034131e+001 -8.945432e+001 -6.887862e+001 -6.609740e+001 -7.877073e-001 6.782552e+001
406684375 -8.386002e-001 4.449746e+001 -6.493929e+001 1.444458e+002 -6.405704e+001 4.401107e+001 -7.938515e-001 5.189592e+001
409802343.75 -8.314846e-001 2.852312e+001 -7.164053e+001 -8.898667e+001 -6.811636e+001 3.962275e+001 -7.789803e-001 3.606211e+001
412920312.5 -8.319954e-001 1.262743e+001 -6.886498e+001 6.977271e+001 -7.307059e+001 1.305350e+002 -8.076224e-001 2.009835e+001
416038281.25 -8.170358e-001 -3.254513e+000 -6.738803e+001 1.388507e+002 -6.774620e+001 1.144881e+002 -7.787783e-001 4.085254e+000
419156250 -8.341407e-001 -1.923364e+001 -7.055983e+001 1.208782e+002 -6.442699e+001 6.387463e+001 -8.146296e-001 -1.194750e+001
422274218.75 -8.217013e-001 -3.513714e+001 -6.907401e+001 -8.733705e+001 -6.024099e+001 -1.533486e+002 -8.131750e-001 -2.788026e+001
425392187.5 -8.404150e-001 -5.137381e+001 -6.193257e+001 3.814787e+001 -6.369967e+001 9.449215e+000 -7.994848e-001 -4.395647e+001
428510156.25 -8.852223e-001 -6.751632e+001 -6.640630e+001 1.625172e+002 -6.463085e+001 1.541810e+002 -7.961151e-001 -5.996623e+001
431628125 -8.771738e-001 -8.384621e+001 -6.226485e+001 -1.288801e+002 -6.283547e+001 -4.277342e+001 -8.064780e-001 -7.639935e+001
434746093.75 -8.967132e-001 -1.000786e+002 -7.063538e+001 1.347393e+002 -6.961391e+001 7.544501e+000 -7.957665e-001 -9.261106e+001
437864062.5 -9.080907e-001 -1.168555e+002 -6.424895e+001 -1.384653e+002 -6.751274e+001 1.439102e+002 -7.869898e-001 -1.086024e+002
440982031.25 -8.673974e-001 -1.331833e+002 -7.154101e+001 -1.060013e+002 -6.944731e+001 -1.276023e+002 -8.129858e-001 -1.247729e+002
444100000 -8.791361e-001 -1.497368e+002 -6.210682e+001 1.280452e+001 -6.399428e+001 4.131351e+001 -7.874332e-001 -1.409977e+002
447217968.75 -8.800676e-001 -1.662686e+002 -6.812460e+001 -2.869599e+001 -6.952289e+001 1.737835e+002 -7.875788e-001 -1.572586e+002
450335937.5 -9.178233e-001 1.774006e+002 -6.594016e+001 8.901172e+001 -6.550463e+001 -1.091312e+002 -8.152615e-001 -1.734744e+002
453453906.25 -9.240496e-001 1.609184e+002 -6.395502e+001 1.780197e+002 -7.391975e+001 9.240223e+000 -8.453919e-001 1.703442e+002
456571875 -9.058191e-001 1.445684e+002 -6.711375e+001 -1.264634e+002 -6.477068e+001 -4.634368e+000 -8.536277e-001 1.542919e+002
459689843.75 -9.154502e-001 1.280326e+002 -7.200880e+001 -5.573040e+001 -7.160265e+001 1.306102e+002 -8.663765e-001 1.380797e+002
462807812.5 -9.179787e-001 1.119594e+002 -6.726292e+001 5.621514e+000 -7.748102e+001 -1.037511e+002 -8.521280e-001 1.216515e+002
465925781.25 -9.285031e-001 9.600713e+001 -6.314732e+001 6.862146e+001 -7.755097e+001 1.015726e+002 -8.839759e-001 1.056105e+002
469043750 -9.508162e-001 7.984786e+001 -7.573181e+001 7.648845e+000 -6.708618e+001 4.970522e+001 -9.000282e-001 8.899828e+001
472161718.75 -9.465631e-001 6.391726e+001 -7.810225e+001 1.295691e+002 -6.379543e+001 1.567157e+002 -8.885779e-001 7.269297e+001
475279687.5 -9.347672e-001 4.807430e+001 -6.976549e+001 -1.383233e+002 -7.449220e+001 -7.265412e+001 -8.925951e-001 5.625954e+001
478397656.25 -9.053324e-001 3.214658e+001 -7.191176e+001 6.494762e+001 -9.805668e+001 -6.045638e+001 -8.718338e-001 4.018424e+001
481515625 -9.060740e-001 1.624789e+001 -6.398008e+001 -1.065464e+002 -6.870652e+001 2.358747e+001 -8.781639e-001 2.426987e+001
484633593.75 -8.939986e-001 4.536180e-001 -8.037405e+001 1.404096e+002 -6.888524e+001 1.787926e+001 -8.764493e-001 8.336311e+000
487751562.5 -8.978148e-001 -1.536470e+001 -6.359097e+001 4.112193e+001 -7.140532e+001 -6.804237e+001 -8.788105e-001 -7.631728e+000
490869531.25 -9.052550e-001 -3.122635e+001 -6.545580e+001 -8.410661e+001 -6.433737e+001 -8.071729e+001 -8.810862e-001 -2.337214e+001
493987500 -8.923433e-001 -4.747736e+001 -6.857724e+001 -1.245820e+002 -6.819914e+001 1.023920e+002 -9.054521e-001 -3.907903e+001
497105468.75 -9.033636e-001 -6.358046e+001 -6.500781e+001 9.326593e+001 -6.448620e+001 4.435110e+001 -9.064519e-001 -5.485738e+001
500223437.5 -9.170759e-001 -7.977673e+001 -7.317671e+001 -9.429339e+000 -6.341949e+001 -1.897804e+001 -9.134870e-001 -7.081987e+001
503341406.25 -9.282728e-001 -9.605969e+001 -6.598984e+001 1.221995e+002 -6.975638e+001 -1.029720e+002 -8.981891e-001 -8.674445e+001
506459375 -9.443840e-001 -1.123908e+002 -6.035876e+001 5.149680e+001 -6.279012e+001 1.139194e+002 -9.451394e-001 -1.027300e+002
509577343.75 -9.904578e-001 -1.290822e+002 -6.657254e+001 -1.249714e+002 -6.344822e+001 6.949108e+001 -9.308950e-001 -1.190728e+002
