!Agilent Technologies,E8364A,US41440322,A.04.87.01
!Agilent E8364A: A.04.87.01
!Date: Tuesday, July 16, 2024 13:03:29
!Correction: S11(Full 2 Port SOLT,1,2) S21(Full 2 Port SOLT,1,2) S12(Full 2 Port SOLT,1,2) S22(Full 2 Port SOLT,1,2)
!S2P File: Measurements: S11, S21, S12, S22:
# Hz S  dB   R 50
45000000 -3.391885e-001 1.235316e+002 -4.015822e+001 -8.309072e+000 -3.558194e+001 -5.348146e+001 1.676333e-001 1.247220e+002
48117968.75 -4.055746e-001 1.069059e+002 -3.030315e+001 -1.578988e+002 -3.516263e+001 -5.600370e+001 -1.347449e-002 1.070716e+002
51235937.5 -1.175082e-001 9.058698e+001 -4.364050e+001 -6.366989e+001 -3.202648e+001 1.414523e+002 7.033738e-002 9.010358e+001
54353906.25 -1.564974e-001 7.578265e+001 -3.467987e+001 -1.101985e+002 -4.329723e+001 1.225389e+002 -5.530888e-001 7.364892e+001
57471875 -5.375578e-001 5.979351e+001 -4.089775e+001 1.411180e+002 -3.730469e+001 9.230566e+001 -4.919910e-001 5.967582e+001
60589843.75 -5.035947e-001 4.358207e+001 -3.286351e+001 1.214321e+002 -4.220724e+001 -4.018446e+001 -3.289247e-001 4.352541e+001
63707812.5 -2.389340e-001 2.672653e+001 -4.660348e+001 -1.000047e+002 -4.713739e+001 -7.797054e+001 -3.336997e-001 2.634694e+001
66825781.25 -3.363828e-001 1.043264e+001 -4.370164e+001 1.017668e+002 -4.291590e+001 4.353342e+001 -2.898906e-001 1.062344e+001
69943750 -2.652760e-001 -4.756536e+000 -4.420787e+001 -2.538533e+001 -4.608478e+001 2.707741e+001 -3.824827e-001 -5.949810e+000
73061718.75 -3.877797e-001 -2.009021e+001 -4.471460e+001 -3.027052e+001 -5.080465e+001 9.337399e+001 -3.663724e-001 -2.139535e+001
76179687.5 -4.404305e-001 -3.566453e+001 -4.474921e+001 9.437209e+001 -4.200169e+001 -1.065961e+002 -4.504921e-001 -3.697936e+001
79297656.25 -4.000838e-001 -5.193458e+001 -5.953141e+001 -4.463639e+001 -4.332897e+001 -5.275713e+001 -3.934086e-001 -5.334612e+001
82415625 -4.847345e-001 -6.803841e+001 -5.135355e+001 -1.628729e+001 -5.922349e+001 1.424049e+002 -3.980623e-001 -6.925639e+001
85533593.75 -2.907661e-001 -8.264656e+001 -3.926287e+001 1.112566e+002 -3.934975e+001 -1.746122e+002 -2.833162e-001 -8.670775e+001
88651562.5 -3.144002e-001 -9.898506e+001 -4.667372e+001 -7.806921e+001 -4.642365e+001 -7.927858e+001 -3.477753e-001 -1.030197e+002
91769531.25 -3.464135e-001 -1.166956e+002 -4.424815e+001 -1.292502e+000 -4.179808e+001 -1.082998e+002 -3.485288e-001 -1.193785e+002
94887500 -3.969322e-001 -1.330355e+002 -5.876560e+001 8.926183e+001 -4.788464e+001 -6.921723e+001 -2.732745e-001 -1.345985e+002
98005468.75 -4.190248e-001 -1.494561e+002 -4.841658e+001 -1.248109e+002 -5.639840e+001 -1.315963e+002 -3.794313e-001 -1.504181e+002
101123437.5 -5.139897e-001 -1.662630e+002 -4.467978e+001 -1.430570e+002 -4.622298e+001 -1.158670e+002 -3.798972e-001 -1.671754e+002
104241406.25 -5.496295e-001 1.777961e+002 -4.914097e+001 1.198702e+002 -4.769260e+001 4.617891e+001 -4.200113e-001 1.760807e+002
107359375 -5.574139e-001 1.611981e+002 -5.037119e+001 -1.198361e+002 -6.175351e+001 7.188861e+001 -4.350766e-001 1.591973e+002
110477343.75 -5.193170e-001 1.447434e+002 -5.027040e+001 -6.091483e+001 -5.032397e+001 -1.425631e+001 -4.927270e-001 1.427347e+002
113595312.5 -5.501370e-001 1.284994e+002 -5.632033e+001 1.013244e+002 -5.296206e+001 8.964401e+001 -4.516456e-001 1.264168e+002
116713281.25 -5.745794e-001 1.127031e+002 -5.970464e+001 -4.663411e+001 -5.911046e+001 -7.831830e+001 -4.189772e-001 1.098458e+002
119831250 -5.217000e-001 9.663448e+001 -4.535146e+001 -1.721551e+002 -6.013938e+001 -6.345882e+001 -4.627234e-001 9.392936e+001
122949218.75 -5.070529e-001 7.973868e+001 -5.229922e+001 -1.557101e+002 -5.470921e+001 1.798614e+002 -4.711885e-001 7.804499e+001
126067187.5 -5.651441e-001 6.386147e+001 -5.456311e+001 -2.202233e+001 -4.919152e+001 7.243382e+000 -4.961224e-001 6.186927e+001
129185156.25 -4.484137e-001 4.808675e+001 -4.658914e+001 1.624207e+002 -4.914932e+001 -1.240249e+002 -4.796999e-001 4.560281e+001
132303125 -4.962255e-001 3.237364e+001 -5.337275e+001 -1.605466e+002 -5.417408e+001 8.157823e+001 -5.015960e-001 2.984823e+001
135421093.75 -5.095789e-001 1.630903e+001 -5.550739e+001 -1.004869e+002 -6.125594e+001 1.102414e+002 -5.255205e-001 1.380598e+001
138539062.5 -4.893882e-001 7.924433e-001 -4.975725e+001 5.965907e+001 -6.288157e+001 1.662135e+002 -4.769846e-001 -2.274769e+000
141657031.25 -4.675304e-001 -1.546845e+001 -5.239351e+001 -1.139956e+002 -4.710620e+001 -2.178097e+001 -4.538001e-001 -1.807762e+001
144775000 -4.193205e-001 -3.113187e+001 -5.878601e+001 1.151599e+002 -5.251669e+001 -6.508036e+001 -4.416467e-001 -3.436652e+001
147892968.75 -4.501186e-001 -4.714145e+001 -6.700748e+001 1.371777e+002 -5.266449e+001 -8.764045e+001 -4.454406e-001 -5.019781e+001
151010937.5 -3.968742e-001 -6.313816e+001 -5.150289e+001 1.383140e+002 -5.485699e+001 -9.540318e+001 -4.438156e-001 -6.637177e+001
154128906.25 -3.949285e-001 -7.901718e+001 -5.419023e+001 -7.195039e+001 -5.302471e+001 4.038548e+001 -4.449469e-001 -8.225590e+001
157246875 -4.591927e-001 -9.525971e+001 -5.419777e+001 3.577588e+001 -5.555381e+001 -7.170030e+001 -4.587013e-001 -9.859943e+001
160364843.75 -4.608569e-001 -1.116206e+002 -5.204915e+001 1.514000e+002 -5.428054e+001 -7.108273e+001 -4.845262e-001 -1.149514e+002
163482812.5 -4.837196e-001 -1.277290e+002 -6.675559e+001 1.159147e+002 -5.111068e+001 5.769394e+001 -5.335755e-001 -1.313478e+002
166600781.25 -5.624144e-001 -1.444268e+002 -6.046491e+001 3.456036e+001 -4.933918e+001 -2.957176e+001 -4.684952e-001 -1.478871e+002
169718750 -5.440399e-001 -1.606140e+002 -4.900103e+001 -1.448652e+002 -5.219772e+001 1.174212e+002 -5.197364e-001 -1.645858e+002
172836718.75 -5.755358e-001 -1.773388e+002 -5.476462e+001 -1.572975e+002 -6.867226e+001 7.268108e+001 -5.425004e-001 1.784968e+002
175954687.5 -5.449681e-001 1.664644e+002 -5.530494e+001 6.897080e+000 -6.265907e+001 1.332878e+002 -5.416419e-001 1.621535e+002
179072656.25 -6.024446e-001 1.500530e+002 -5.554520e+001 -8.599119e+001 -6.196484e+001 1.741006e+002 -5.101079e-001 1.456995e+002
182190625 -5.792850e-001 1.335728e+002 -6.082772e+001 5.104036e+001 -5.989288e+001 5.919329e+001 -5.135863e-001 1.293764e+002
185308593.75 -5.577570e-001 1.172886e+002 -5.902426e+001 -1.232243e+002 -5.859416e+001 -1.136784e+002 -4.873700e-001 1.131689e+002
188426562.5 -5.576636e-001 1.010432e+002 -5.519278e+001 -1.143415e+001 -6.158595e+001 8.143472e+001 -5.160434e-001 9.732587e+001
191544531.25 -5.979989e-001 8.518101e+001 -5.788164e+001 -6.695496e+001 -5.936902e+001 1.826685e+001 -4.648370e-001 8.087175e+001
194662500 -5.936148e-001 6.931268e+001 -5.891676e+001 -1.149767e+001 -5.296872e+001 -1.309073e+002 -5.177277e-001 6.487571e+001
197780468.75 -6.077774e-001 5.332124e+001 -6.185087e+001 9.182615e+001 -5.661200e+001 -1.866989e+001 -5.043890e-001 4.911074e+001
200898437.5 -6.182852e-001 3.721450e+001 -5.701215e+001 9.723244e+001 -6.444608e+001 -3.498646e+001 -4.968344e-001 3.315949e+001
204016406.25 -6.015876e-001 2.165964e+001 -5.743586e+001 -6.565749e+001 -6.487856e+001 -8.405568e+001 -5.191525e-001 1.747126e+001
207134375 -5.896469e-001 5.584177e+000 -9.148032e+001 1.571469e+002 -5.598239e+001 1.269148e+002 -5.670863e-001 9.407679e-001
210252343.75 -5.585842e-001 -1.037105e+001 -5.593618e+001 -5.652162e+001 -6.265449e+001 -1.020855e+002 -5.326082e-001 -1.480632e+001
213370312.5 -5.665699e-001 -2.631928e+001 -5.467776e+001 9.316409e+001 -7.257265e+001 1.166356e+002 -4.984586e-001 -3.099626e+001
216488281.25 -5.591791e-001 -4.223685e+001 -5.780056e+001 6.936001e+001 -6.185834e+001 9.024064e+001 -5.794239e-001 -4.688391e+001
219606250 -6.105470e-001 -5.811803e+001 -5.991912e+001 1.492540e+002 -6.139116e+001 -6.475150e+001 -5.474570e-001 -6.333715e+001
222724218.75 -5.941993e-001 -7.417056e+001 -6.595237e+001 -1.004450e+002 -5.688081e+001 -3.364762e+001 -5.634981e-001 -7.935960e+001
225842187.5 -5.959516e-001 -9.030814e+001 -6.001398e+001 1.393061e+002 -6.816537e+001 -1.502143e+002 -5.734807e-001 -9.566399e+001
228960156.25 -5.859962e-001 -1.065274e+002 -6.058904e+001 -2.021141e+001 -5.707342e+001 -4.690648e+001 -6.014236e-001 -1.121918e+002
232078125 -6.345876e-001 -1.229881e+002 -6.015567e+001 -1.739621e+002 -6.020770e+001 5.815879e+001 -5.638016e-001 -1.285324e+002
235196093.75 -6.398384e-001 -1.392839e+002 -7.027480e+001 -2.343849e+001 -7.053031e+001 -6.024765e+001 -5.713815e-001 -1.449026e+002
238314062.5 -7.112103e-001 -1.559742e+002 -5.460238e+001 1.630653e+002 -5.535749e+001 -3.994319e+001 -5.075778e-001 -1.611305e+002
241432031.25 -7.341062e-001 -1.713463e+002 -6.107247e+001 1.845114e+001 -5.973771e+001 -1.303001e+002 -5.181275e-001 -1.778003e+002
244550000 -6.928796e-001 1.724080e+002 -5.731240e+001 -9.662399e+001 -6.289680e+001 -1.158729e+001 -5.636985e-001 1.657047e+002
247667968.75 -6.807323e-001 1.548537e+002 -5.265668e+001 1.472691e+001 -6.104190e+001 -1.770522e+002 -5.874997e-001 1.493640e+002
250785937.5 -6.608787e-001 1.387463e+002 -6.270361e+001 1.471947e+002 -6.072541e+001 -1.788965e+002 -6.218291e-001 1.335327e+002
253903906.25 -6.583604e-001 1.224977e+002 -6.250628e+001 1.110297e+002 -6.220056e+001 -2.820381e+001 -6.250370e-001 1.167222e+002
257021875 -5.898782e-001 1.061260e+002 -5.868416e+001 -1.252690e+002 -5.610315e+001 1.229978e+002 -5.871872e-001 1.002228e+002
260139843.75 -6.294714e-001 8.974609e+001 -6.529959e+001 1.304329e+002 -6.773479e+001 -5.410461e+001 -6.555533e-001 8.341251e+001
263257812.5 -6.671730e-001 7.425259e+001 -5.607813e+001 -5.669951e+001 -6.079367e+001 -5.887711e+001 -6.727861e-001 6.801842e+001
266375781.25 -6.310675e-001 5.732328e+001 -6.230259e+001 -4.346201e+001 -6.205651e+001 -1.649075e+002 -8.557602e-001 5.248431e+001
269493750 -6.681545e-001 4.152488e+001 -5.911078e+001 1.219569e+002 -6.012426e+001 -1.593793e+002 -7.926437e-001 3.657597e+001
272611718.75 -7.433348e-001 2.655653e+001 -5.758805e+001 -1.526275e+002 -5.798102e+001 1.516381e+002 -7.212849e-001 2.037570e+001
275729687.5 -7.271509e-001 1.094201e+001 -5.875343e+001 -5.777203e+001 -5.982737e+001 1.195975e+002 -6.719396e-001 4.705839e+000
278847656.25 -7.006216e-001 -5.053551e+000 -6.158261e+001 -1.124725e+002 -6.191985e+001 -1.628891e+002 -6.156272e-001 -1.181194e+001
281965625 -6.585388e-001 -2.085141e+001 -5.679193e+001 -3.564055e+000 -5.924174e+001 7.985814e+001 -6.030031e-001 -2.833264e+001
285083593.75 -6.573937e-001 -3.707896e+001 -6.083555e+001 -1.196358e+002 -5.631154e+001 -1.305132e+002 -6.514507e-001 -4.426326e+001
288201562.5 -6.600456e-001 -5.301868e+001 -6.522712e+001 -4.513054e+001 -6.205816e+001 9.464516e+001 -6.410609e-001 -6.014416e+001
291319531.25 -6.579012e-001 -6.916144e+001 -8.009304e+001 -3.944126e+001 -7.543514e+001 -4.401850e+001 -6.879265e-001 -7.629332e+001
294437500 -6.652823e-001 -8.542634e+001 -7.224267e+001 7.421033e+000 -5.871635e+001 -9.947476e+001 -6.764205e-001 -9.214290e+001
297555468.75 -6.753006e-001 -1.017916e+002 -7.375349e+001 -9.396100e+001 -6.522321e+001 -7.265907e+001 -6.568204e-001 -1.083860e+002
300673437.5 -6.659407e-001 -1.181015e+002 -6.037503e+001 6.662725e+001 -7.067777e+001 1.601409e+002 -6.826525e-001 -1.244837e+002
303791406.25 -7.341534e-001 -1.343468e+002 -6.170839e+001 6.319081e+001 -6.293470e+001 -1.276755e+002 -7.049906e-001 -1.408945e+002
306909375 -7.627832e-001 -1.506079e+002 -6.847074e+001 8.559309e+001 -7.047977e+001 -8.830379e+001 -7.843491e-001 -1.573047e+002
310027343.75 -7.700438e-001 -1.667567e+002 -5.989209e+001 -1.063356e+002 -5.743242e+001 1.591434e+002 -7.948386e-001 -1.737020e+002
313145312.5 -7.644264e-001 1.766225e+002 -6.531047e+001 -1.220184e+002 -8.145020e+001 4.879033e+001 -7.591380e-001 1.697516e+002
316263281.25 -7.622064e-001 1.601677e+002 -5.511925e+001 7.310316e+001 -5.599634e+001 1.590566e+002 -7.423443e-001 1.532334e+002
319381250 -7.590887e-001 1.439810e+002 -6.134517e+001 9.201584e+001 -6.250791e+001 -1.644533e+002 -7.693276e-001 1.364422e+002
322499218.75 -8.030127e-001 1.276630e+002 -5.824586e+001 1.274215e+002 -5.707337e+001 2.273772e+001 -7.666340e-001 1.199786e+002
325617187.5 -7.503647e-001 1.113141e+002 -7.439906e+001 -1.002713e+002 -6.365265e+001 1.957108e+001 -7.592290e-001 1.035112e+002
328735156.25 -7.899094e-001 9.527176e+001 -7.675980e+001 -3.707586e+001 -6.563923e+001 -1.459808e+002 -7.670701e-001 8.712998e+001
331853125 -7.877920e-001 7.910606e+001 -7.026831e+001 3.550122e+001 -6.640382e+001 -1.792446e+002 -7.019075e-001 7.099020e+001
334971093.75 -7.708297e-001 6.318126e+001 -6.817653e+001 4.163549e+001 -6.158361e+001 -7.208156e+001 -6.976960e-001 5.520381e+001
338089062.5 -7.548972e-001 4.757647e+001 -6.393105e+001 1.644588e+002 -6.694799e+001 1.986403e+000 -7.180562e-001 3.929863e+001
341207031.25 -7.251074e-001 3.146618e+001 -6.719336e+001 -5.506753e+001 -6.671287e+001 -1.830980e+001 -7.003869e-001 2.338318e+001
344325000 -7.441615e-001 1.592719e+001 -5.691237e+001 -1.923904e+001 -7.294998e+001 8.717025e+001 -7.097801e-001 7.768960e+000
347442968.75 -7.419327e-001 -1.041456e-001 -6.483286e+001 -1.351836e+002 -6.444534e+001 -6.590584e+001 -7.313169e-001 -7.867895e+000
350560937.5 -7.053847e-001 -1.636638e+001 -6.013605e+001 -9.323219e+001 -6.463025e+001 -1.127611e+002 -7.440435e-001 -2.386248e+001
353678906.25 -6.979910e-001 -3.216771e+001 -6.679996e+001 7.001268e+001 -6.269176e+001 -1.596729e+002 -7.735562e-001 -3.969700e+001
356796875 -7.618662e-001 -4.835712e+001 -6.609661e+001 -1.293904e+002 -6.848836e+001 -1.262434e+002 -7.876734e-001 -5.599786e+001
359914843.75 -7.623045e-001 -6.431241e+001 -6.112258e+001 5.488763e+001 -6.742406e+001 1.117598e+002 -7.765161e-001 -7.192444e+001
363032812.5 -7.622613e-001 -8.046967e+001 -7.891682e+001 5.248520e+001 -5.917208e+001 2.826597e+001 -7.831717e-001 -8.839921e+001
366150781.25 -7.717338e-001 -9.667722e+001 -6.734265e+001 -1.050404e+002 -6.572143e+001 -1.009786e+002 -7.620120e-001 -1.048337e+002
369268750 -7.693374e-001 -1.130070e+002 -6.754334e+001 1.847801e+001 -6.693511e+001 -1.246251e+002 -7.814386e-001 -1.213204e+002
372386718.75 -7.926317e-001 -1.291528e+002 -6.604201e+001 -5.418658e+001 -6.794843e+001 -4.220617e+001 -7.775581e-001 -1.378465e+002
375504687.5 -7.966349e-001 -1.454793e+002 -6.611496e+001 -1.489821e+002 -7.928396e+001 1.307853e+001 -7.738558e-001 -1.543363e+002
378622656.25 -8.304461e-001 -1.616759e+002 -7.578445e+001 9.497341e+001 -7.545901e+001 -8.891495e+001 -7.739274e-001 -1.707204e+002
381740625 -8.482760e-001 -1.780345e+002 -6.674983e+001 1.424193e+002 -7.316582e+001 -1.589915e+002 -7.657022e-001 1.726382e+002
384858593.75 -8.536975e-001 1.654381e+002 -7.089488e+001 1.003510e+001 -6.444565e+001 -4.483944e+001 -8.058791e-001 1.562629e+002
387976562.5 -8.497685e-001 1.490722e+002 -5.910459e+001 -1.055444e+002 -6.080950e+001 1.141376e+002 -7.540532e-001 1.398536e+002
391094531.25 -8.385761e-001 1.327678e+002 -6.271015e+001 -1.701350e+002 -6.124177e+001 2.500566e+001 -7.709152e-001 1.235470e+002
394212500 -8.339353e-001 1.166870e+002 -6.510363e+001 -1.657306e+002 -7.022079e+001 -9.846135e+001 -7.697523e-001 1.076301e+002
397330468.75 -8.432766e-001 1.006088e+002 -5.794107e+001 -1.493427e+002 -6.406853e+001 3.750790e+001 -7.826753e-001 9.138628e+001
400448437.5 -8.441688e-001 8.464648e+001 -7.249336e+001 5.942978e+001 -6.829607e+001 7.990675e+001 -7.789667e-001 7.538097e+001
403566406.25 -8.401967e-001 6.870558e+001 -6.968954e+001 -3.597232e+001 -7.929095e+001 1.084301e+002 -7.903172e-001 5.936834e+001
406684375 -8.483484e-001 5.286332e+001 -6.195739e+001 4.986805e+001 -6.542517e+001 1.742545e+002 -8.012339e-001 4.351058e+001
409802343.75 -8.051834e-001 3.688343e+001 -6.460519e+001 2.533247e+001 -6.607423e+001 -6.827501e+001 -7.833818e-001 2.749226e+001
412920312.5 -8.036285e-001 2.113564e+001 -6.289688e+001 -1.123759e+002 -6.806931e+001 1.430542e+002 -7.935184e-001 1.141640e+001
416038281.25 -8.051625e-001 5.275719e+000 -6.784015e+001 5.528296e+000 -7.113204e+001 -7.499142e+001 -8.266981e-001 -4.651364e+000
419156250 -8.087350e-001 -1.075574e+001 -6.728542e+001 -4.239145e+000 -6.131711e+001 6.574110e+001 -8.097948e-001 -2.071103e+001
422274218.75 -8.193392e-001 -2.656721e+001 -5.961757e+001 1.722868e+002 -7.213804e+001 1.885075e+001 -8.338124e-001 -3.688026e+001
425392187.5 -8.606721e-001 -4.255282e+001 -6.758589e+001 1.683303e+002 -7.520134e+001 -1.066299e+002 -7.911167e-001 -5.292628e+001
428510156.25 -8.379150e-001 -5.862891e+001 -6.250236e+001 -1.495821e+002 -6.342313e+001 1.351760e+002 -8.053214e-001 -6.925002e+001
431628125 -8.724830e-001 -7.493751e+001 -6.268963e+001 1.172757e+002 -8.367503e+001 1.582469e+002 -7.899791e-001 -8.550737e+001
434746093.75 -8.554108e-001 -9.104594e+001 -6.636320e+001 -3.286427e+001 -6.330180e+001 1.024021e+002 -8.218531e-001 -1.018387e+002
437864062.5 -8.735785e-001 -1.074261e+002 -6.266045e+001 -1.406616e+002 -5.893251e+001 -1.442050e+002 -8.083112e-001 -1.181165e+002
440982031.25 -8.723118e-001 -1.239508e+002 -6.770259e+001 1.017711e+002 -7.131429e+001 8.759726e+001 -8.165473e-001 -1.341249e+002
444100000 -8.925235e-001 -1.402993e+002 -6.752319e+001 -1.724404e+002 -7.292208e+001 9.347340e+001 -8.072983e-001 -1.503691e+002
447217968.75 -9.004321e-001 -1.567556e+002 -6.494301e+001 1.005511e+002 -6.748182e+001 -1.127825e+002 -8.003860e-001 -1.667449e+002
450335937.5 -9.151448e-001 -1.731749e+002 -6.953745e+001 -2.264072e+001 -7.566056e+001 6.816103e+001 -8.137459e-001 1.769698e+002
453453906.25 -9.153568e-001 1.704764e+002 -6.379566e+001 6.428242e+001 -6.649693e+001 -1.344754e+002 -8.471245e-001 1.608183e+002
456571875 -8.898615e-001 1.543337e+002 -7.450393e+001 -7.016505e+001 -6.726259e+001 -1.214164e+001 -8.762319e-001 1.443868e+002
459689843.75 -9.137152e-001 1.378072e+002 -6.415553e+001 -1.078405e+002 -6.304696e+001 1.111372e+002 -8.579907e-001 1.281487e+002
462807812.5 -9.062357e-001 1.215531e+002 -7.068879e+001 1.461851e+002 -7.484715e+001 -1.405667e+001 -8.866990e-001 1.118017e+002
465925781.25 -9.359461e-001 1.055680e+002 -7.429256e+001 -1.777221e+002 -6.468147e+001 5.538227e+001 -8.704971e-001 9.543861e+001
469043750 -9.463980e-001 8.965652e+001 -6.307789e+001 -1.858458e+001 -6.835555e+001 8.561495e+001 -8.831292e-001 7.888307e+001
472161718.75 -9.640936e-001 7.376773e+001 -7.112436e+001 -5.533602e+001 -6.759427e+001 1.096249e+002 -8.769811e-001 6.261343e+001
475279687.5 -9.368969e-001 5.778815e+001 -7.584525e+001 1.396441e+001 -6.229103e+001 -1.221368e+002 -8.682035e-001 4.625399e+001
478397656.25 -9.163697e-001 4.212766e+001 -6.710699e+001 -1.418389e+002 -6.356459e+001 -7.455050e+001 -9.010878e-001 3.004660e+001
481515625 -8.929371e-001 2.617589e+001 -7.609776e+001 -5.609512e+001 -7.906858e+001 1.115502e+002 -8.894041e-001 1.407056e+001
484633593.75 -9.002908e-001 1.039761e+001 -7.012821e+001 5.000866e+001 -7.673399e+001 1.343937e+002 -8.755521e-001 -1.781785e+000
487751562.5 -8.824732e-001 -5.329508e+000 -6.667854e+001 7.537019e+001 -9.408168e+001 -2.712777e-001 -8.981923e-001 -1.773311e+001
490869531.25 -8.621843e-001 -2.122004e+001 -6.626902e+001 1.795948e+002 -7.973015e+001 -2.571725e+001 -8.814939e-001 -3.358883e+001
493987500 -8.807935e-001 -3.715958e+001 -7.729285e+001 -1.523838e+001 -6.622454e+001 -1.337988e+002 -8.955487e-001 -4.947554e+001
497105468.75 -8.767825e-001 -5.322375e+001 -6.306237e+001 -8.206972e+001 -6.697491e+001 -1.369197e+002 -9.246777e-001 -6.530083e+001
500223437.5 -9.112697e-001 -6.944389e+001 -6.295883e+001 1.798703e+002 -6.822169e+001 4.369319e+001 -9.134978e-001 -8.131107e+001
503341406.25 -9.359517e-001 -8.547171e+001 -6.306776e+001 2.096246e+001 -7.551993e+001 8.022162e+001 -9.505975e-001 -9.725071e+001
506459375 -9.297903e-001 -1.019167e+002 -6.354904e+001 3.135954e+000 -6.581649e+001 -1.751942e+002 -9.441957e-001 -1.135425e+002
509577343.75 -9.508578e-001 -1.183447e+002 -6.697505e+001 1.038308e+002 -6.469894e+001 -8.512104e+001 -9.366202e-001 -1.300612e+002
