!Agilent Technologies,E8364A,US41440322,A.04.87.01
!Agilent E8364A: A.04.87.01
!Date: Tuesday, July 16, 2024 13:05:31
!Correction: S11(Full 2 Port SOLT,1,2) S21(Full 2 Port SOLT,1,2) S12(Full 2 Port SOLT,1,2) S22(Full 2 Port SOLT,1,2)
!S2P File: Measurements: S11, S21, S12, S22:
# Hz S  dB   R 50
45000000 -3.140240e-001 1.246123e+002 -3.817331e+001 1.849852e+001 -2.869490e+001 -1.669716e+002 -6.114190e-001 -5.576867e+001
48117968.75 -2.320046e-001 1.071629e+002 -3.632135e+001 5.167390e+001 -4.361182e+001 -6.717970e+001 -4.078612e-001 -7.086162e+001
51235937.5 -2.271827e-001 9.133398e+001 -3.754243e+001 4.257707e+001 -3.445441e+001 -1.627544e+002 -5.719457e-001 -8.829504e+001
54353906.25 -2.236512e-001 7.599870e+001 -4.922267e+001 -2.010446e+001 -3.883554e+001 1.278624e+002 -2.891444e-001 -1.035762e+002
57471875 -5.266811e-001 6.113839e+001 -3.745603e+001 5.288602e+001 -4.484690e+001 1.467895e+001 -4.068580e-001 -1.196214e+002
60589843.75 -3.800813e-001 4.379144e+001 -3.565367e+001 -1.736217e+002 -4.424621e+001 9.223757e+001 -5.434464e-001 -1.341169e+002
63707812.5 -4.259237e-001 2.594513e+001 -4.158345e+001 -7.019775e+001 -4.291998e+001 -1.546222e+002 -2.142023e-001 -1.521415e+002
66825781.25 -4.188558e-001 9.790849e+000 -4.816827e+001 -2.041042e+001 -4.001217e+001 -4.313665e+001 -1.845395e-001 -1.702740e+002
69943750 -3.244126e-001 -4.331831e+000 -5.205445e+001 7.409738e+001 -4.625364e+001 5.056820e+001 -2.500147e-001 1.743183e+002
73061718.75 -3.039088e-001 -2.015219e+001 -4.318532e+001 -3.702418e+001 -4.095080e+001 9.282821e+001 -2.567728e-001 1.568505e+002
76179687.5 -3.999451e-001 -3.596975e+001 -5.018566e+001 -4.793009e+001 -4.493214e+001 6.380348e+001 -4.280338e-001 1.404070e+002
79297656.25 -3.954330e-001 -5.189456e+001 -3.956202e+001 -1.476730e+002 -4.143979e+001 2.417140e+001 -2.487068e-001 1.244640e+002
82415625 -3.528738e-001 -6.712173e+001 -4.288009e+001 -8.142749e+001 -4.703742e+001 -1.524998e+001 -3.289785e-001 1.078844e+002
85533593.75 -3.832282e-001 -8.271974e+001 -4.008578e+001 8.630008e+001 -4.026123e+001 -8.043167e+001 -4.419342e-001 9.228450e+001
88651562.5 -3.401112e-001 -9.918954e+001 -5.463326e+001 -1.727690e+002 -4.547604e+001 -2.602542e+001 -4.876814e-001 7.633941e+001
91769531.25 -3.031725e-001 -1.161736e+002 -4.123017e+001 2.296505e+001 -5.033475e+001 -3.358610e+001 -6.145771e-001 6.002817e+001
94887500 -3.711033e-001 -1.326837e+002 -4.219850e+001 1.514499e+002 -4.655376e+001 1.293955e+002 -5.108877e-001 4.429900e+001
98005468.75 -3.920901e-001 -1.491066e+002 -4.224746e+001 -6.315828e+001 -4.720364e+001 -2.986992e+001 -5.248360e-001 2.775210e+001
101123437.5 -4.838308e-001 -1.656121e+002 -4.276455e+001 4.800113e+001 -4.910021e+001 -2.903698e+001 -3.925694e-001 1.187015e+001
104241406.25 -4.713033e-001 1.777973e+002 -4.635378e+001 3.957529e+000 -4.617141e+001 6.297608e+001 -4.829327e-001 -3.957849e+000
107359375 -4.797399e-001 1.613934e+002 -4.813069e+001 -8.577357e+001 -5.059142e+001 -1.193612e+002 -4.915008e-001 -1.999076e+001
110477343.75 -4.508113e-001 1.449937e+002 -4.667318e+001 9.969203e+001 -5.341488e+001 -7.864042e+000 -3.407614e-001 -3.651508e+001
113595312.5 -5.944173e-001 1.283385e+002 -5.973019e+001 5.926387e+001 -5.029715e+001 -7.198839e+001 -4.019885e-001 -5.215954e+001
116713281.25 -5.923277e-001 1.125438e+002 -5.264999e+001 -1.148429e+001 -4.507435e+001 1.135289e+002 -4.193131e-001 -6.817219e+001
119831250 -5.119298e-001 9.640534e+001 -5.387710e+001 1.337150e+002 -5.082817e+001 1.584563e+002 -4.033303e-001 -8.415099e+001
122949218.75 -5.014873e-001 8.010349e+001 -4.745048e+001 -7.608099e+001 -5.287140e+001 -1.640427e+001 -4.190909e-001 -1.005178e+002
126067187.5 -5.163892e-001 6.388902e+001 -5.749013e+001 1.000981e+002 -5.265837e+001 1.060799e+002 -4.348915e-001 -1.171177e+002
129185156.25 -4.944022e-001 4.780415e+001 -5.617754e+001 -2.771301e+001 -5.015237e+001 -4.694775e+001 -4.213546e-001 -1.335242e+002
132303125 -5.232165e-001 3.238737e+001 -4.727806e+001 -1.770689e+002 -6.528353e+001 -3.277205e+001 -4.696916e-001 -1.498571e+002
135421093.75 -5.044703e-001 1.637306e+001 -4.611323e+001 -5.583277e+001 -6.058706e+001 -1.714177e+002 -4.796746e-001 -1.661730e+002
138539062.5 -5.034635e-001 5.967679e-001 -5.279979e+001 1.286260e+002 -6.455380e+001 -1.517886e+001 -4.994698e-001 1.771336e+002
141657031.25 -4.745170e-001 -1.563431e+001 -4.862185e+001 1.283930e+001 -4.873627e+001 6.253063e+001 -5.407907e-001 1.608096e+002
144775000 -4.404389e-001 -3.127433e+001 -5.535902e+001 -9.219757e+001 -5.836935e+001 -9.165479e+001 -4.793917e-001 1.440733e+002
147892968.75 -3.966695e-001 -4.714513e+001 -5.159994e+001 -7.757480e+001 -6.270811e+001 1.658050e+002 -5.538409e-001 1.276849e+002
151010937.5 -4.067113e-001 -6.315955e+001 -5.798254e+001 -7.685429e+001 -5.221035e+001 4.019487e+001 -5.486356e-001 1.112957e+002
154128906.25 -3.969820e-001 -7.873930e+001 -5.545358e+001 -1.420933e+002 -5.083342e+001 -7.161736e-001 -6.207744e-001 9.523901e+001
157246875 -4.395795e-001 -9.513660e+001 -4.773625e+001 9.253327e+001 -5.428875e+001 -7.396733e+001 -5.657579e-001 7.906749e+001
160364843.75 -4.507850e-001 -1.115912e+002 -5.353222e+001 3.476740e+001 -5.796013e+001 3.475494e+001 -5.612842e-001 6.263896e+001
163482812.5 -5.213060e-001 -1.279519e+002 -5.127675e+001 -2.330157e+001 -5.305872e+001 -7.619483e+001 -4.828127e-001 4.675517e+001
166600781.25 -5.696496e-001 -1.441957e+002 -5.099277e+001 9.077722e+001 -5.987200e+001 2.438873e+001 -4.777696e-001 3.092416e+001
169718750 -5.728008e-001 -1.608911e+002 -6.525637e+001 2.442289e+000 -6.496237e+001 -1.696613e+002 -4.847082e-001 1.507818e+001
172836718.75 -5.695324e-001 -1.773130e+002 -6.865155e+001 -4.774378e+000 -5.763226e+001 -5.688462e+001 -5.354652e-001 -3.075954e-001
175954687.5 -5.783478e-001 1.663499e+002 -5.845158e+001 2.943272e+001 -6.962861e+001 -1.332734e+002 -5.351176e-001 -1.621739e+001
179072656.25 -5.794922e-001 1.501303e+002 -6.105724e+001 8.274733e+001 -6.353351e+001 -1.728409e+002 -5.334321e-001 -3.221355e+001
182190625 -5.971821e-001 1.335470e+002 -5.597678e+001 -2.965040e+001 -6.163712e+001 1.023514e+002 -5.316908e-001 -4.836567e+001
185308593.75 -5.573115e-001 1.174840e+002 -5.250740e+001 -1.311825e+002 -5.188362e+001 3.411221e+001 -5.676717e-001 -6.471773e+001
188426562.5 -5.513101e-001 1.012332e+002 -5.657760e+001 5.570684e+001 -5.263036e+001 4.958628e+001 -6.277204e-001 -8.134293e+001
191544531.25 -5.710157e-001 8.519073e+001 -6.723171e+001 -1.162156e+002 -5.954065e+001 -8.415693e+001 -5.582057e-001 -9.747596e+001
194662500 -5.920302e-001 6.904584e+001 -5.758353e+001 -2.759925e+001 -5.690569e+001 -1.409218e+002 -5.666960e-001 -1.139133e+002
197780468.75 -5.960797e-001 5.288633e+001 -6.443495e+001 -1.715398e+002 -5.585658e+001 -9.089673e+001 -5.218980e-001 -1.304162e+002
200898437.5 -6.106721e-001 3.729352e+001 -5.428687e+001 -1.240758e+002 -5.727026e+001 -7.712739e+001 -5.494602e-001 -1.467558e+002
204016406.25 -5.796795e-001 2.130414e+001 -5.333325e+001 7.232027e+001 -6.307896e+001 1.616451e+001 -5.832669e-001 -1.628610e+002
207134375 -5.635364e-001 5.770950e+000 -5.331749e+001 -1.035409e+002 -5.980986e+001 -8.543619e+001 -5.547646e-001 -1.790481e+002
210252343.75 -5.524611e-001 -1.011597e+001 -5.536607e+001 -1.768339e+002 -5.631086e+001 -1.606907e+002 -6.234741e-001 1.637904e+002
213370312.5 -5.759563e-001 -2.609859e+001 -6.425304e+001 -6.192051e+001 -6.078875e+001 -1.587074e+002 -5.988513e-001 1.476429e+002
216488281.25 -5.612553e-001 -4.246229e+001 -5.735965e+001 2.169217e+001 -5.809975e+001 -1.459256e+002 -5.708061e-001 1.315131e+002
219606250 -5.604059e-001 -5.811240e+001 -5.800643e+001 2.715081e+000 -6.135277e+001 5.474610e+001 -5.942608e-001 1.152933e+002
222724218.75 -5.688741e-001 -7.421020e+001 -6.087024e+001 5.448275e+001 -6.641074e+001 -2.403427e+001 -6.109474e-001 9.916465e+001
225842187.5 -5.661160e-001 -9.024225e+001 -7.673968e+001 -1.021854e+002 -5.830398e+001 -1.513020e+002 -5.995467e-001 8.295937e+001
228960156.25 -5.721756e-001 -1.064879e+002 -5.495662e+001 -1.588904e+002 -6.127967e+001 7.934587e+000 -6.558264e-001 6.667973e+001
232078125 -6.130264e-001 -1.229049e+002 -5.512998e+001 1.228369e+002 -5.892494e+001 -8.432222e+001 -6.560197e-001 5.054176e+001
235196093.75 -6.315922e-001 -1.392724e+002 -6.297383e+001 3.054935e+001 -6.888482e+001 9.352654e+001 -6.216173e-001 3.421505e+001
238314062.5 -6.852018e-001 -1.555353e+002 -5.989583e+001 1.451839e+002 -7.048136e+001 -1.178524e+002 -5.909526e-001 1.829747e+001
241432031.25 -7.216593e-001 -1.713872e+002 -5.589258e+001 1.459045e+002 -5.420242e+001 -1.144560e+002 -6.121845e-001 2.307500e+000
244550000 -7.022752e-001 1.725574e+002 -5.429929e+001 9.578606e+001 -6.455919e+001 -1.143671e+002 -5.652964e-001 -1.380012e+001
247667968.75 -6.661745e-001 1.549907e+002 -5.346266e+001 -5.872765e+001 -5.346349e+001 -1.381216e+002 -6.344216e-001 -2.984293e+001
250785937.5 -6.628414e-001 1.387349e+002 -5.666297e+001 1.268377e+001 -5.650148e+001 5.320561e+001 -6.329746e-001 -4.538705e+001
253903906.25 -5.937609e-001 1.226710e+002 -5.297362e+001 9.030332e+001 -7.411115e+001 -3.328065e+001 -6.079494e-001 -6.195372e+001
257021875 -6.046405e-001 1.059472e+002 -5.776877e+001 5.425289e+000 -5.338050e+001 1.552408e+002 -5.858948e-001 -7.832360e+001
260139843.75 -6.213040e-001 8.992626e+001 -6.355191e+001 1.730407e+002 -5.288088e+001 3.060807e+000 -6.014017e-001 -9.455981e+001
263257812.5 -6.793615e-001 7.413296e+001 -5.474291e+001 1.114436e+002 -6.895029e+001 -1.793380e+002 -6.614224e-001 -1.109223e+002
266375781.25 -6.704907e-001 5.745536e+001 -6.863804e+001 1.621276e+002 -5.539482e+001 -1.734352e+002 -8.708368e-001 -1.258253e+002
269493750 -6.555687e-001 4.175772e+001 -7.259545e+001 1.011020e+002 -6.556762e+001 1.282121e+002 -7.712432e-001 -1.420204e+002
272611718.75 -7.010086e-001 2.629964e+001 -5.679013e+001 -7.587870e+001 -5.790561e+001 -6.713977e+001 -7.163380e-001 -1.584378e+002
275729687.5 -7.162372e-001 1.104415e+001 -5.980965e+001 8.143344e+001 -5.586042e+001 -6.125713e+001 -7.343646e-001 -1.747038e+002
278847656.25 -6.768506e-001 -4.931881e+000 -5.630963e+001 -5.182803e+001 -6.259025e+001 -6.248487e+000 -7.324457e-001 1.681352e+002
281965625 -6.332406e-001 -2.084184e+001 -6.374806e+001 -1.222078e+002 -5.588216e+001 -1.201853e+002 -6.540421e-001 1.515265e+002
285083593.75 -6.492045e-001 -3.688684e+001 -6.276138e+001 1.567878e+001 -5.560215e+001 -5.525312e+001 -6.596493e-001 1.352167e+002
288201562.5 -6.722478e-001 -5.311649e+001 -5.393994e+001 -1.415585e+002 -5.603222e+001 1.356615e+002 -7.122307e-001 1.188210e+002
291319531.25 -6.554037e-001 -6.907186e+001 -6.190044e+001 -2.014870e+001 -6.050013e+001 8.032494e+001 -7.557796e-001 1.020004e+002
294437500 -6.367140e-001 -8.526523e+001 -6.170778e+001 -1.025019e+001 -6.151490e+001 -1.458493e+002 -7.481157e-001 8.614391e+001
297555468.75 -6.303308e-001 -1.017393e+002 -6.293311e+001 3.288042e+001 -6.646688e+001 4.068904e+000 -7.303911e-001 6.989802e+001
300673437.5 -6.745713e-001 -1.180385e+002 -6.213103e+001 -2.077411e+001 -6.413276e+001 -1.649872e+002 -7.214224e-001 5.377565e+001
303791406.25 -7.177590e-001 -1.342661e+002 -6.496116e+001 -8.096187e+001 -7.466689e+001 2.530267e+001 -7.627683e-001 3.754552e+001
306909375 -7.262287e-001 -1.506486e+002 -6.203167e+001 -4.913463e+000 -5.846508e+001 1.294482e+002 -7.375890e-001 2.186991e+001
310027343.75 -7.494861e-001 -1.668497e+002 -6.017410e+001 -1.682349e+002 -7.388165e+001 1.446745e+002 -7.531518e-001 5.558122e+000
313145312.5 -7.081788e-001 1.765698e+002 -6.972786e+001 1.018740e+002 -7.069807e+001 -1.256585e+002 -7.418394e-001 -1.010600e+001
316263281.25 -7.363823e-001 1.601271e+002 -6.224137e+001 -9.223070e+001 -6.487602e+001 7.827619e+001 -7.496087e-001 -2.599196e+001
319381250 -7.716582e-001 1.438682e+002 -6.241525e+001 -2.911113e+001 -6.164071e+001 -1.390212e+002 -7.554145e-001 -4.169343e+001
322499218.75 -7.785710e-001 1.274606e+002 -7.058170e+001 8.683476e+001 -6.747244e+001 1.136133e+001 -7.720035e-001 -5.770037e+001
325617187.5 -7.583166e-001 1.114222e+002 -6.661002e+001 -2.279553e+001 -6.611848e+001 -1.688685e+002 -7.425413e-001 -7.384737e+001
328735156.25 -7.664320e-001 9.514866e+001 -6.703777e+001 1.852147e+001 -5.834407e+001 1.796990e+002 -7.889208e-001 -8.994779e+001
331853125 -7.796507e-001 7.921561e+001 -6.166873e+001 -9.710246e+001 -6.047659e+001 -3.995723e+001 -7.608241e-001 -1.062289e+002
334971093.75 -7.522330e-001 6.327674e+001 -6.801785e+001 4.028075e+001 -6.624173e+001 -2.261895e+001 -8.117465e-001 -1.228470e+002
338089062.5 -7.518767e-001 4.765259e+001 -6.991536e+001 -1.734619e+002 -6.389665e+001 7.213088e+001 -7.955019e-001 -1.392965e+002
341207031.25 -7.300066e-001 3.178573e+001 -7.400533e+001 -5.526518e+001 -7.028930e+001 1.596138e+002 -8.040349e-001 -1.556568e+002
344325000 -7.455165e-001 1.559413e+001 -6.276673e+001 5.065778e+001 -6.030942e+001 1.233064e+002 -8.105518e-001 -1.721922e+002
347442968.75 -7.110870e-001 -8.907626e-002 -5.983085e+001 -9.839052e+001 -6.894858e+001 6.771467e+001 -7.832545e-001 1.709791e+002
350560937.5 -6.899745e-001 -1.613944e+001 -6.705246e+001 -7.335115e+001 -7.683604e+001 4.533752e+001 -7.817205e-001 1.544174e+002
353678906.25 -6.992440e-001 -3.213220e+001 -6.599801e+001 -8.637684e+000 -7.473234e+001 -6.001846e+001 -8.010961e-001 1.379663e+002
356796875 -7.226272e-001 -4.802375e+001 -6.202494e+001 -1.147084e+002 -6.969308e+001 8.181932e+001 -8.006514e-001 1.216482e+002
359914843.75 -7.453169e-001 -6.419069e+001 -7.202161e+001 -1.591221e+002 -6.628236e+001 3.536188e+000 -7.672697e-001 1.052966e+002
363032812.5 -7.545096e-001 -8.054620e+001 -6.054351e+001 1.668784e+002 -8.909547e+001 -1.339878e+002 -7.761405e-001 8.924462e+001
366150781.25 -7.699534e-001 -9.693716e+001 -7.024206e+001 4.092685e+001 -7.628627e+001 -7.248895e+001 -7.689936e-001 7.317139e+001
369268750 -7.734679e-001 -1.130686e+002 -7.155640e+001 -1.737155e+002 -6.447577e+001 -3.350072e+001 -7.496356e-001 5.728533e+001
372386718.75 -7.824537e-001 -1.292258e+002 -6.289520e+001 1.483075e+002 -6.153288e+001 1.164909e+002 -7.558733e-001 4.144416e+001
375504687.5 -7.960641e-001 -1.454507e+002 -7.338205e+001 -1.619657e+002 -6.009167e+001 -5.790634e+001 -7.945567e-001 2.577669e+001
378622656.25 -8.356080e-001 -1.619835e+002 -6.812635e+001 -1.353611e+002 -6.042112e+001 -3.279057e+001 -7.908183e-001 9.796347e+000
381740625 -8.277850e-001 -1.781038e+002 -6.217076e+001 -1.545640e+002 -5.901165e+001 -5.881636e+001 -7.840125e-001 -6.141872e+000
384858593.75 -8.284216e-001 1.653074e+002 -7.624572e+001 -1.618544e+002 -6.204958e+001 1.384916e+001 -8.119088e-001 -2.227551e+001
387976562.5 -8.289878e-001 1.490783e+002 -6.048079e+001 -7.390332e+001 -7.225661e+001 5.080212e+001 -8.222578e-001 -3.825265e+001
391094531.25 -8.541058e-001 1.330636e+002 -6.384194e+001 4.806530e+001 -6.385221e+001 7.300775e+001 -8.046289e-001 -5.430143e+001
394212500 -8.321959e-001 1.168366e+002 -6.242717e+001 -8.436359e+001 -6.913815e+001 -6.693816e+001 -8.464940e-001 -7.070126e+001
397330468.75 -8.539544e-001 1.007099e+002 -6.849380e+001 8.165169e+001 -7.119186e+001 3.359974e+001 -8.261037e-001 -8.702992e+001
400448437.5 -8.487086e-001 8.456826e+001 -6.413678e+001 -1.008831e+002 -7.221281e+001 -1.561410e+002 -8.267728e-001 -1.034083e+002
403566406.25 -8.253803e-001 6.842815e+001 -6.266355e+001 7.811851e+000 -5.890534e+001 1.759986e+002 -8.089883e-001 -1.199867e+002
406684375 -7.909825e-001 5.273740e+001 -6.613488e+001 7.143019e+001 -6.439088e+001 3.763893e+001 -8.088740e-001 -1.364321e+002
409802343.75 -7.977860e-001 3.697441e+001 -6.665070e+001 4.249268e-001 -7.064995e+001 1.162723e+002 -8.182204e-001 -1.529930e+002
412920312.5 -7.961426e-001 2.102572e+001 -6.751762e+001 -6.148412e+000 -6.326436e+001 -8.299060e+001 -8.306549e-001 -1.692457e+002
416038281.25 -7.966841e-001 5.361759e+000 -6.589955e+001 -1.495224e+001 -7.216289e+001 8.917056e+001 -8.358996e-001 1.743770e+002
419156250 -8.103991e-001 -1.060955e+001 -6.573215e+001 4.143186e+001 -7.319402e+001 -1.629477e+002 -8.058665e-001 1.579229e+002
422274218.75 -8.041634e-001 -2.653516e+001 -6.340310e+001 1.057764e+002 -6.249710e+001 2.035028e+001 -8.364661e-001 1.418393e+002
425392187.5 -8.373899e-001 -4.266905e+001 -6.077229e+001 1.325058e+002 -7.497401e+001 -1.683055e+002 -8.322384e-001 1.257337e+002
428510156.25 -8.468254e-001 -5.860021e+001 -6.706272e+001 4.325658e+001 -8.227773e+001 -9.264147e+001 -8.535147e-001 1.097467e+002
431628125 -8.441061e-001 -7.487888e+001 -7.450329e+001 1.373616e+002 -6.465214e+001 -3.081904e+001 -8.722556e-001 9.363620e+001
434746093.75 -8.521733e-001 -9.087366e+001 -6.723685e+001 1.021428e+002 -7.270638e+001 2.126798e+001 -8.602988e-001 7.731696e+001
437864062.5 -8.350855e-001 -1.074544e+002 -6.283498e+001 -1.067173e+002 -6.464281e+001 -1.504695e+002 -8.799664e-001 6.114816e+001
440982031.25 -8.918862e-001 -1.239134e+002 -6.785014e+001 -1.550182e+002 -7.355078e+001 1.535202e+002 -8.726451e-001 4.481416e+001
444100000 -9.003033e-001 -1.403708e+002 -6.326755e+001 -3.171589e+001 -7.335387e+001 -1.752650e+002 -8.763329e-001 2.868422e+001
447217968.75 -8.824053e-001 -1.566976e+002 -7.517443e+001 4.165961e+001 -6.885894e+001 -1.291882e+002 -8.947977e-001 1.251000e+001
450335937.5 -8.992412e-001 -1.731305e+002 -7.202380e+001 1.027416e+002 -6.896708e+001 1.757768e+002 -8.256236e-001 -3.560778e+000
453453906.25 -8.998007e-001 1.704985e+002 -6.999636e+001 -1.255243e+002 -6.858868e+001 1.065952e+002 -8.544106e-001 -1.986936e+001
456571875 -8.853669e-001 1.541058e+002 -6.283333e+001 -1.410276e+002 -6.924021e+001 5.112852e+001 -8.667920e-001 -3.581063e+001
459689843.75 -9.048719e-001 1.377742e+002 -6.352503e+001 9.369695e+001 -6.409171e+001 -8.492712e+001 -8.665351e-001 -5.207450e+001
462807812.5 -9.166887e-001 1.215607e+002 -6.303159e+001 -4.393018e+001 -7.069112e+001 3.805330e+001 -8.803980e-001 -6.789722e+001
465925781.25 -9.180681e-001 1.055520e+002 -7.309740e+001 5.632501e+001 -6.588230e+001 3.264673e+001 -8.888204e-001 -8.381732e+001
469043750 -9.486548e-001 8.976116e+001 -7.088751e+001 -1.743008e+001 -6.533624e+001 1.585309e+002 -8.864869e-001 -9.983990e+001
472161718.75 -9.286433e-001 7.354054e+001 -7.348482e+001 -1.196250e+002 -6.725619e+001 1.405280e+000 -8.846332e-001 -1.158274e+002
475279687.5 -8.883998e-001 5.771157e+001 -7.418479e+001 -6.179955e+001 -6.997909e+001 -4.699840e+001 -8.769469e-001 -1.320163e+002
478397656.25 -8.761119e-001 4.182898e+001 -7.062627e+001 -1.323977e+002 -5.976983e+001 4.675669e+001 -8.747161e-001 -1.484416e+002
481515625 -8.678178e-001 2.612704e+001 -6.667390e+001 3.479269e+001 -6.108938e+001 -2.075842e+001 -9.318900e-001 -1.648173e+002
484633593.75 -8.612975e-001 1.038730e+001 -6.756224e+001 -1.203241e+002 -6.505764e+001 5.069665e+001 -9.083259e-001 1.787814e+002
487751562.5 -8.666133e-001 -5.304148e+000 -1.014892e+002 -5.295891e+001 -8.755748e+001 7.730529e+001 -9.366402e-001 1.621672e+002
490869531.25 -8.771144e-001 -2.119142e+001 -6.482041e+001 -4.664754e+001 -7.049423e+001 5.121401e+001 -9.778080e-001 1.456486e+002
493987500 -8.752981e-001 -3.732539e+001 -6.961275e+001 1.631736e+002 -7.249109e+001 -1.154134e+002 -9.783614e-001 1.292361e+002
497105468.75 -8.759336e-001 -5.321907e+001 -7.203708e+001 -1.660178e+002 -6.885630e+001 7.214269e+001 -9.752184e-001 1.127193e+002
500223437.5 -8.638409e-001 -6.954626e+001 -8.048051e+001 -7.743441e+000 -6.468467e+001 1.038911e+002 -9.653921e-001 9.648065e+001
503341406.25 -9.234462e-001 -8.543732e+001 -7.248952e+001 1.359952e+002 -6.613802e+001 1.249674e+002 -9.718522e-001 7.997338e+001
506459375 -9.079885e-001 -1.018774e+002 -6.535751e+001 1.145847e+002 -6.914724e+001 7.935873e+001 -9.699811e-001 6.379747e+001
509577343.75 -9.390045e-001 -1.181781e+002 -6.619088e+001 -4.565768e+001 -6.711014e+001 -1.797339e+002 -9.451065e-001 4.769699e+001
