!Agilent Technologies,E8364A,US41440322,A.04.87.01
!Agilent E8364A: A.04.87.01
!Date: Tuesday, July 16, 2024 13:04:27
!Correction: S11(Full 2 Port SOLT,1,2) S21(Full 2 Port SOLT,1,2) S12(Full 2 Port SOLT,1,2) S22(Full 2 Port SOLT,1,2)
!S2P File: Measurements: S11, S21, S12, S22:
# Hz S  dB   R 50
45000000 2.637152e-001 -5.175907e+001 -4.139579e+001 3.282958e+001 -2.922709e+001 1.424806e+001 -2.505467e-002 1.233924e+002
48117968.75 -5.590455e-002 -6.780577e+001 -3.279038e+001 -5.516921e+001 -3.876410e+001 5.357530e+001 -3.191610e-002 1.082509e+002
51235937.5 -2.735172e-001 -8.466059e+001 -3.745237e+001 6.826057e+001 -3.705924e+001 4.400562e+000 3.492756e-002 9.228757e+001
54353906.25 -3.724000e-001 -1.039975e+002 -3.447637e+001 1.613116e+002 -3.036293e+001 1.094895e+002 -4.625247e-001 7.698916e+001
57471875 -4.448236e-001 -1.198420e+002 -4.126497e+001 4.151318e+000 -3.839701e+001 7.254913e+001 -1.228327e-001 6.024189e+001
60589843.75 -4.007502e-001 -1.376026e+002 -3.590880e+001 2.690484e+001 -3.234095e+001 9.140739e+001 -3.622299e-001 4.332943e+001
63707812.5 -5.243869e-001 -1.532272e+002 -5.544204e+001 -9.267912e+001 -3.795467e+001 -1.010922e+002 -2.033799e-001 2.667810e+001
66825781.25 -4.252949e-001 -1.697986e+002 -3.738683e+001 1.056937e+002 -3.797699e+001 -1.019648e+002 -2.127689e-001 1.209341e+001
69943750 -4.924028e-001 1.735219e+002 -3.643388e+001 -7.611224e+001 -4.607518e+001 -4.735056e+001 -3.778769e-001 -4.817204e+000
73061718.75 -4.606920e-001 1.575668e+002 -3.941781e+001 1.728624e+002 -5.528358e+001 1.447084e+001 -4.281173e-001 -2.023330e+001
76179687.5 -3.022987e-001 1.407687e+002 -4.254815e+001 -8.828532e+001 -5.074338e+001 9.007293e+001 -4.988638e-001 -3.543443e+001
79297656.25 -3.003286e-001 1.243739e+002 -4.379725e+001 6.726425e+001 -5.737436e+001 -6.778304e+001 -3.311870e-001 -5.183263e+001
82415625 -3.454357e-001 1.075250e+002 -4.857059e+001 -1.018149e+000 -4.777299e+001 1.275809e+002 -3.378942e-001 -6.741575e+001
85533593.75 -3.724910e-001 9.083964e+001 -6.676801e+001 -1.136333e+002 -4.874519e+001 6.303886e+001 -2.708440e-001 -8.423510e+001
88651562.5 -4.671796e-001 7.490823e+001 -4.876026e+001 8.992511e+001 -4.134064e+001 -2.639903e+001 -3.385635e-001 -1.005346e+002
91769531.25 -4.649124e-001 5.949348e+001 -4.065190e+001 8.257669e+001 -3.952311e+001 -5.121652e+001 -2.825055e-001 -1.169425e+002
94887500 -4.125226e-001 4.330063e+001 -4.572953e+001 -1.144497e+002 -4.067725e+001 1.697256e+002 -3.114859e-001 -1.322263e+002
98005468.75 -4.672226e-001 2.743731e+001 -4.173776e+001 -1.499091e+002 -4.578283e+001 9.485607e+000 -3.550179e-001 -1.482817e+002
101123437.5 -4.796631e-001 1.204748e+001 -4.525317e+001 -9.255698e+001 -5.824297e+001 8.538315e+001 -4.156963e-001 -1.651860e+002
104241406.25 -4.943605e-001 -4.244650e+000 -4.984243e+001 -4.520188e+000 -4.397816e+001 1.604930e+002 -4.051600e-001 1.788140e+002
107359375 -4.711785e-001 -2.017328e+001 -5.454839e+001 1.318830e+002 -5.243739e+001 1.498372e+002 -4.394929e-001 1.615753e+002
110477343.75 -4.555144e-001 -3.590134e+001 -4.845087e+001 -1.037832e+002 -4.723584e+001 -4.405622e+001 -4.582502e-001 1.453388e+002
113595312.5 -4.045201e-001 -5.209031e+001 -4.985606e+001 -1.782621e+002 -5.112160e+001 -3.598293e+001 -4.217108e-001 1.287397e+002
116713281.25 -3.816555e-001 -6.792970e+001 -4.877530e+001 4.443670e+001 -6.148415e+001 1.608045e+001 -4.272857e-001 1.120539e+002
119831250 -4.504841e-001 -8.407580e+001 -4.846605e+001 -3.350401e+001 -5.405918e+001 -8.652266e+001 -4.628058e-001 9.647050e+001
122949218.75 -4.639541e-001 -1.006426e+002 -7.029139e+001 -1.325288e+002 -6.612659e+001 1.332196e+002 -4.770153e-001 8.050745e+001
126067187.5 -4.431230e-001 -1.170708e+002 -4.628057e+001 1.180195e+002 -5.192889e+001 1.096921e+002 -4.568408e-001 6.473507e+001
129185156.25 -4.490690e-001 -1.332386e+002 -5.155736e+001 5.975798e+001 -5.664080e+001 1.097167e+002 -5.034605e-001 4.837893e+001
132303125 -4.547416e-001 -1.500713e+002 -5.278466e+001 -1.576157e+002 -5.143371e+001 -1.668135e+002 -4.175679e-001 3.225468e+001
135421093.75 -4.776454e-001 -1.665221e+002 -5.343318e+001 3.668456e+001 -5.057737e+001 1.090204e+001 -4.579756e-001 1.650109e+001
138539062.5 -4.937116e-001 1.772057e+002 -5.198205e+001 8.561951e+001 -4.664322e+001 -2.349107e+001 -4.991514e-001 9.852144e-001
141657031.25 -5.904321e-001 1.606073e+002 -4.627668e+001 1.429551e+002 -5.943728e+001 1.752206e+002 -4.335725e-001 -1.508367e+001
144775000 -6.123366e-001 1.441136e+002 -6.081494e+001 -1.783225e+002 -5.519637e+001 -1.500431e+002 -4.312717e-001 -3.100264e+001
147892968.75 -6.617561e-001 1.276389e+002 -5.032155e+001 -1.344206e+002 -5.107567e+001 1.747275e+002 -4.296792e-001 -4.726259e+001
151010937.5 -6.094378e-001 1.114359e+002 -5.037116e+001 1.372531e+002 -5.261139e+001 -1.734279e+002 -4.426689e-001 -6.306079e+001
154128906.25 -5.983821e-001 9.525343e+001 -4.938224e+001 -4.202968e+001 -5.544355e+001 -1.255304e+002 -4.229951e-001 -7.914652e+001
157246875 -6.007509e-001 7.904900e+001 -6.229018e+001 7.993836e+001 -5.094299e+001 3.917323e+001 -4.166371e-001 -9.513223e+001
160364843.75 -5.678716e-001 6.251369e+001 -5.284985e+001 2.285060e+001 -5.503035e+001 1.065320e+002 -4.597914e-001 -1.115364e+002
163482812.5 -5.575753e-001 4.659756e+001 -5.035546e+001 -1.453577e+002 -5.733744e+001 -6.463081e+001 -5.163991e-001 -1.280147e+002
166600781.25 -5.323699e-001 3.087581e+001 -5.908345e+001 1.614012e+002 -6.920876e+001 -7.270306e+001 -4.645244e-001 -1.445013e+002
169718750 -5.515383e-001 1.510511e+001 -6.685899e+001 3.005396e+001 -5.720798e+001 1.370083e+002 -5.204789e-001 -1.608250e+002
172836718.75 -5.307947e-001 -6.461282e-001 -5.828814e+001 -4.655185e+001 -5.110016e+001 1.366747e+002 -5.248368e-001 -1.773405e+002
175954687.5 -4.993929e-001 -1.613142e+001 -7.966108e+001 -8.292242e+001 -5.906432e+001 -1.415609e+002 -5.299839e-001 1.659362e+002
179072656.25 -5.623575e-001 -3.264383e+001 -5.639388e+001 3.329709e+001 -6.291512e+001 9.733664e+001 -5.018634e-001 1.494879e+002
182190625 -5.422261e-001 -4.840374e+001 -5.590108e+001 1.610557e+002 -5.242137e+001 -6.954333e+001 -5.346963e-001 1.332743e+002
185308593.75 -5.585681e-001 -6.424539e+001 -5.455351e+001 8.867720e+001 -6.275927e+001 -1.415000e+002 -4.880380e-001 1.169512e+002
188426562.5 -5.824495e-001 -8.077412e+001 -5.290084e+001 -1.702231e+002 -5.965332e+001 1.234041e+002 -4.734176e-001 1.012695e+002
191544531.25 -5.251934e-001 -9.690708e+001 -5.431609e+001 -1.260477e+002 -6.173272e+001 -1.090424e+001 -4.865362e-001 8.504375e+001
194662500 -5.877670e-001 -1.136748e+002 -5.583143e+001 -1.516915e+002 -6.854818e+001 1.434107e+002 -4.892420e-001 6.927473e+001
197780468.75 -6.467916e-001 -1.300902e+002 -5.350106e+001 -1.522372e+002 -5.307899e+001 -1.434216e+002 -5.077619e-001 5.309169e+001
200898437.5 -6.161530e-001 -1.467368e+002 -6.208905e+001 -9.024074e+001 -5.940065e+001 -1.264774e+002 -5.100762e-001 3.753076e+001
204016406.25 -6.595183e-001 -1.629003e+002 -5.234267e+001 -1.658728e+002 -6.217655e+001 -1.093893e+002 -5.429144e-001 2.151644e+001
207134375 -6.600334e-001 -1.795987e+002 -6.618668e+001 -1.774839e+002 -5.486447e+001 -1.194003e+002 -5.539191e-001 5.558488e+000
210252343.75 -5.985383e-001 1.640331e+002 -5.260296e+001 5.594486e+001 -5.789470e+001 -1.569883e+002 -5.665975e-001 -1.033532e+001
213370312.5 -6.443199e-001 1.474008e+002 -5.668046e+001 -1.657772e+002 -5.861570e+001 -3.261226e+001 -5.438079e-001 -2.634902e+001
216488281.25 -6.729137e-001 1.310869e+002 -5.796325e+001 3.303615e+001 -6.780339e+001 -2.673625e+001 -5.362136e-001 -4.260061e+001
219606250 -6.631242e-001 1.152312e+002 -6.984330e+001 7.548748e+001 -5.454314e+001 1.077771e+002 -5.417284e-001 -5.871860e+001
222724218.75 -7.205873e-001 9.869031e+001 -5.630486e+001 9.700819e+001 -5.701796e+001 1.175857e+002 -5.257252e-001 -7.476830e+001
225842187.5 -6.714866e-001 8.257532e+001 -5.732052e+001 6.097483e+001 -6.867225e+001 -1.439714e+002 -5.797166e-001 -9.102518e+001
228960156.25 -7.011782e-001 6.641750e+001 -7.074252e+001 1.448771e+002 -5.745755e+001 9.183066e+001 -5.481846e-001 -1.072243e+002
232078125 -6.754239e-001 5.062269e+001 -5.603080e+001 -9.204814e+001 -6.536007e+001 -1.436675e+002 -4.916359e-001 -1.236299e+002
235196093.75 -6.951673e-001 3.438870e+001 -6.720234e+001 8.023293e-001 -5.242844e+001 -1.248745e+002 -5.549535e-001 -1.398182e+002
238314062.5 -6.965261e-001 1.839042e+001 -5.663230e+001 6.083682e+001 -5.477200e+001 -1.087594e+002 -5.001343e-001 -1.561863e+002
241432031.25 -7.580163e-001 3.432274e+000 -6.575681e+001 3.940264e+001 -5.147135e+001 -3.024965e+001 -5.068039e-001 -1.725650e+002
244550000 -6.820812e-001 -1.180680e+001 -5.901055e+001 -1.043905e+002 -6.419954e+001 -8.629433e+001 -5.379254e-001 1.711196e+002
247667968.75 -6.213276e-001 -2.859778e+001 -5.959581e+001 -1.676147e+002 -6.898376e+001 -1.650262e+002 -6.104428e-001 1.550722e+002
250785937.5 -6.568985e-001 -4.464554e+001 -5.806474e+001 5.657943e+001 -6.032240e+001 -1.426296e+002 -6.201351e-001 1.386724e+002
253903906.25 -6.956605e-001 -6.079315e+001 -7.340668e+001 -4.491301e+001 -6.614472e+001 -6.127787e+001 -5.842247e-001 1.224083e+002
257021875 -6.644819e-001 -7.739793e+001 -5.874638e+001 1.384911e+002 -5.731808e+001 7.848872e+001 -6.138952e-001 1.056259e+002
260139843.75 -6.606138e-001 -9.375365e+001 -5.483182e+001 1.457606e+002 -5.989351e+001 1.551590e+002 -6.272336e-001 8.913155e+001
263257812.5 -6.179458e-001 -1.096894e+002 -5.128553e+001 1.443506e+002 -6.444325e+001 1.787683e+002 -6.586370e-001 7.362810e+001
266375781.25 -6.710713e-001 -1.276058e+002 -6.590915e+001 -6.953467e+001 -6.148081e+001 -1.207714e+002 -8.288943e-001 5.836716e+001
269493750 -7.097605e-001 -1.434303e+002 -5.926159e+001 -3.056310e+001 -6.477211e+001 -1.789363e+002 -8.765759e-001 4.257187e+001
272611718.75 -7.729000e-001 -1.593449e+002 -5.519156e+001 1.503017e+002 -5.326499e+001 -2.566809e+001 -7.347144e-001 2.616768e+001
275729687.5 -7.846541e-001 -1.755730e+002 -6.136030e+001 8.543178e+001 -5.806421e+001 -1.706325e+002 -6.147558e-001 1.063663e+001
278847656.25 -7.709129e-001 1.680869e+002 -5.604151e+001 2.380370e+001 -5.263878e+001 4.993466e+001 -6.189789e-001 -6.032880e+000
281965625 -7.791501e-001 1.516912e+002 -6.464604e+001 -1.188028e+002 -5.808018e+001 -1.232699e+002 -6.049414e-001 -2.247568e+001
285083593.75 -7.630323e-001 1.351578e+002 -6.025806e+001 -5.822060e+001 -6.021173e+001 -1.638085e+002 -6.201599e-001 -3.835906e+001
288201562.5 -7.645640e-001 1.190239e+002 -6.573614e+001 -2.369537e+001 -6.246427e+001 4.659912e+001 -6.517035e-001 -5.405952e+001
291319531.25 -7.458263e-001 1.024155e+002 -6.055848e+001 -1.591717e+002 -6.563565e+001 -8.251495e+001 -6.819498e-001 -7.022949e+001
294437500 -7.941526e-001 8.629296e+001 -5.485958e+001 5.774690e+001 -7.761959e+001 1.036175e+002 -6.522683e-001 -8.577122e+001
297555468.75 -7.735486e-001 7.021643e+001 -7.252309e+001 -1.101716e+001 -8.878358e+001 -1.791718e+002 -6.676307e-001 -1.022093e+002
300673437.5 -7.616175e-001 5.444004e+001 -5.941689e+001 -9.986559e+001 -6.446368e+001 -1.552338e+002 -6.600324e-001 -1.182848e+002
303791406.25 -7.649961e-001 3.858865e+001 -5.268768e+001 -4.053677e+001 -6.187569e+001 5.850315e+001 -7.089518e-001 -1.344531e+002
306909375 -7.221264e-001 2.249638e+001 -6.483276e+001 -5.611983e+001 -6.613089e+001 3.178932e+001 -7.572546e-001 -1.506428e+002
310027343.75 -7.190395e-001 6.660473e+000 -6.176545e+001 -9.421468e+001 -6.357246e+001 -5.700408e+000 -7.593192e-001 -1.671873e+002
313145312.5 -7.319036e-001 -9.219112e+000 -5.779358e+001 -1.732046e+002 -7.011556e+001 9.386871e+001 -7.525408e-001 1.764276e+002
316263281.25 -7.017421e-001 -2.504252e+001 -7.145927e+001 -1.383528e+002 -5.790639e+001 -1.487913e+002 -7.873333e-001 1.600349e+002
319381250 -7.218001e-001 -4.109818e+001 -6.047170e+001 -7.578982e+001 -5.689140e+001 5.377641e+001 -7.455474e-001 1.431891e+002
322499218.75 -7.321208e-001 -5.702401e+001 -6.304781e+001 1.572690e+002 -6.269863e+001 7.959883e+001 -7.628748e-001 1.267379e+002
325617187.5 -7.359514e-001 -7.326892e+001 -6.936112e+001 -1.295814e+002 -6.263644e+001 -9.144373e+001 -7.765686e-001 1.101545e+002
328735156.25 -7.473131e-001 -8.958971e+001 -6.042348e+001 -1.681801e+002 -5.739680e+001 1.704861e+002 -7.272694e-001 9.402985e+001
331853125 -7.539436e-001 -1.057891e+002 -5.920640e+001 7.046624e-001 -5.992286e+001 1.671521e+002 -7.131138e-001 7.799960e+001
334971093.75 -8.261546e-001 -1.222250e+002 -6.004866e+001 -1.726797e+002 -6.985621e+001 1.585335e+002 -7.046686e-001 6.209774e+001
338089062.5 -8.404757e-001 -1.385632e+002 -6.903654e+001 1.138539e+001 -6.133926e+001 1.713087e+002 -7.083748e-001 4.621082e+001
341207031.25 -8.361104e-001 -1.552019e+002 -6.192790e+001 8.695590e+001 -6.557441e+001 1.569783e+002 -7.170180e-001 3.043800e+001
344325000 -8.238627e-001 -1.717454e+002 -6.062563e+001 2.063927e+001 -6.597216e+001 6.307763e+001 -6.946216e-001 1.488619e+001
347442968.75 -8.212377e-001 1.717515e+002 -6.557830e+001 -1.250132e+002 -6.380205e+001 -2.229333e+001 -7.189726e-001 -1.008216e+000
350560937.5 -8.214530e-001 1.552723e+002 -6.409982e+001 -7.704980e+001 -6.385434e+001 1.691238e+002 -7.105123e-001 -1.674672e+001
353678906.25 -8.278814e-001 1.390473e+002 -6.520777e+001 3.790235e+001 -5.746679e+001 -6.620625e+001 -7.215840e-001 -3.252793e+001
356796875 -8.475860e-001 1.230901e+002 -6.325921e+001 -3.330494e+000 -6.527876e+001 -1.063221e+001 -7.335750e-001 -4.847460e+001
359914843.75 -8.256532e-001 1.069180e+002 -6.692770e+001 -4.312761e+001 -6.559910e+001 -5.273203e+001 -7.689793e-001 -6.448621e+001
363032812.5 -8.100262e-001 9.044206e+001 -6.401143e+001 -7.641986e+001 -6.567295e+001 -1.314039e+002 -7.459175e-001 -8.066821e+001
366150781.25 -8.215902e-001 7.449250e+001 -6.635937e+001 1.364387e+002 -7.186279e+001 -1.029649e+002 -7.381576e-001 -9.698346e+001
369268750 -8.004785e-001 5.836298e+001 -6.437236e+001 1.262704e+002 -6.735616e+001 -1.756014e+002 -7.381989e-001 -1.135518e+002
372386718.75 -7.926786e-001 4.243248e+001 -6.629073e+001 -1.667447e+002 -6.302681e+001 -6.033086e+001 -7.527606e-001 -1.298021e+002
375504687.5 -8.056970e-001 2.632683e+001 -6.890783e+001 -4.733292e+001 -6.489372e+001 1.497444e+002 -7.478777e-001 -1.463412e+002
378622656.25 -8.106086e-001 1.044568e+001 -6.189127e+001 1.666303e+002 -7.208493e+001 1.117379e+002 -7.515019e-001 -1.629799e+002
381740625 -8.276061e-001 -5.539796e+000 -6.668803e+001 -3.193149e+001 -6.723114e+001 -1.711186e+002 -7.772895e-001 -1.792793e+002
384858593.75 -8.313774e-001 -2.135423e+001 -6.147855e+001 3.617830e+001 -6.749897e+001 -1.326846e+002 -7.842274e-001 1.645216e+002
387976562.5 -8.157353e-001 -3.742174e+001 -7.235114e+001 1.346061e+002 -6.934928e+001 5.857563e+001 -7.852879e-001 1.480356e+002
391094531.25 -8.165308e-001 -5.359216e+001 -7.076875e+001 1.406387e+002 -6.515925e+001 -1.700210e+002 -7.853537e-001 1.317555e+002
394212500 -8.053402e-001 -6.966193e+001 -7.403481e+001 5.813370e+001 -5.606646e+001 1.307488e+002 -7.924671e-001 1.157592e+002
397330468.75 -8.456933e-001 -8.606237e+001 -6.078092e+001 -1.017626e+002 -6.973029e+001 1.793931e+002 -7.768629e-001 9.962070e+001
400448437.5 -8.160706e-001 -1.021043e+002 -6.900578e+001 1.769473e+002 -7.140275e+001 1.786054e+002 -8.028461e-001 8.355803e+001
403566406.25 -8.688082e-001 -1.186126e+002 -6.881937e+001 1.000033e+002 -6.978340e+001 7.780608e+001 -7.765331e-001 6.766111e+001
406684375 -8.598034e-001 -1.350724e+002 -8.493881e+001 -4.376283e+001 -6.560181e+001 -1.153876e+002 -7.840063e-001 5.196813e+001
409802343.75 -8.975285e-001 -1.515617e+002 -6.248384e+001 6.492813e+000 -6.869085e+001 1.198378e+002 -7.845553e-001 3.596962e+001
412920312.5 -8.758560e-001 -1.680401e+002 -7.082433e+001 2.243107e+001 -7.066432e+001 6.129879e+001 -7.701256e-001 2.002455e+001
416038281.25 -9.048995e-001 1.752300e+002 -5.954693e+001 -1.403290e+001 -7.298950e+001 8.046734e+001 -8.076751e-001 4.147758e+000
419156250 -9.188857e-001 1.587284e+002 -6.509417e+001 1.488087e+002 -7.251793e+001 6.435352e+001 -7.888240e-001 -1.202146e+001
422274218.75 -9.229889e-001 1.423675e+002 -6.656257e+001 9.562675e+001 -8.492306e+001 1.298393e+002 -7.884308e-001 -2.800031e+001
425392187.5 -9.164063e-001 1.263650e+002 -7.710278e+001 9.752355e+000 -8.659616e+001 -1.000409e+002 -8.055094e-001 -4.427092e+001
428510156.25 -9.146984e-001 1.101344e+002 -6.499493e+001 1.356461e+001 -6.760742e+001 -1.762210e+001 -8.165932e-001 -6.027108e+001
431628125 -9.028011e-001 9.407164e+001 -7.319005e+001 -1.679907e+002 -6.535467e+001 1.702611e+002 -8.156312e-001 -7.644845e+001
434746093.75 -9.264705e-001 7.808762e+001 -6.290841e+001 -9.142478e+001 -6.794589e+001 1.631069e+002 -7.992714e-001 -9.269674e+001
437864062.5 -8.943449e-001 6.209571e+001 -6.497456e+001 -5.332865e+001 -6.138909e+001 -1.140580e+002 -7.869629e-001 -1.086201e+002
440982031.25 -9.110268e-001 4.631277e+001 -7.020988e+001 -1.369900e+002 -6.185359e+001 -5.143691e+000 -7.831210e-001 -1.249090e+002
444100000 -8.690271e-001 3.030064e+001 -7.711871e+001 1.438446e+002 -8.405688e+001 9.450393e+001 -7.693217e-001 -1.411675e+002
447217968.75 -8.947794e-001 1.440734e+001 -6.701355e+001 2.248460e+001 -6.530759e+001 1.142500e+002 -7.837340e-001 -1.573250e+002
450335937.5 -8.548059e-001 -1.486960e+000 -6.586279e+001 5.193974e+001 -7.581956e+001 -6.379477e+001 -8.098651e-001 -1.735415e+002
453453906.25 -8.882442e-001 -1.756657e+001 -6.306081e+001 -1.377286e+002 -7.604503e+001 -5.769607e+001 -8.706745e-001 1.704232e+002
456571875 -8.803625e-001 -3.358578e+001 -6.474832e+001 1.241094e+002 -7.403716e+001 -7.629043e+001 -8.730752e-001 1.540777e+002
459689843.75 -8.752692e-001 -4.949240e+001 -7.199124e+001 -8.373085e+000 -6.349008e+001 9.757619e+001 -8.637559e-001 1.380225e+002
462807812.5 -8.999856e-001 -6.573294e+001 -6.464062e+001 9.085735e+001 -6.898058e+001 7.851783e+001 -8.434796e-001 1.215723e+002
465925781.25 -8.953152e-001 -8.196859e+001 -7.115990e+001 -1.128369e+002 -6.433727e+001 1.490351e+001 -8.689753e-001 1.053272e+002
469043750 -9.055887e-001 -9.834159e+001 -6.311852e+001 -1.277505e+002 -6.355706e+001 9.048826e+001 -8.809587e-001 8.893613e+001
472161718.75 -9.277269e-001 -1.146187e+002 -6.409543e+001 6.438538e+001 -7.452448e+001 1.570072e+002 -8.812897e-001 7.243404e+001
475279687.5 -9.519762e-001 -1.310591e+002 -6.257493e+001 1.538344e+002 -6.966624e+001 1.003320e+002 -8.850939e-001 5.638691e+001
478397656.25 -9.667979e-001 -1.477349e+002 -6.084567e+001 1.389888e+002 -6.543249e+001 -1.154666e+002 -8.841152e-001 4.021349e+001
481515625 -9.559944e-001 -1.641484e+002 -7.485154e+001 -1.188264e+002 -6.894232e+001 -1.087334e+002 -8.835836e-001 2.403430e+001
484633593.75 -9.943143e-001 1.793834e+002 -7.102777e+001 -1.090157e+002 -7.559662e+001 -1.239498e+002 -8.716443e-001 8.085591e+000
487751562.5 -9.538622e-001 1.627053e+002 -6.544327e+001 -6.916356e+001 -6.615301e+001 -1.716608e+002 -8.491808e-001 -7.514211e+000
490869531.25 -9.509385e-001 1.462620e+002 -6.626797e+001 -6.465482e+001 -6.072054e+001 -1.139543e+002 -8.433870e-001 -2.329254e+001
493987500 -9.502819e-001 1.298653e+002 -6.633821e+001 -1.398523e+002 -6.416125e+001 -7.089610e+001 -8.910087e-001 -3.907528e+001
497105468.75 -9.260199e-001 1.138920e+002 -6.692017e+001 -9.598470e+000 -8.299616e+001 1.103153e+002 -8.779271e-001 -5.504566e+001
500223437.5 -9.458027e-001 9.765342e+001 -6.305859e+001 8.259980e+001 -6.253444e+001 -4.384359e+001 -8.943656e-001 -7.067014e+001
503341406.25 -9.550287e-001 8.172395e+001 -6.280806e+001 -6.143873e+001 -6.037775e+001 -8.255069e+000 -9.228275e-001 -8.677691e+001
506459375 -9.563758e-001 6.588479e+001 -6.591669e+001 -5.555975e+001 -7.089627e+001 -1.586619e+002 -9.155773e-001 -1.030111e+002
509577343.75 -9.822253e-001 5.001027e+001 -7.458017e+001 -1.046819e+001 -6.577705e+001 -1.503549e+002 -9.316376e-001 -1.190908e+002
