!Agilent Technologies,E8364A,US41440322,A.04.87.01
!Agilent E8364A: A.04.87.01
!Date: Tuesday, July 16, 2024 12:10:55
!Correction: S11(Full 2 Port SOLT,1,2) S21(Full 2 Port SOLT,1,2) S12(Full 2 Port SOLT,1,2) S22(Full 2 Port SOLT,1,2)
!S2P File: Measurements: S11, S21, S12, S22:
# Hz S  dB   R 50
45000000 1.427422e-002 3.457162e+000 -3.366068e+001 1.612365e+002 -3.210547e+001 -1.790937e+002 3.007170e-002 -1.790477e+002
48117968.75 1.654813e-001 3.540843e+000 -2.724426e+001 1.413807e+002 -3.909061e+001 5.660686e+001 -2.282398e-001 -1.777566e+002
51235937.5 6.297874e-002 5.191755e+000 -3.897706e+001 1.438246e+002 -3.785494e+001 -5.125442e+001 -6.560665e-002 -1.771305e+002
54353906.25 -9.405202e-002 1.079569e+000 -3.703122e+001 6.089351e+001 -4.853137e+001 -2.612890e+001 -9.434290e-002 -1.791514e+002
57471875 -3.207174e-001 1.002547e+000 -4.152040e+001 1.385943e+002 -3.338275e+001 -2.840625e+001 -7.001454e-002 -1.795046e+002
60589843.75 -4.547396e-002 1.864113e+000 -4.804814e+001 -1.167800e+002 -4.017024e+001 1.337318e+002 -7.325216e-002 -1.769328e+002
63707812.5 -8.684529e-002 -5.587897e-001 -3.726957e+001 5.639347e+001 -4.696325e+001 -8.630093e+001 1.347962e-001 -1.781779e+002
66825781.25 -2.090839e-002 3.694840e-001 -4.378051e+001 6.360689e+001 -4.984644e+001 1.674449e+002 -1.076995e-002 -1.790690e+002
69943750 8.273341e-003 1.832247e+000 -5.910557e+001 1.610068e+002 -4.023285e+001 1.914830e+001 8.153532e-002 -1.788244e+002
73061718.75 1.035061e-001 2.172632e+000 -4.743084e+001 1.006912e+001 -4.197480e+001 1.491877e+000 6.928717e-002 -1.781200e+002
76179687.5 4.598047e-002 2.194254e+000 -3.907719e+001 -1.463219e+002 -3.759896e+001 4.539973e+001 -4.778186e-002 -1.792678e+002
79297656.25 -8.659508e-002 2.108222e+000 -4.404830e+001 -1.762748e+002 -3.500750e+001 1.387909e+002 7.677706e-002 -1.785138e+002
82415625 -6.055438e-002 2.523604e+000 -4.385067e+001 1.760647e+002 -4.830801e+001 -1.547991e+002 1.180973e-001 -1.781417e+002
85533593.75 6.398564e-003 2.978480e+000 -4.148996e+001 1.545543e+002 -5.399582e+001 -1.584474e+002 -7.342447e-002 -1.786096e+002
88651562.5 3.471028e-002 3.270896e+000 -5.121337e+001 -1.044753e+002 -3.817336e+001 -1.526008e+002 -8.407924e-002 -1.785607e+002
91769531.25 1.139166e-001 3.018142e+000 -6.819824e+001 1.664266e+002 -4.416110e+001 -8.329418e+001 2.025579e-002 -1.791349e+002
94887500 8.707481e-003 3.072571e+000 -4.870010e+001 1.310662e+002 -4.447013e+001 6.169200e+001 -5.213483e-003 -1.780441e+002
98005468.75 1.726447e-002 3.451719e+000 -5.289770e+001 -1.192234e+002 -4.911528e+001 -6.882993e+001 2.760936e-002 -1.781814e+002
101123437.5 -2.542029e-002 3.307124e+000 -5.037244e+001 -3.754458e+000 -4.934381e+001 -1.495411e+002 2.481939e-002 -1.781888e+002
104241406.25 2.592809e-002 3.613056e+000 -4.094498e+001 1.173448e+002 -4.564533e+001 -1.133833e+002 2.239203e-002 -1.782323e+002
107359375 2.000532e-002 3.445932e+000 -4.801508e+001 -1.795347e+001 -4.595709e+001 -1.201413e+001 -4.008135e-002 -1.780884e+002
110477343.75 9.693369e-003 3.962491e+000 -4.860300e+001 1.064368e+002 -6.117902e+001 -3.491307e+001 -3.451602e-002 -1.778472e+002
113595312.5 -4.346818e-002 4.055093e+000 -4.507022e+001 5.495836e+001 -5.656760e+001 -7.175285e+001 -1.966232e-002 -1.781859e+002
116713281.25 4.738027e-002 4.507349e+000 -5.279066e+001 1.790243e+002 -7.154802e+001 -9.988873e+000 2.995594e-002 -1.782827e+002
119831250 5.444933e-002 4.152604e+000 -5.971682e+001 -8.178790e+001 -5.893638e+001 1.471224e+002 5.230588e-002 -1.779070e+002
122949218.75 5.928205e-002 4.330147e+000 -4.894852e+001 -1.398754e+002 -5.580556e+001 -1.154576e+002 3.062823e-002 -1.780885e+002
126067187.5 8.199775e-002 4.291917e+000 -5.734960e+001 4.256443e+001 -4.891628e+001 1.672165e+002 3.347945e-002 -1.780296e+002
129185156.25 2.770078e-002 4.465813e+000 -6.551461e+001 -6.272035e+001 -5.478576e+001 9.888591e+001 3.980913e-002 -1.781259e+002
132303125 4.679353e-002 4.502248e+000 -6.044244e+001 -1.360189e+002 -6.498036e+001 1.746501e+002 2.483023e-002 -1.782064e+002
135421093.75 2.270976e-002 4.866313e+000 -5.785660e+001 -1.555859e+002 -7.923823e+001 -1.072264e+002 9.275001e-003 -1.781744e+002
138539062.5 1.325815e-002 4.882880e+000 -6.024380e+001 -1.449822e+002 -5.530368e+001 7.616239e+000 -4.025378e-002 -1.782103e+002
141657031.25 1.248157e-002 4.789042e+000 -4.347570e+001 1.343970e+002 -5.052484e+001 1.799536e+002 4.859309e-002 -1.780326e+002
144775000 9.098539e-003 4.818870e+000 -5.551540e+001 -1.667278e+002 -5.422473e+001 -6.529878e+001 4.878842e-002 -1.783174e+002
147892968.75 3.079903e-002 5.043203e+000 -5.896982e+001 5.133169e+001 -6.575526e+001 1.655939e+002 -6.028459e-003 -1.782500e+002
151010937.5 6.103282e-002 5.082680e+000 -5.330020e+001 -7.459286e+001 -5.122805e+001 -7.510473e+001 4.647422e-002 -1.779618e+002
154128906.25 6.856206e-002 5.396869e+000 -5.394862e+001 -4.037647e+000 -5.406406e+001 1.572272e+002 1.056636e-002 -1.779514e+002
157246875 2.874163e-002 5.495517e+000 -5.558660e+001 -1.500985e+002 -4.875835e+001 -3.423242e+001 -4.139525e-002 -1.783147e+002
160364843.75 2.248172e-002 5.525551e+000 -6.061043e+001 -1.519965e+002 -5.548421e+001 9.606749e+001 1.219555e-003 -1.781217e+002
163482812.5 1.382800e-002 5.402616e+000 -5.824406e+001 -1.757186e+002 -5.669896e+001 1.595387e+002 1.073457e-003 -1.779410e+002
166600781.25 5.631173e-003 5.484608e+000 -5.518823e+001 4.911599e+001 -5.389540e+001 -2.397990e+001 8.823502e-003 -1.779781e+002
169718750 3.240674e-003 5.464334e+000 -5.638361e+001 3.299844e+000 -6.031330e+001 -1.526565e+002 1.842424e-002 -1.780493e+002
172836718.75 6.017181e-003 5.685765e+000 -5.440857e+001 8.288453e+000 -5.273557e+001 1.163813e+002 1.873979e-002 -1.778841e+002
175954687.5 4.232090e-002 5.868417e+000 -5.196193e+001 8.622058e+001 -5.010138e+001 -7.800983e+001 -2.202223e-002 -1.777779e+002
179072656.25 -2.644490e-002 6.090267e+000 -6.263088e+001 9.166328e+001 -5.467685e+001 1.445082e+001 -2.867214e-002 -1.777132e+002
182190625 1.395410e-002 6.008428e+000 -6.232224e+001 -9.851049e+000 -5.765127e+001 1.439380e+002 -1.784143e-002 -1.776826e+002
185308593.75 -9.216603e-003 6.161632e+000 -5.515180e+001 -1.598467e+002 -5.483614e+001 -1.423158e+002 -7.337497e-002 -1.777445e+002
188426562.5 4.772001e-002 6.543291e+000 -5.721333e+001 4.907745e+001 -5.420356e+001 -1.603555e+002 -1.490065e-002 -1.773330e+002
191544531.25 2.430887e-002 6.515862e+000 -5.427585e+001 8.550844e+001 -5.667065e+001 1.629120e+002 1.047393e-002 -1.774869e+002
194662500 1.562072e-003 6.730175e+000 -5.612318e+001 5.179268e+001 -5.454754e+001 -1.631627e+002 2.263148e-002 -1.775833e+002
197780468.75 1.089900e-002 6.806789e+000 -5.562459e+001 -9.809746e+000 -6.463879e+001 6.044476e+001 -2.929540e-002 -1.775234e+002
200898437.5 -1.683035e-002 6.801419e+000 -5.402757e+001 1.491720e+001 -6.119296e+001 6.527325e+001 -1.298001e-002 -1.774426e+002
204016406.25 1.196102e-002 6.911236e+000 -5.715872e+001 1.408533e+002 -5.685514e+001 -8.563379e+000 7.062786e-003 -1.772568e+002
207134375 5.942747e-003 7.213350e+000 -5.091361e+001 1.439358e+002 -6.287577e+001 -1.591437e+001 5.440891e-002 -1.773658e+002
210252343.75 -3.981539e-002 7.208763e+000 -5.372116e+001 -1.259894e+002 -6.270328e+001 -1.485101e+002 3.945715e-002 -1.774612e+002
213370312.5 6.784497e-002 7.188913e+000 -4.967390e+001 -1.050494e+002 -6.592792e+001 1.483212e+001 3.247511e-002 -1.774937e+002
216488281.25 -5.443228e-004 7.012394e+000 -5.521982e+001 2.636089e+001 -5.433362e+001 -5.911752e+001 6.030332e-002 -1.774071e+002
219606250 -6.851237e-003 7.151123e+000 -5.485812e+001 1.055650e+002 -5.598655e+001 1.287678e+002 8.579154e-003 -1.776714e+002
222724218.75 -9.319600e-003 7.501569e+000 -5.056374e+001 -4.166439e+001 -5.590497e+001 -5.720453e+001 3.590321e-002 -1.777278e+002
225842187.5 -3.483681e-003 7.555849e+000 -6.133269e+001 7.233608e+001 -6.479099e+001 3.386205e+001 1.609458e-002 -1.776573e+002
228960156.25 -1.714392e-002 7.797578e+000 -6.451574e+001 7.429824e+001 -6.219519e+001 -1.124343e+002 1.560915e-002 -1.776518e+002
232078125 -1.957393e-002 7.672087e+000 -6.908482e+001 -9.899163e+001 -5.951696e+001 -4.599561e+001 2.419995e-002 -1.774756e+002
235196093.75 -1.967614e-002 7.854975e+000 -6.299772e+001 1.754088e+002 -5.906197e+001 -1.140974e+002 1.286858e-001 -1.773822e+002
238314062.5 -2.691070e-002 7.830932e+000 -5.387370e+001 1.745670e+002 -5.241000e+001 -6.520416e+001 2.951556e-002 -1.773557e+002
241432031.25 -7.034178e-002 8.772593e+000 -6.389485e+001 2.639468e+000 -5.480181e+001 -1.681459e+002 1.011113e-001 -1.771492e+002
244550000 -6.640607e-002 9.194415e+000 -5.934836e+001 1.211267e+002 -5.671059e+001 3.158749e+001 7.640822e-002 -1.774035e+002
247667968.75 7.596876e-003 8.574944e+000 -6.583574e+001 1.719788e+002 -5.349865e+001 -1.351084e+002 7.900952e-003 -1.773524e+002
250785937.5 3.233755e-003 8.316273e+000 -5.759184e+001 -6.079802e+001 -6.398053e+001 -7.656135e+001 1.551440e-002 -1.767078e+002
253903906.25 1.683966e-002 8.422544e+000 -6.116954e+001 9.991996e+001 -6.600060e+001 1.099729e+001 3.100915e-002 -1.767339e+002
257021875 1.185672e-002 8.358582e+000 -5.607203e+001 7.882809e+001 -5.910632e+001 1.507685e+002 4.823906e-002 -1.775695e+002
260139843.75 7.855332e-002 8.301199e+000 -5.661835e+001 6.433630e+001 -5.481931e+001 -5.971066e+001 2.197724e-002 -1.774881e+002
263257812.5 7.425730e-003 8.647137e+000 -5.284157e+001 -1.171407e+002 -5.704118e+001 -1.389489e+002 -3.473848e-002 -1.765795e+002
266375781.25 2.574387e-002 8.049755e+000 -6.215788e+001 1.725471e+002 -6.257721e+001 1.251413e+002 -1.618351e-001 -1.758525e+002
269493750 -1.841062e-002 8.285494e+000 -6.754489e+001 8.202012e+001 -5.666679e+001 -3.995819e+001 -1.017267e-001 -1.755475e+002
272611718.75 -2.490356e-002 9.234141e+000 -6.612516e+001 -4.881845e+001 -5.690816e+001 5.336324e+001 -1.098544e-002 -1.756034e+002
275729687.5 -4.351032e-002 9.744518e+000 -5.994933e+001 7.722931e+000 -7.666454e+001 -3.413332e+001 1.718102e-002 -1.755708e+002
278847656.25 -4.794410e-002 9.729144e+000 -5.863206e+001 -1.228318e+002 -7.628219e+001 1.484719e+002 1.060958e-002 -1.760766e+002
281965625 -2.367331e-002 1.015403e+001 -6.255850e+001 -6.093369e+001 -7.161269e+001 1.511478e+002 7.790747e-002 -1.761496e+002
285083593.75 1.556595e-002 1.007436e+001 -5.315582e+001 -1.197306e+002 -6.239381e+001 -7.926760e+001 3.626245e-002 -1.761722e+002
288201562.5 4.203029e-003 9.895301e+000 -5.523575e+001 1.029705e+002 -6.851028e+001 -1.047580e+002 2.147853e-002 -1.764799e+002
291319531.25 -2.172472e-002 9.931078e+000 -6.108052e+001 -2.445762e+001 -6.480639e+001 1.325805e+002 3.037432e-002 -1.764945e+002
294437500 -2.417156e-002 1.002313e+001 -6.120392e+001 -1.073645e+002 -6.044937e+001 1.945901e+001 2.907392e-002 -1.762804e+002
297555468.75 1.137228e-002 1.032637e+001 -5.889464e+001 -1.336237e+002 -6.228036e+001 5.016735e+001 2.263749e-002 -1.761474e+002
300673437.5 2.275751e-002 1.023214e+001 -6.743864e+001 -1.211186e+001 -5.886861e+001 -1.299295e+001 1.255516e-002 -1.760332e+002
303791406.25 1.333957e-002 1.055329e+001 -6.473076e+001 -6.290160e-001 -6.688091e+001 -4.624015e+001 2.924213e-002 -1.760871e+002
306909375 -7.177775e-003 1.059293e+001 -5.996674e+001 3.033417e+000 -6.179244e+001 -1.313871e+001 -3.169434e-002 -1.759988e+002
310027343.75 -1.608547e-002 1.078963e+001 -6.379636e+001 -1.324448e+002 -7.059319e+001 5.843100e+001 1.692023e-004 -1.759687e+002
313145312.5 -2.199798e-003 1.081285e+001 -6.723204e+001 -4.627906e+001 -6.131554e+001 -3.510102e+001 -2.081225e-002 -1.758747e+002
316263281.25 1.553988e-002 1.086210e+001 -6.152825e+001 1.029377e+002 -6.115216e+001 1.666252e+002 -1.894491e-002 -1.757649e+002
319381250 -1.010013e-002 1.111576e+001 -6.019973e+001 -4.413901e+001 -6.131600e+001 1.872554e+001 -1.103785e-002 -1.758345e+002
322499218.75 2.083113e-002 1.119168e+001 -6.538616e+001 -9.961037e+001 -6.306711e+001 4.609454e+000 6.201546e-002 -1.760070e+002
325617187.5 2.786325e-002 1.109728e+001 -6.469230e+001 -5.911390e+001 -5.800640e+001 1.609404e+002 2.035129e-002 -1.760678e+002
328735156.25 3.495276e-002 1.128964e+001 -7.438005e+001 -8.113624e+001 -6.331406e+001 -7.835574e+000 2.023065e-002 -1.760964e+002
331853125 2.516125e-003 1.146825e+001 -6.453699e+001 -1.437832e+002 -6.399175e+001 -9.136811e+001 8.203385e-003 -1.759197e+002
334971093.75 1.391285e-002 1.159854e+001 -5.790669e+001 -1.769905e+002 -6.095052e+001 -1.643977e+002 1.369815e-002 -1.759288e+002
338089062.5 9.227648e-004 1.179682e+001 -6.628042e+001 1.594046e+002 -5.562503e+001 -7.032784e+001 -1.062164e-002 -1.760227e+002
341207031.25 -1.897836e-002 1.175847e+001 -6.088357e+001 -1.031545e+002 -5.943923e+001 -1.613880e+001 2.160469e-002 -1.759512e+002
344325000 1.043660e-002 1.171530e+001 -8.584822e+001 9.716756e+001 -7.140079e+001 -8.185590e+001 2.686472e-002 -1.757466e+002
347442968.75 2.445039e-002 1.183998e+001 -6.465607e+001 -1.159099e+002 -6.229565e+001 3.526028e+001 3.101375e-002 -1.757554e+002
350560937.5 2.906730e-002 1.184877e+001 -6.501328e+001 1.150556e+001 -7.006107e+001 -1.133361e+001 4.123381e-002 -1.759404e+002
353678906.25 2.019160e-002 1.211015e+001 -6.374004e+001 -5.743508e+001 -8.020905e+001 -1.755802e+002 5.385014e-003 -1.757110e+002
356796875 3.076085e-002 1.229405e+001 -5.872511e+001 -7.587771e+001 -6.223960e+001 -8.626696e+001 1.465325e-002 -1.758927e+002
359914843.75 2.721478e-002 1.229481e+001 -7.020085e+001 -1.582394e+002 -6.521700e+001 1.188462e+002 3.432434e-002 -1.758328e+002
363032812.5 2.985284e-002 1.264308e+001 -6.759387e+001 8.318967e+001 -6.756943e+001 -6.676012e+001 2.916603e-002 -1.758870e+002
366150781.25 5.766681e-003 1.248689e+001 -6.309980e+001 -1.307010e+002 -6.470995e+001 -4.197342e+000 2.246971e-002 -1.758417e+002
369268750 3.311345e-003 1.256261e+001 -6.732159e+001 1.541280e+002 -6.592854e+001 -4.411462e+001 4.220313e-002 -1.758100e+002
372386718.75 -1.243037e-002 1.286008e+001 -6.061258e+001 -1.547709e+002 -6.447357e+001 -1.008651e+002 5.412598e-002 -1.757402e+002
375504687.5 2.671741e-002 1.312000e+001 -7.084262e+001 4.984311e+001 -7.221999e+001 -6.044278e+001 2.441529e-002 -1.759532e+002
378622656.25 4.294452e-003 1.301972e+001 -5.767297e+001 -8.875443e+001 -7.109485e+001 6.742252e+001 3.145997e-002 -1.759043e+002
381740625 -1.164639e-002 1.319555e+001 -5.947299e+001 -2.438171e+001 -6.201232e+001 8.282964e+001 1.297447e-002 -1.756516e+002
384858593.75 -2.131243e-002 1.323791e+001 -6.605325e+001 -4.494627e+001 -6.632773e+001 1.710621e+002 1.917136e-002 -1.754551e+002
387976562.5 -5.221046e-002 1.343245e+001 -6.042250e+001 1.224080e+002 -6.715697e+001 3.980364e+000 3.716709e-003 -1.754500e+002
391094531.25 -4.632827e-002 1.348430e+001 -6.945800e+001 7.832249e+001 -7.168555e+001 -1.489617e+002 1.914470e-002 -1.756154e+002
394212500 -1.397791e-002 1.361047e+001 -8.239019e+001 -1.302320e+002 -6.290950e+001 -1.822013e+001 5.975261e-003 -1.755984e+002
397330468.75 -2.651622e-002 1.370470e+001 -6.169440e+001 1.636324e+002 -6.653735e+001 -1.772682e+002 5.816404e-002 -1.755160e+002
400448437.5 -1.909634e-002 1.405942e+001 -7.342890e+001 -7.898627e+001 -6.255939e+001 6.582773e+001 2.045654e-002 -1.754530e+002
403566406.25 -2.031115e-002 1.411106e+001 -6.814322e+001 -8.976681e+001 -6.028770e+001 -6.934528e+001 3.382502e-002 -1.754425e+002
406684375 5.786246e-003 1.402623e+001 -6.691895e+001 -1.046119e+002 -8.158079e+001 -5.038302e+001 4.588777e-002 -1.754775e+002
409802343.75 -1.513040e-002 1.403003e+001 -5.897479e+001 1.473321e+002 -6.042217e+001 -9.419132e+001 2.120127e-002 -1.753499e+002
412920312.5 -2.005640e-002 1.407843e+001 -6.602538e+001 1.322261e+002 -6.860863e+001 1.165072e+002 6.286152e-002 -1.752302e+002
416038281.25 -1.611729e-003 1.417629e+001 -6.919519e+001 -1.575559e+002 -6.607196e+001 9.168735e+001 7.275967e-002 -1.751236e+002
419156250 -1.962531e-002 1.430166e+001 -7.439948e+001 -3.931886e+001 -6.889521e+001 1.690306e+002 4.632610e-002 -1.751333e+002
422274218.75 -1.647456e-002 1.441490e+001 -6.773421e+001 -6.111174e+001 -6.825250e+001 4.188847e+001 5.811881e-002 -1.750856e+002
425392187.5 -2.350530e-002 1.450386e+001 -6.393042e+001 -1.370974e+002 -6.875476e+001 -1.215073e+002 3.111528e-002 -1.749521e+002
428510156.25 -4.353131e-002 1.474635e+001 -6.780371e+001 2.607783e+001 -7.028657e+001 -9.163332e+001 4.755365e-002 -1.749315e+002
431628125 -3.657518e-002 1.475845e+001 -6.358269e+001 -1.346883e+002 -7.020261e+001 -1.416148e+002 1.752162e-002 -1.747570e+002
434746093.75 -3.792528e-002 1.508752e+001 -5.897337e+001 5.187268e+001 -6.371579e+001 5.573527e+001 2.630205e-002 -1.748108e+002
437864062.5 -4.039341e-002 1.498341e+001 -6.733749e+001 -1.068682e+002 -6.774738e+001 1.043767e+002 4.429924e-002 -1.748475e+002
440982031.25 -2.842849e-002 1.501642e+001 -6.460516e+001 1.446770e+002 -7.696774e+001 -1.656059e+002 2.816729e-002 -1.746843e+002
444100000 -3.640588e-002 1.518525e+001 -7.269624e+001 -5.585141e+001 -6.966019e+001 8.436266e+001 4.289855e-002 -1.746513e+002
447217968.75 -5.690757e-002 1.532872e+001 -6.505287e+001 -1.327097e+002 -6.393650e+001 1.169016e+002 4.563423e-002 -1.745994e+002
450335937.5 -4.287731e-002 1.565167e+001 -6.938128e+001 -1.243168e+002 -7.127103e+001 -3.054059e+001 2.444915e-002 -1.748004e+002
453453906.25 -2.439296e-002 1.558486e+001 -6.463541e+001 1.102216e+002 -6.919320e+001 -8.717490e+001 2.300136e-002 -1.745954e+002
456571875 -3.421669e-002 1.554969e+001 -6.174587e+001 1.797521e+002 -6.247804e+001 -9.676572e+001 9.738824e-003 -1.744671e+002
459689843.75 -5.095934e-002 1.559093e+001 -6.455576e+001 1.198862e+002 -6.570910e+001 3.693931e+001 1.154408e-002 -1.742333e+002
462807812.5 -6.009901e-002 1.567210e+001 -7.861888e+001 -9.132181e+001 -7.019077e+001 1.273167e+002 -2.609057e-004 -1.742044e+002
465925781.25 -4.092819e-002 1.601869e+001 -7.874741e+001 -1.350950e+002 -7.540318e+001 2.836342e+001 1.884652e-002 -1.739200e+002
469043750 -3.719127e-002 1.625170e+001 -6.135468e+001 -1.538395e+002 -6.540073e+001 -1.206297e+002 1.542820e-002 -1.738782e+002
472161718.75 -2.671110e-002 1.619953e+001 -6.383254e+001 1.077981e+002 -6.307635e+001 -2.385842e+001 8.752077e-003 -1.738962e+002
475279687.5 -5.083735e-002 1.637775e+001 -6.193545e+001 -6.565435e+001 -7.126161e+001 -6.090825e+001 2.196595e-002 -1.738176e+002
478397656.25 -2.308102e-002 1.653503e+001 -6.255694e+001 6.344001e+001 -6.560660e+001 -3.274021e+001 1.691646e-002 -1.737489e+002
481515625 -4.555701e-002 1.652046e+001 -7.283429e+001 3.208382e+001 -6.267822e+001 -9.717754e+001 5.244309e-002 -1.738659e+002
484633593.75 -1.816249e-002 1.658621e+001 -6.331124e+001 1.341964e+002 -6.664340e+001 -1.599141e+002 9.161872e-003 -1.738629e+002
487751562.5 -1.124492e-002 1.680774e+001 -7.710300e+001 6.719449e+001 -6.630929e+001 -7.905833e+001 2.619609e-002 -1.736866e+002
490869531.25 -1.871626e-002 1.690504e+001 -7.885361e+001 1.006303e+002 -6.266337e+001 -1.607196e+002 1.835158e-002 -1.737578e+002
493987500 -2.228075e-002 1.694603e+001 -6.745869e+001 1.365055e+002 -6.797730e+001 -1.611694e+002 9.193099e-003 -1.734626e+002
497105468.75 -1.817136e-002 1.710645e+001 -7.366039e+001 4.089516e+001 -7.343301e+001 1.255422e+002 1.933398e-002 -1.734485e+002
500223437.5 -1.804306e-002 1.705493e+001 -7.320725e+001 -8.426430e+001 -7.241882e+001 1.700920e+001 -9.609285e-004 -1.735314e+002
503341406.25 -1.216367e-002 1.732706e+001 -6.888281e+001 -9.562799e+000 -7.575046e+001 -2.855601e+001 6.106754e-003 -1.733404e+002
506459375 -2.821207e-002 1.752064e+001 -7.091158e+001 5.155791e+001 -7.873744e+001 -1.678425e+002 2.851625e-002 -1.735367e+002
509577343.75 -3.262939e-002 1.753093e+001 -7.322095e+001 -3.913472e+001 -6.752417e+001 5.974640e+001 1.196866e-002 -1.735425e+002
512695312.5 -3.467029e-002 1.775035e+001 -6.520072e+001 4.551005e+001 -6.427336e+001 4.593609e+000 3.911151e-002 -1.734787e+002
