!Agilent Technologies,E8364A,US41440322,A.04.87.01
!Agilent E8364A: A.04.87.01
!Date: Tuesday, July 16, 2024 13:08:44
!Correction: S11(Full 2 Port SOLT,1,2) S21(Full 2 Port SOLT,1,2) S12(Full 2 Port SOLT,1,2) S22(Full 2 Port SOLT,1,2)
!S2P File: Measurements: S11, S21, S12, S22:
# Hz S  dB   R 50
45000000 -2.662234e+001 1.012719e+002 3.906165e-002 1.273621e+002 -3.560905e-001 1.234551e+002 -3.827435e+001 -1.772031e+002
48117968.75 -2.847097e+001 5.375665e+001 -4.160496e-001 1.114696e+002 -1.474688e-001 1.080689e+002 -3.198149e+001 -1.789952e+002
51235937.5 -3.190006e+001 1.898966e+001 -2.835742e-001 9.370986e+001 -9.039433e-002 9.317994e+001 -2.314617e+001 -1.395831e+002
54353906.25 -3.899839e+001 6.105700e+001 -3.766838e-001 7.742461e+001 -4.343839e-001 7.513214e+001 -3.370895e+001 -8.176940e+001
57471875 -4.136230e+001 -1.563824e+002 -4.050522e-001 6.064701e+001 -2.283505e-001 5.775057e+001 -3.522839e+001 6.440316e+001
60589843.75 -4.334660e+001 -1.262368e+002 -4.668933e-001 4.264037e+001 -2.467062e-001 4.215240e+001 -3.432269e+001 -1.611939e+001
63707812.5 -4.460058e+001 1.367725e+001 -5.744179e-001 2.635163e+001 -6.000227e-002 2.707615e+001 -3.590652e+001 -5.217616e+001
66825781.25 -4.226510e+001 4.838215e+001 -3.428902e-001 1.070589e+001 -3.265366e-001 1.038199e+001 -3.998542e+001 1.504223e+002
69943750 -3.798486e+001 -6.462533e+001 -2.634663e-001 -4.631496e+000 -4.098216e-001 -5.092471e+000 -5.570577e+001 -1.169180e+002
73061718.75 -4.112820e+001 9.350928e+001 -3.328000e-001 -2.120069e+001 -3.474896e-001 -2.220462e+001 -3.169150e+001 5.510153e+001
76179687.5 -3.286737e+001 4.475729e+001 -3.678814e-001 -3.790197e+001 -4.013027e-001 -3.796663e+001 -3.059149e+001 9.685841e+000
79297656.25 -3.723578e+001 2.308893e+001 -4.065835e-001 -5.430844e+001 -3.992184e-001 -5.479357e+001 -3.179007e+001 4.615510e+000
82415625 -3.174954e+001 9.962499e+000 -3.465094e-001 -6.960863e+001 -4.076943e-001 -7.070659e+001 -3.084645e+001 -1.052355e+000
85533593.75 -2.862526e+001 -1.563502e+001 -4.191928e-001 -8.625955e+001 -4.140055e-001 -8.663102e+001 -3.232577e+001 -2.494693e+001
88651562.5 -3.176630e+001 -4.155797e+001 -4.450388e-001 -1.016607e+002 -3.434102e-001 -1.028106e+002 -3.348822e+001 -7.593542e+001
91769531.25 -3.859766e+001 -4.197227e+001 -3.567001e-001 -1.178922e+002 -3.771903e-001 -1.186645e+002 -3.181542e+001 -1.104532e+002
94887500 -4.023904e+001 -4.188443e+001 -4.244201e-001 -1.341459e+002 -3.206035e-001 -1.350316e+002 -3.415293e+001 -9.457485e+001
98005468.75 -3.897918e+001 -3.685945e+001 -4.878592e-001 -1.506573e+002 -3.821004e-001 -1.514799e+002 -5.672063e+001 -3.924822e+001
101123437.5 -4.246871e+001 -3.104548e+001 -4.245479e-001 -1.672763e+002 -3.978709e-001 -1.674883e+002 -4.281989e+001 -3.540170e+001
104241406.25 -3.994576e+001 3.344816e+001 -4.351313e-001 1.770342e+002 -3.798368e-001 1.760658e+002 -4.627737e+001 6.702628e+001
107359375 -3.579362e+001 -2.945114e+000 -4.196974e-001 1.610644e+002 -3.730014e-001 1.600847e+002 -4.190903e+001 6.229168e+001
110477343.75 -4.339301e+001 1.930227e+001 -4.367320e-001 1.442480e+002 -4.268399e-001 1.437985e+002 -3.669408e+001 -5.480663e+000
113595312.5 -3.621399e+001 2.998478e+000 -4.244848e-001 1.282489e+002 -4.314749e-001 1.271914e+002 -3.626622e+001 -2.931293e+001
116713281.25 -3.545728e+001 -2.857976e+000 -4.050491e-001 1.117945e+002 -4.623852e-001 1.113342e+002 -3.144313e+001 -1.770800e+000
119831250 -3.559324e+001 -2.377253e+001 -4.141845e-001 9.537313e+001 -4.133824e-001 9.515876e+001 -3.532985e+001 -2.055052e+001
122949218.75 -3.528160e+001 -3.663617e+001 -4.815240e-001 7.974043e+001 -4.386443e-001 7.900140e+001 -3.745534e+001 -4.595567e+001
126067187.5 -3.453401e+001 -1.396080e+001 -4.409818e-001 6.309286e+001 -4.822945e-001 6.261015e+001 -3.923664e+001 -7.837191e+001
129185156.25 -4.108955e+001 -2.016451e+001 -4.505951e-001 4.693491e+001 -4.350376e-001 4.619587e+001 -3.857774e+001 -1.043887e+002
132303125 -4.383814e+001 -5.560593e+001 -4.578080e-001 3.065349e+001 -4.234762e-001 3.054525e+001 -4.662016e+001 9.498461e+001
135421093.75 -5.136110e+001 1.460156e+001 -4.599547e-001 1.426685e+001 -4.564806e-001 1.411429e+001 -4.397820e+001 7.015616e+001
138539062.5 -3.781990e+001 4.673119e+001 -4.448039e-001 -1.694429e+000 -4.456901e-001 -1.960739e+000 -3.870181e+001 4.792501e+001
141657031.25 -3.664139e+001 1.330430e+001 -4.796403e-001 -1.771969e+001 -4.905514e-001 -1.815911e+001 -3.736076e+001 4.561328e+001
144775000 -3.452423e+001 1.656420e+001 -4.619076e-001 -3.415343e+001 -4.762954e-001 -3.439323e+001 -3.677337e+001 1.987600e+001
147892968.75 -3.365192e+001 8.970770e+000 -4.773730e-001 -5.020208e+001 -4.957041e-001 -5.071536e+001 -3.495676e+001 9.374748e+000
151010937.5 -3.272546e+001 -1.158125e+001 -5.475401e-001 -6.641970e+001 -4.905092e-001 -6.653896e+001 -3.503880e+001 -8.393023e+000
154128906.25 -3.266082e+001 -2.880111e+001 -5.217128e-001 -8.250402e+001 -5.400677e-001 -8.273520e+001 -3.418436e+001 -3.623929e+001
157246875 -3.385104e+001 -3.171914e+001 -5.542336e-001 -9.893249e+001 -5.010033e-001 -9.935348e+001 -3.423626e+001 -4.641928e+001
160364843.75 -3.412864e+001 -4.661232e+001 -5.388898e-001 -1.150035e+002 -4.976567e-001 -1.154389e+002 -3.522074e+001 -4.554472e+001
163482812.5 -3.779350e+001 -5.737609e+001 -5.352680e-001 -1.312686e+002 -5.212013e-001 -1.316641e+002 -4.016956e+001 -5.230500e+001
166600781.25 -3.847116e+001 -6.786427e+001 -5.336042e-001 -1.473188e+002 -5.367142e-001 -1.477370e+002 -4.288000e+001 -6.069826e+001
169718750 -4.677291e+001 -9.923159e+001 -5.520937e-001 -1.635914e+002 -5.234898e-001 -1.640530e+002 -5.154840e+001 -9.158796e+001
172836718.75 -5.126954e+001 4.948424e+001 -5.645019e-001 -1.799741e+002 -5.163419e-001 1.795692e+002 -4.292189e+001 6.300201e+001
175954687.5 -4.356150e+001 4.406504e+001 -5.197740e-001 1.637813e+002 -5.128354e-001 1.635529e+002 -4.096541e+001 6.916307e+001
179072656.25 -3.857609e+001 5.595224e+001 -5.437826e-001 1.477231e+002 -4.952397e-001 1.473535e+002 -3.612247e+001 5.507562e+001
182190625 -3.620178e+001 3.893423e+001 -5.595996e-001 1.317434e+002 -4.827738e-001 1.313953e+002 -3.622461e+001 3.677721e+001
185308593.75 -3.571094e+001 3.311905e+001 -5.427151e-001 1.154163e+002 -4.864295e-001 1.151739e+002 -3.559439e+001 1.732996e+001
188426562.5 -3.502150e+001 1.055112e+001 -5.516186e-001 9.934939e+001 -5.452998e-001 9.874473e+001 -3.744204e+001 9.321639e+000
191544531.25 -3.698613e+001 -6.479933e+000 -5.248718e-001 8.320372e+001 -5.603791e-001 8.278645e+001 -3.846156e+001 -1.468464e+000
194662500 -3.713842e+001 -2.741991e+001 -5.616491e-001 6.694350e+001 -5.460742e-001 6.630509e+001 -3.975694e+001 -2.500873e+001
197780468.75 -4.241350e+001 -3.300231e+001 -5.641573e-001 5.077999e+001 -5.807202e-001 5.036682e+001 -4.507183e+001 -4.298208e+001
200898437.5 -4.585940e+001 2.674155e+000 -5.923008e-001 3.448291e+001 -5.792239e-001 3.409909e+001 -4.922125e+001 -8.943826e+001
204016406.25 -4.974697e+001 4.911534e+001 -6.048859e-001 1.845657e+001 -5.818934e-001 1.788346e+001 -5.126245e+001 4.999588e+001
207134375 -4.117929e+001 4.331355e+001 -6.039107e-001 2.213725e+000 -5.649147e-001 1.663389e+000 -4.297353e+001 6.454046e+001
210252343.75 -3.816845e+001 3.348850e+001 -5.551612e-001 -1.412896e+001 -5.607293e-001 -1.440482e+001 -3.865908e+001 6.273661e+001
213370312.5 -3.544022e+001 3.505045e+001 -5.684065e-001 -3.031509e+001 -6.198416e-001 -3.058059e+001 -3.820530e+001 4.501141e+001
216488281.25 -3.462912e+001 1.322858e+001 -5.733017e-001 -4.635661e+001 -6.053542e-001 -4.653786e+001 -3.567549e+001 2.367709e+001
219606250 -3.312032e+001 5.636497e-001 -6.099058e-001 -6.246903e+001 -6.056678e-001 -6.283298e+001 -3.447587e+001 1.870434e+001
222724218.75 -3.450166e+001 -1.211912e+001 -6.255692e-001 -7.876799e+001 -5.545182e-001 -7.931596e+001 -3.503718e+001 2.734895e+000
225842187.5 -3.479319e+001 -2.099904e+001 -5.966014e-001 -9.482291e+001 -5.877010e-001 -9.562241e+001 -3.624235e+001 -2.635418e+001
228960156.25 -3.624350e+001 -2.934270e+001 -5.849543e-001 -1.109580e+002 -5.572554e-001 -1.117675e+002 -3.739468e+001 -6.682122e+001
232078125 -3.856934e+001 -4.405056e+001 -5.920639e-001 -1.272182e+002 -5.771629e-001 -1.276948e+002 -3.935783e+001 -9.440476e+001
235196093.75 -4.206173e+001 -5.905753e+001 -5.986978e-001 -1.435865e+002 -5.398811e-001 -1.444856e+002 -4.019436e+001 -1.263345e+002
238314062.5 -4.895039e+001 -5.212667e+001 -5.828644e-001 -1.596833e+002 -6.143816e-001 -1.605208e+002 -4.142336e+001 -1.607861e+002
241432031.25 -5.097251e+001 1.999813e+001 -5.942206e-001 -1.756892e+002 -6.903741e-001 -1.760062e+002 -4.841018e+001 1.767879e+002
244550000 -4.998881e+001 6.691378e+001 -5.863327e-001 1.682715e+002 -6.832938e-001 1.683394e+002 -4.490208e+001 9.672163e+001
247667968.75 -4.156830e+001 5.690118e+001 -6.512987e-001 1.517772e+002 -6.208820e-001 1.513032e+002 -3.904337e+001 5.860463e+001
250785937.5 -3.881503e+001 4.447324e+001 -8.186224e-001 1.366501e+002 -5.116014e-001 1.342729e+002 -3.703949e+001 3.348995e+001
253903906.25 -3.719205e+001 3.029630e+001 -6.739343e-001 1.202213e+002 -5.541439e-001 1.179403e+002 -3.661304e+001 1.594033e+000
257021875 -3.729348e+001 2.145430e+001 -5.131157e-001 1.029357e+002 -6.333103e-001 1.019135e+002 -3.598362e+001 -1.491092e+001
260139843.75 -3.684372e+001 1.031227e+001 -5.172867e-001 8.647217e+001 -6.668255e-001 8.566063e+001 -3.877200e+001 -2.132981e+001
263257812.5 -3.709711e+001 -5.625731e+000 -5.674717e-001 7.058102e+001 -6.755131e-001 7.038232e+001 -3.930316e+001 -3.650882e+001
266375781.25 -3.795843e+001 -1.526577e+001 -6.562237e-001 5.326409e+001 -8.085272e-001 5.508962e+001 -3.942098e+001 -6.626674e+001
269493750 -4.168638e+001 -1.694261e+001 -6.725093e-001 3.724175e+001 -7.768068e-001 3.903023e+001 -4.188414e+001 -8.753557e+001
272611718.75 -4.136112e+001 -1.939954e+001 -7.380467e-001 2.189382e+001 -6.830423e-001 2.243810e+001 -4.657687e+001 -1.052208e+002
275729687.5 -4.235953e+001 -6.613712e+000 -7.164667e-001 5.984220e+000 -6.460225e-001 6.246603e+000 -5.088974e+001 1.200312e+001
278847656.25 -4.003106e+001 1.601050e+001 -6.610995e-001 -1.016290e+001 -6.214076e-001 -1.056339e+001 -4.222046e+001 2.014425e+001
281965625 -3.948159e+001 1.776611e+001 -7.237708e-001 -2.617543e+001 -6.562814e-001 -2.693401e+001 -3.845027e+001 2.281402e+001
285083593.75 -3.695063e+001 2.115555e+001 -7.062918e-001 -4.231878e+001 -6.379431e-001 -4.293690e+001 -3.706811e+001 8.385699e+000
288201562.5 -3.658645e+001 1.407761e+001 -6.906627e-001 -5.866244e+001 -6.610401e-001 -5.917552e+001 -3.523100e+001 -3.644901e+000
291319531.25 -3.539986e+001 2.748498e+000 -6.937712e-001 -7.479016e+001 -6.474294e-001 -7.559657e+001 -3.499093e+001 -1.762257e+001
294437500 -3.456591e+001 -1.501765e+001 -7.089756e-001 -9.129608e+001 -6.618200e-001 -9.146322e+001 -3.537843e+001 -2.901903e+001
297555468.75 -3.584438e+001 -2.986504e+001 -6.803766e-001 -1.072886e+002 -6.440415e-001 -1.079535e+002 -3.558893e+001 -4.535350e+001
300673437.5 -3.756818e+001 -4.175421e+001 -7.145739e-001 -1.234134e+002 -7.029331e-001 -1.238771e+002 -3.736874e+001 -6.324163e+001
303791406.25 -4.169331e+001 -5.560131e+001 -6.796970e-001 -1.396548e+002 -7.087340e-001 -1.402769e+002 -4.420702e+001 -8.177753e+001
306909375 -4.830915e+001 -6.695396e+001 -7.405210e-001 -1.556901e+002 -7.399433e-001 -1.562329e+002 -5.054423e+001 -5.416656e+001
310027343.75 -5.727913e+001 8.805408e+001 -7.537813e-001 -1.719326e+002 -6.966933e-001 -1.723811e+002 -5.010532e+001 4.448952e+001
313145312.5 -4.434671e+001 8.104371e+001 -7.370406e-001 1.718250e+002 -6.957650e-001 1.715872e+002 -4.081101e+001 4.822778e+001
316263281.25 -3.952115e+001 6.150217e+001 -7.065225e-001 1.554922e+002 -7.134217e-001 1.552472e+002 -3.757331e+001 4.122445e+001
319381250 -3.699349e+001 4.436696e+001 -7.207817e-001 1.393375e+002 -6.892686e-001 1.388211e+002 -3.563790e+001 2.249345e+001
322499218.75 -3.472880e+001 2.960414e+001 -7.284544e-001 1.233171e+002 -7.253542e-001 1.226130e+002 -3.475644e+001 5.247279e+000
325617187.5 -3.442427e+001 1.658748e+001 -7.553425e-001 1.070066e+002 -7.289979e-001 1.064603e+002 -3.460941e+001 -4.236609e+000
328735156.25 -3.388558e+001 -1.367508e+000 -7.270100e-001 9.100218e+001 -7.417116e-001 9.039848e+001 -3.553078e+001 -1.384811e+001
331853125 -3.483815e+001 -1.523662e+001 -7.242218e-001 7.487445e+001 -7.654600e-001 7.418663e+001 -3.621727e+001 -2.427146e+001
334971093.75 -3.814818e+001 -2.601870e+001 -7.076913e-001 5.866962e+001 -7.508871e-001 5.815636e+001 -3.803479e+001 -2.599887e+001
338089062.5 -4.104219e+001 -2.188053e+001 -7.173320e-001 4.234155e+001 -7.224906e-001 4.200229e+001 -4.125853e+001 -1.099190e+001
341207031.25 -4.406318e+001 -1.336470e-001 -7.002685e-001 2.629233e+001 -6.871447e-001 2.583975e+001 -4.260475e+001 9.184339e+000
344325000 -4.410452e+001 2.447749e+001 -7.438748e-001 9.967665e+000 -7.164950e-001 9.642503e+000 -3.867326e+001 2.704639e+001
347442968.75 -4.146768e+001 3.831379e+001 -7.642331e-001 -6.101645e+000 -7.184349e-001 -6.546662e+000 -3.680683e+001 3.328439e+001
350560937.5 -3.812315e+001 2.899491e+001 -7.542348e-001 -2.250858e+001 -7.241458e-001 -2.286405e+001 -3.597380e+001 2.776535e+001
353678906.25 -3.608230e+001 2.320042e+001 -7.333931e-001 -3.850544e+001 -7.153953e-001 -3.896413e+001 -3.504596e+001 1.585602e+001
356796875 -3.523540e+001 4.608314e+000 -7.218028e-001 -5.464798e+001 -7.401285e-001 -5.498615e+001 -3.471384e+001 4.451228e+000
359914843.75 -3.591945e+001 -8.010712e+000 -7.488675e-001 -7.086843e+001 -7.440762e-001 -7.122971e+001 -3.550724e+001 8.374565e-001
363032812.5 -3.699798e+001 -2.124593e+001 -7.749186e-001 -8.702409e+001 -7.697916e-001 -8.753164e+001 -3.676456e+001 -1.062978e+001
366150781.25 -3.837470e+001 -4.467455e+001 -7.665458e-001 -1.032675e+002 -7.687405e-001 -1.036575e+002 -3.906080e+001 -2.577753e+001
369268750 -4.194159e+001 -6.297946e+001 -7.601799e-001 -1.193046e+002 -7.626482e-001 -1.198171e+002 -4.338332e+001 -3.361248e+001
372386718.75 -4.763447e+001 -9.194965e+001 -7.662114e-001 -1.356307e+002 -7.551529e-001 -1.361147e+002 -5.153231e+001 8.506758e+000
375504687.5 -5.438650e+001 1.422982e+002 -7.949142e-001 -1.519697e+002 -7.638128e-001 -1.524399e+002 -5.023645e+001 6.967116e+001
378622656.25 -4.368346e+001 9.287402e+001 -7.999163e-001 -1.680289e+002 -7.636308e-001 -1.684678e+002 -4.261790e+001 8.180052e+001
381740625 -3.983847e+001 7.629926e+001 -8.054998e-001 1.756631e+002 -7.577124e-001 1.754053e+002 -3.961564e+001 7.153764e+001
384858593.75 -3.759084e+001 6.287095e+001 -7.585338e-001 1.596649e+002 -7.775386e-001 1.590957e+002 -3.727176e+001 5.911669e+001
387976562.5 -3.640731e+001 4.556222e+001 -7.674630e-001 1.434751e+002 -7.769226e-001 1.429331e+002 -3.601755e+001 4.547177e+001
391094531.25 -3.620734e+001 3.167196e+001 -8.146682e-001 1.272388e+002 -7.846235e-001 1.268330e+002 -3.645836e+001 3.580264e+001
394212500 -3.727488e+001 1.580702e+001 -8.143189e-001 1.111116e+002 -8.052050e-001 1.105595e+002 -3.801726e+001 2.108947e+001
397330468.75 -3.850533e+001 7.389946e+000 -8.180963e-001 9.473952e+001 -7.896664e-001 9.448640e+001 -3.977082e+001 1.041669e+001
400448437.5 -4.008678e+001 5.292662e+000 -8.114936e-001 7.856042e+001 -8.099536e-001 7.821548e+001 -4.358307e+001 -5.489385e+000
403566406.25 -4.267432e+001 1.747046e+000 -8.058217e-001 6.275385e+001 -8.117265e-001 6.206568e+001 -4.984678e+001 -8.103543e+000
406684375 -4.616878e+001 2.310596e+001 -8.005087e-001 4.644842e+001 -8.007887e-001 4.588926e+001 -5.562240e+001 1.053975e+002
409802343.75 -4.274899e+001 4.722496e+001 -8.149964e-001 3.009198e+001 -8.024941e-001 2.947533e+001 -4.489651e+001 1.005337e+002
412920312.5 -3.925296e+001 4.925146e+001 -8.221915e-001 1.402003e+001 -8.113599e-001 1.332383e+001 -4.218755e+001 8.302010e+001
416038281.25 -3.744981e+001 4.234750e+001 -8.266794e-001 -2.227047e+000 -7.926872e-001 -2.723966e+000 -3.965982e+001 6.976278e+001
419156250 -3.625767e+001 3.280129e+001 -8.369957e-001 -1.850533e+001 -8.026159e-001 -1.892380e+001 -3.795921e+001 5.117070e+001
422274218.75 -3.584984e+001 2.262621e+001 -8.658051e-001 -3.458880e+001 -8.180948e-001 -3.510192e+001 -3.712538e+001 3.138347e+001
425392187.5 -3.569265e+001 1.488879e+001 -8.610377e-001 -5.071937e+001 -8.428934e-001 -5.126671e+001 -3.664084e+001 8.035201e+000
428510156.25 -3.589299e+001 5.037752e+000 -8.399248e-001 -6.693927e+001 -8.258173e-001 -6.725165e+001 -3.691007e+001 -1.770126e+001
431628125 -3.648540e+001 -7.363107e+000 -8.460791e-001 -8.308384e+001 -8.166973e-001 -8.347446e+001 -3.691096e+001 -4.123734e+001
434746093.75 -3.755421e+001 -1.591268e+001 -8.493749e-001 -9.941737e+001 -8.300940e-001 -9.958369e+001 -3.712643e+001 -6.300380e+001
437864062.5 -3.993398e+001 -2.512572e+001 -8.470171e-001 -1.154248e+002 -8.209760e-001 -1.158868e+002 -3.738814e+001 -8.501315e+001
440982031.25 -4.437872e+001 -3.714396e+001 -8.495799e-001 -1.314389e+002 -8.497645e-001 -1.319852e+002 -3.810738e+001 -1.003438e+002
444100000 -5.069223e+001 -5.069128e+001 -8.758966e-001 -1.479149e+002 -8.604055e-001 -1.482045e+002 -4.040939e+001 -1.279070e+002
447217968.75 -5.705616e+001 1.079810e+002 -8.565458e-001 -1.640204e+002 -8.621145e-001 -1.644452e+002 -4.264650e+001 -1.583561e+002
450335937.5 -4.729529e+001 1.022884e+002 -8.684266e-001 1.799035e+002 -8.555968e-001 1.793953e+002 -5.010349e+001 1.596254e+002
453453906.25 -4.148831e+001 8.277724e+001 -8.791988e-001 1.636291e+002 -8.577597e-001 1.630186e+002 -4.924122e+001 6.753202e+001
456571875 -3.825301e+001 7.238357e+001 -8.524069e-001 1.474774e+002 -8.418795e-001 1.468977e+002 -4.339803e+001 2.874199e+001
459689843.75 -3.633495e+001 5.764082e+001 -8.718758e-001 1.309619e+002 -8.697647e-001 1.308371e+002 -4.029902e+001 1.997118e+000
462807812.5 -3.494948e+001 4.387949e+001 -8.765476e-001 1.149564e+002 -8.636687e-001 1.146039e+002 -3.743862e+001 -1.397184e+001
465925781.25 -3.471515e+001 3.189716e+001 -8.764988e-001 9.882440e+001 -8.753499e-001 9.849007e+001 -3.702213e+001 -3.201260e+001
469043750 -3.491995e+001 1.921429e+001 -8.720371e-001 8.263412e+001 -8.690859e-001 8.218337e+001 -3.701690e+001 -5.174350e+001
472161718.75 -3.588114e+001 3.693544e+000 -8.498371e-001 6.657373e+001 -8.796368e-001 6.615832e+001 -3.702773e+001 -6.934077e+001
475279687.5 -3.756813e+001 -3.378388e+000 -8.941391e-001 5.035924e+001 -8.850442e-001 4.992633e+001 -3.939494e+001 -8.535393e+001
478397656.25 -3.970906e+001 -7.213258e-001 -8.754448e-001 3.417954e+001 -8.637293e-001 3.369090e+001 -4.375786e+001 -9.502589e+001
481515625 -4.183223e+001 1.224071e+001 -8.959705e-001 1.824860e+001 -8.734793e-001 1.732998e+001 -5.509861e+001 -1.017930e+002
484633593.75 -4.167459e+001 2.853990e+001 -8.832599e-001 1.964311e+000 -8.758520e-001 1.230215e+000 -4.808147e+001 2.420630e+001
487751562.5 -3.938385e+001 4.066472e+001 -9.120408e-001 -1.439324e+001 -8.801687e-001 -1.492673e+001 -4.036203e+001 2.163612e+001
490869531.25 -3.723826e+001 4.045953e+001 -9.163528e-001 -3.070208e+001 -8.917653e-001 -3.107467e+001 -3.627175e+001 1.242567e+001
493987500 -3.528374e+001 2.438016e+001 -9.317780e-001 -4.678215e+001 -9.273495e-001 -4.741099e+001 -3.400851e+001 -1.502132e+000
497105468.75 -3.462217e+001 9.381329e+000 -9.190179e-001 -6.288985e+001 -8.923806e-001 -6.340034e+001 -3.315104e+001 -1.365233e+001
500223437.5 -3.505374e+001 -5.637983e+000 -9.210451e-001 -7.915717e+001 -8.938016e-001 -7.969403e+001 -3.320506e+001 -2.940944e+001
503341406.25 -3.568633e+001 -2.149590e+001 -9.306668e-001 -9.521680e+001 -8.987699e-001 -9.615731e+001 -3.407630e+001 -4.225255e+001
506459375 -3.753327e+001 -4.216001e+001 -9.143088e-001 -1.115807e+002 -8.737248e-001 -1.120157e+002 -3.577953e+001 -5.510942e+001
509577343.75 -4.085077e+001 -6.689493e+001 -9.474139e-001 -1.275116e+002 -8.808857e-001 -1.281787e+002 -3.929501e+001 -6.088956e+001
