!Agilent Technologies,E8364A,US41440322,A.04.87.01
!Agilent E8364A: A.04.87.01
!Date: Thursday, July 18, 2024 08:45:07
!Correction: S11(Full 2 Port SOLT,1,2) S21(Full 2 Port SOLT,1,2) S12(Full 2 Port SOLT,1,2) S22(Full 2 Port SOLT,1,2)
!S2P File: Measurements: S11, S21, S12, S22:
# Hz S  dB   R 50
45000000 -2.963068e+001 -1.528146e+001 -1.890652e+001 1.407519e+001 -1.788373e+001 -8.850400e+000 -2.560719e+001 2.710369e+001
48117968.75 -2.582891e+001 2.833670e+001 -1.930348e+001 2.082837e+000 -2.066200e+001 -8.346429e+000 -2.520676e+001 1.519633e+001
51235937.5 -3.037144e+001 2.129313e+001 -2.222339e+001 1.021363e+001 -2.059972e+001 -6.637490e+000 -4.220084e+001 -7.276942e+001
54353906.25 -3.324295e+001 -3.104640e+000 -2.087374e+001 7.054852e+000 -1.935358e+001 -6.293799e+000 -3.850129e+001 -6.558899e+001
57471875 -3.036242e+001 1.345787e+001 -2.117872e+001 -1.829430e+000 -1.947089e+001 -3.550218e+000 -3.379435e+001 -4.251463e+001
60589843.75 -4.365807e+001 1.469242e+001 -2.211726e+001 -1.209276e-001 -2.009710e+001 -3.481139e+000 -3.203034e+001 -2.989122e+000
63707812.5 -3.292407e+001 1.177127e+001 -2.098585e+001 -4.941205e+000 -2.065882e+001 5.860611e+000 -3.466476e+001 -1.717760e-001
66825781.25 -3.426103e+001 -1.372056e+001 -1.994376e+001 3.926063e+000 -1.984181e+001 8.558862e-001 -3.166174e+001 4.439719e+001
69943750 -3.048219e+001 1.715763e+001 -2.061415e+001 -2.064377e+000 -2.011106e+001 -3.886335e+000 -3.757200e+001 -4.584012e+001
73061718.75 -2.968424e+001 -4.733458e+000 -1.966868e+001 -1.979395e+000 -2.036506e+001 3.583400e+000 -3.622626e+001 1.608214e+001
76179687.5 -3.194007e+001 2.455828e+001 -2.029403e+001 -2.114413e+000 -2.142152e+001 3.160891e+000 -3.050978e+001 1.385183e+001
79297656.25 -3.392332e+001 2.502406e+001 -1.963368e+001 -2.054607e+000 -2.034712e+001 -2.540227e+000 -3.191982e+001 1.144994e+001
82415625 -3.113827e+001 6.943479e+000 -2.014548e+001 -1.299889e+000 -2.004047e+001 1.052539e+000 -3.347571e+001 1.941744e+001
85533593.75 -2.738770e+001 6.516022e+000 -1.972949e+001 -3.271819e+000 -2.079481e+001 -1.171936e+000 -3.553546e+001 -3.069497e+000
88651562.5 -3.048057e+001 1.403432e+001 -1.974752e+001 2.288277e+000 -1.987572e+001 2.015821e+000 -3.747451e+001 -2.479389e+001
91769531.25 -3.088001e+001 1.319169e+001 -2.038411e+001 1.445634e+000 -2.005128e+001 4.893499e-001 -4.038512e+001 -1.848383e+001
94887500 -3.142300e+001 7.470641e+000 -2.007923e+001 5.279416e-001 -2.003063e+001 -1.191476e+000 -3.731330e+001 -2.263086e+001
98005468.75 -3.168194e+001 5.435652e+000 -2.067548e+001 2.245338e+000 -2.027912e+001 -3.155984e+000 -4.308089e+001 -3.408282e+001
101123437.5 -3.036834e+001 3.747203e+000 -2.040843e+001 2.482333e+000 -2.011166e+001 2.990650e-001 -3.602620e+001 -1.129055e+001
104241406.25 -3.070245e+001 2.601259e+000 -1.945744e+001 1.804336e+000 -1.985842e+001 2.419044e+000 -3.452068e+001 -8.179250e+000
107359375 -3.198440e+001 7.321651e-001 -2.040640e+001 9.978314e-001 -2.015166e+001 7.179262e-001 -3.878427e+001 1.851131e+001
110477343.75 -3.198139e+001 -1.148028e+001 -2.003477e+001 9.259539e-001 -2.000494e+001 -1.910972e+000 -3.418130e+001 -1.787838e+001
113595312.5 -3.291048e+001 -1.554990e+001 -1.979810e+001 -3.318320e+000 -2.000776e+001 1.193172e+000 -3.565501e+001 -7.607271e+000
116713281.25 -3.231909e+001 -4.135804e+000 -2.012219e+001 2.412094e+000 -1.994702e+001 -3.303167e+000 -3.430720e+001 -1.874548e+001
119831250 -3.224104e+001 -1.326270e+001 -2.032487e+001 2.414771e+000 -2.004659e+001 -6.407379e-001 -3.617348e+001 -5.411808e-001
122949218.75 -3.147485e+001 -4.143482e+000 -2.027275e+001 7.703467e-001 -2.023699e+001 -7.617916e-002 -3.583346e+001 -2.431817e+001
126067187.5 -3.072513e+001 -7.385150e+000 -2.000463e+001 1.448982e+000 -1.984508e+001 -1.210338e-001 -3.509930e+001 -1.662453e+001
129185156.25 -3.118328e+001 -7.570100e+000 -2.012923e+001 1.983703e+000 -2.016890e+001 -6.348842e-001 -3.762549e+001 -2.402478e+000
132303125 -3.061398e+001 -8.246567e+000 -1.984707e+001 1.346596e+000 -2.019976e+001 2.075817e+000 -3.444838e+001 -7.201449e+000
135421093.75 -3.260974e+001 -1.300863e+001 -2.028945e+001 1.836571e+000 -2.008476e+001 1.581729e+000 -3.634825e+001 6.984683e-001
138539062.5 -3.035987e+001 -1.456351e+001 -1.984508e+001 1.268989e+000 -1.993054e+001 2.138633e+000 -3.649710e+001 -4.258793e+000
141657031.25 -3.133108e+001 -1.313655e+001 -2.012583e+001 3.130805e+000 -2.001439e+001 5.732281e-001 -3.655124e+001 -9.436976e+000
144775000 -3.129216e+001 -1.543293e+001 -2.015774e+001 2.072244e+000 -2.021960e+001 3.087164e-001 -3.472363e+001 -1.438104e+000
147892968.75 -3.101902e+001 -1.303682e+001 -2.001497e+001 2.304856e+000 -1.993812e+001 2.784662e+000 -3.456414e+001 -2.212235e+000
151010937.5 -3.145727e+001 -1.721497e+001 -2.014688e+001 1.980341e+000 -1.997049e+001 1.642630e+000 -3.479531e+001 -2.027820e+001
154128906.25 -3.042305e+001 -1.302064e+001 -2.004709e+001 3.110933e+000 -2.015722e+001 1.223877e+000 -3.361178e+001 -3.171472e+000
157246875 -3.109864e+001 -7.988181e+000 -2.031781e+001 1.288496e+000 -2.012628e+001 2.506143e+000 -3.335799e+001 -1.111423e+001
160364843.75 -3.159744e+001 -9.755669e+000 -2.023121e+001 2.706419e+000 -2.006709e+001 4.628164e-001 -3.463335e+001 -2.376422e+001
163482812.5 -3.136282e+001 -9.252438e+000 -2.016487e+001 5.885671e-001 -2.029116e+001 1.349032e+000 -3.449404e+001 -2.823262e-001
166600781.25 -3.094008e+001 -6.611865e+000 -2.031015e+001 1.082828e+000 -2.002207e+001 6.895573e-001 -3.337490e+001 -2.554996e-001
169718750 -3.142258e+001 -7.204992e+000 -2.029485e+001 1.075817e+000 -2.020755e+001 1.570685e+000 -3.252668e+001 -1.175133e+000
172836718.75 -3.050471e+001 -8.179149e+000 -2.020606e+001 1.552596e+000 -2.017904e+001 1.632559e+000 -3.321687e+001 -1.565184e+000
175954687.5 -3.021769e+001 -6.799317e+000 -2.014781e+001 2.474038e+000 -2.011693e+001 1.328225e+000 -3.216887e+001 7.848014e-001
179072656.25 -3.073091e+001 -7.164741e+000 -2.021274e+001 1.497329e+000 -2.027236e+001 -3.744441e-001 -3.190959e+001 -9.194293e-002
182190625 -3.055395e+001 -4.830629e+000 -2.009546e+001 8.840556e-001 -2.016807e+001 8.131091e-001 -3.248180e+001 6.223572e+000
185308593.75 -3.080841e+001 -9.762583e+000 -2.014813e+001 1.555324e+000 -2.015406e+001 2.592652e+000 -3.156229e+001 3.863740e+000
188426562.5 -3.097131e+001 -4.681766e+000 -2.028923e+001 2.379043e+000 -2.001226e+001 2.381996e+000 -3.292364e+001 -1.443809e+000
191544531.25 -3.045984e+001 -2.277159e+000 -2.020157e+001 2.073308e+000 -2.027052e+001 1.607865e+000 -3.422596e+001 -2.861817e-001
194662500 -3.073372e+001 -7.663675e+000 -2.034406e+001 1.093587e+000 -2.017291e+001 2.337568e+000 -3.378385e+001 1.642960e+000
197780468.75 -3.100820e+001 -7.692169e+000 -2.011747e+001 2.054399e+000 -2.011474e+001 1.411430e+000 -3.319882e+001 6.888954e+000
200898437.5 -3.130812e+001 -5.312497e+000 -2.004270e+001 2.378470e+000 -2.001647e+001 1.459807e+000 -3.373212e+001 -2.510259e-001
204016406.25 -3.139825e+001 -8.532608e+000 -2.010586e+001 2.416140e+000 -2.006097e+001 1.018085e+000 -3.376248e+001 -3.753311e+000
207134375 -3.199016e+001 -6.930930e+000 -1.999619e+001 3.047395e+000 -2.014912e+001 1.928214e+000 -3.358457e+001 -1.443731e+000
210252343.75 -3.103987e+001 -6.683030e+000 -2.001011e+001 2.314925e+000 -1.992326e+001 1.395680e+000 -3.495990e+001 2.183260e+000
213370312.5 -3.176697e+001 -6.471712e+000 -1.992539e+001 1.092445e+000 -2.012252e+001 1.762389e+000 -3.468064e+001 1.030088e+001
216488281.25 -3.131332e+001 -6.356083e+000 -2.008473e+001 1.584966e+000 -2.021216e+001 2.484700e+000 -3.541569e+001 1.544588e+001
219606250 -3.117528e+001 -3.956737e+000 -2.006602e+001 2.982630e+000 -2.004695e+001 1.051090e+000 -3.506468e+001 1.757465e+001
222724218.75 -3.154926e+001 -4.325121e+000 -2.016216e+001 1.625421e+000 -2.008475e+001 1.538281e+000 -3.407704e+001 2.156921e+001
225842187.5 -3.169487e+001 -2.563272e+000 -2.008202e+001 1.829862e+000 -2.008820e+001 9.043649e-001 -3.513417e+001 2.278749e+001
228960156.25 -3.141051e+001 3.620623e-001 -2.016212e+001 1.940552e+000 -2.008366e+001 1.332994e+000 -3.498731e+001 1.253874e+001
232078125 -3.160616e+001 -2.269672e+000 -2.007558e+001 2.187454e+000 -2.014734e+001 2.084742e+000 -3.588840e+001 1.368044e+001
235196093.75 -3.130700e+001 -9.800844e-001 -2.019186e+001 2.071615e+000 -1.990060e+001 1.283025e+000 -3.469104e+001 1.208711e+001
238314062.5 -3.151465e+001 -2.162594e-002 -2.013017e+001 1.766240e+000 -2.019471e+001 1.279774e+000 -3.422826e+001 1.287829e+001
241432031.25 -3.198577e+001 -1.274750e+000 -2.007841e+001 2.082168e+000 -2.018169e+001 2.011970e+000 -3.483556e+001 1.678328e+001
244550000 -3.170820e+001 -7.288885e-001 -2.008138e+001 1.804060e+000 -2.021786e+001 2.355444e+000 -3.406701e+001 1.514698e+001
247667968.75 -3.193701e+001 5.688506e-001 -2.023897e+001 2.797076e+000 -2.007934e+001 1.396570e+000 -3.374975e+001 1.879714e+001
250785937.5 -3.151422e+001 2.294229e+000 -2.029144e+001 2.834639e+000 -1.978961e+001 1.523579e+000 -3.572393e+001 1.330175e+001
253903906.25 -3.160405e+001 1.395763e+000 -1.998981e+001 4.008365e+000 -2.005850e+001 4.418334e-001 -3.470145e+001 1.649332e+001
257021875 -3.214293e+001 9.238342e-001 -2.005515e+001 2.403149e+000 -2.013829e+001 1.326181e+000 -3.486757e+001 5.855801e+000
260139843.75 -3.205433e+001 1.788058e-001 -2.007252e+001 2.150101e+000 -2.007116e+001 1.199148e+000 -3.588916e+001 1.396821e+001
263257812.5 -3.239918e+001 -4.777965e+000 -2.014630e+001 1.129294e+000 -2.008004e+001 2.020909e+000 -3.534217e+001 1.501276e+001
266375781.25 -3.212849e+001 -5.128024e+000 -2.017463e+001 1.223107e+000 -2.031726e+001 2.374013e+000 -3.534078e+001 1.634803e+001
269493750 -3.255840e+001 -1.106685e+000 -2.012421e+001 7.017018e-001 -2.030799e+001 3.068769e+000 -3.478148e+001 8.434440e+000
272611718.75 -3.301808e+001 -3.830837e+000 -2.014572e+001 8.611497e-001 -2.018045e+001 3.216160e+000 -3.536423e+001 -5.255017e+000
275729687.5 -3.265855e+001 -5.201952e+000 -2.018437e+001 1.523590e+000 -2.018978e+001 3.105466e+000 -3.624576e+001 4.773476e+000
278847656.25 -3.250471e+001 -3.158929e+000 -2.017421e+001 2.241066e+000 -2.012112e+001 2.081421e+000 -3.561756e+001 -2.483951e+000
281965625 -3.201464e+001 -1.705723e-001 -2.017127e+001 3.074458e+000 -2.004512e+001 2.241928e+000 -3.601152e+001 1.125687e+001
285083593.75 -3.195949e+001 -1.764123e+000 -2.017649e+001 3.146099e+000 -2.005198e+001 2.652775e+000 -3.562659e+001 7.534091e+000
288201562.5 -3.269382e+001 -3.526584e+000 -2.009002e+001 2.909075e+000 -2.008537e+001 2.189482e+000 -3.601975e+001 1.125283e+001
291319531.25 -3.234051e+001 -3.756631e+000 -2.021812e+001 2.659844e+000 -2.007680e+001 2.830326e+000 -3.561228e+001 9.664633e+000
294437500 -3.276571e+001 -7.669055e+000 -2.015197e+001 3.030127e+000 -2.009933e+001 2.198452e+000 -3.584732e+001 1.321735e+001
297555468.75 -3.276965e+001 -9.955709e+000 -2.015171e+001 2.895006e+000 -2.004496e+001 2.063662e+000 -3.537835e+001 1.043219e+001
300673437.5 -3.335965e+001 -1.015609e+001 -2.004642e+001 2.277958e+000 -2.014599e+001 2.101869e+000 -3.610149e+001 7.719167e+000
303791406.25 -3.350745e+001 -1.015516e+001 -2.021699e+001 3.073189e+000 -2.019732e+001 2.138329e+000 -3.649092e+001 1.840167e+000
306909375 -3.358704e+001 -8.812160e+000 -2.016320e+001 2.730540e+000 -2.010361e+001 2.821408e+000 -3.570237e+001 6.048073e+000
310027343.75 -3.331984e+001 -9.564895e+000 -2.016734e+001 3.256629e+000 -2.017428e+001 2.480260e+000 -3.570654e+001 8.830594e+000
313145312.5 -3.340021e+001 -1.163303e+001 -2.019069e+001 3.581110e+000 -2.012901e+001 2.425304e+000 -3.593254e+001 7.471704e+000
316263281.25 -3.349579e+001 -1.341465e+001 -2.016467e+001 2.929100e+000 -2.010985e+001 2.792495e+000 -3.535575e+001 2.797422e+000
319381250 -3.346104e+001 -1.222840e+001 -2.025934e+001 3.301425e+000 -2.019228e+001 2.136196e+000 -3.565354e+001 1.405217e+000
322499218.75 -3.333831e+001 -1.380934e+001 -2.011864e+001 3.146916e+000 -2.021890e+001 2.762011e+000 -3.514114e+001 2.052702e+000
325617187.5 -3.334632e+001 -1.308495e+001 -2.019709e+001 3.394094e+000 -2.019214e+001 2.320292e+000 -3.581763e+001 5.501010e-002
328735156.25 -3.299864e+001 -1.685073e+001 -2.018667e+001 3.552775e+000 -2.011834e+001 2.663317e+000 -3.546362e+001 9.362567e-001
331853125 -3.313702e+001 -1.748253e+001 -2.019592e+001 3.417663e+000 -2.012832e+001 3.114976e+000 -3.528377e+001 4.168021e+000
334971093.75 -3.304227e+001 -1.831670e+001 -2.010854e+001 3.706814e+000 -2.010548e+001 2.336193e+000 -3.496327e+001 1.032177e+000
338089062.5 -3.327756e+001 -1.668244e+001 -2.015794e+001 3.366399e+000 -2.010052e+001 3.155864e+000 -3.460955e+001 3.230164e+000
341207031.25 -3.343144e+001 -1.970107e+001 -2.019970e+001 3.635475e+000 -2.012959e+001 2.622432e+000 -3.426989e+001 3.583991e+000
344325000 -3.336328e+001 -1.840241e+001 -2.018157e+001 3.108723e+000 -2.003227e+001 2.456004e+000 -3.444913e+001 5.468117e+000
347442968.75 -3.325215e+001 -1.896760e+001 -2.022100e+001 3.184627e+000 -2.013352e+001 2.535955e+000 -3.459287e+001 6.975151e+000
350560937.5 -3.272834e+001 -1.887692e+001 -2.015164e+001 3.614008e+000 -2.001942e+001 2.750799e+000 -3.463018e+001 6.572501e+000
353678906.25 -3.264647e+001 -2.069377e+001 -2.013826e+001 3.297748e+000 -2.015124e+001 2.688750e+000 -3.473025e+001 4.039347e+000
356796875 -3.271215e+001 -2.046225e+001 -2.012149e+001 3.543478e+000 -2.018683e+001 3.214046e+000 -3.450843e+001 6.897625e+000
359914843.75 -3.246327e+001 -2.219655e+001 -2.014200e+001 2.898538e+000 -2.016547e+001 3.382933e+000 -3.480695e+001 5.312198e+000
363032812.5 -3.260502e+001 -2.262723e+001 -2.018631e+001 3.979630e+000 -2.014477e+001 3.102678e+000 -3.428004e+001 7.435993e+000
366150781.25 -3.232888e+001 -2.084579e+001 -2.015404e+001 3.631615e+000 -2.018664e+001 2.853736e+000 -3.444740e+001 4.842979e+000
369268750 -3.231398e+001 -2.239421e+001 -2.016066e+001 3.733602e+000 -2.016149e+001 2.812003e+000 -3.422378e+001 6.075410e+000
372386718.75 -3.200800e+001 -2.344123e+001 -2.020718e+001 3.685818e+000 -2.016426e+001 2.748308e+000 -3.438666e+001 5.936983e+000
375504687.5 -3.188116e+001 -2.233522e+001 -2.017003e+001 3.839693e+000 -2.020308e+001 2.935252e+000 -3.437029e+001 8.700671e+000
378622656.25 -3.160102e+001 -2.354375e+001 -2.017864e+001 3.145135e+000 -2.008463e+001 3.176663e+000 -3.414586e+001 8.603601e+000
381740625 -3.144081e+001 -2.140155e+001 -2.002483e+001 3.492456e+000 -2.016239e+001 2.937212e+000 -3.420249e+001 5.119515e+000
384858593.75 -3.139341e+001 -2.268629e+001 -2.017685e+001 3.847846e+000 -2.014260e+001 3.133557e+000 -3.419112e+001 4.721668e+000
387976562.5 -3.130296e+001 -2.361806e+001 -2.012428e+001 3.640641e+000 -2.017847e+001 2.944930e+000 -3.437439e+001 5.459323e+000
391094531.25 -3.130027e+001 -2.209311e+001 -2.018280e+001 3.688053e+000 -2.015748e+001 3.469794e+000 -3.400846e+001 9.265202e+000
394212500 -3.150030e+001 -2.286001e+001 -2.014493e+001 3.425880e+000 -2.014234e+001 3.208647e+000 -3.469098e+001 8.642757e+000
397330468.75 -3.157769e+001 -2.326212e+001 -2.012131e+001 4.138423e+000 -2.018286e+001 3.670816e+000 -3.510145e+001 7.607471e+000
400448437.5 -3.122977e+001 -2.277077e+001 -2.014921e+001 3.941429e+000 -2.012587e+001 3.242233e+000 -3.493278e+001 1.221431e+001
403566406.25 -3.116615e+001 -2.126584e+001 -2.012461e+001 3.852302e+000 -2.008281e+001 3.257490e+000 -3.448287e+001 8.411350e+000
406684375 -3.105376e+001 -2.263457e+001 -2.012865e+001 4.238402e+000 -2.015486e+001 3.714020e+000 -3.562963e+001 9.987565e+000
409802343.75 -3.092995e+001 -2.389422e+001 -2.006819e+001 4.282363e+000 -2.016037e+001 3.580407e+000 -3.572434e+001 1.048017e+001
412920312.5 -3.111621e+001 -2.349271e+001 -2.012627e+001 3.941430e+000 -2.014317e+001 3.062928e+000 -3.546457e+001 1.158424e+001
416038281.25 -3.095642e+001 -2.158168e+001 -2.014447e+001 3.636990e+000 -2.010999e+001 3.487265e+000 -3.537780e+001 1.487902e+001
419156250 -3.126314e+001 -2.198465e+001 -2.015787e+001 3.728050e+000 -2.009831e+001 3.023995e+000 -3.487236e+001 1.715990e+001
422274218.75 -3.122017e+001 -1.896508e+001 -2.013088e+001 4.147719e+000 -2.016840e+001 3.496832e+000 -3.510377e+001 1.486764e+001
425392187.5 -3.121098e+001 -2.048841e+001 -2.013617e+001 4.213226e+000 -2.017267e+001 3.617613e+000 -3.574824e+001 1.458904e+001
428510156.25 -3.120265e+001 -1.937167e+001 -2.016710e+001 4.027829e+000 -2.008902e+001 3.960275e+000 -3.602400e+001 1.602932e+001
431628125 -3.119431e+001 -1.838129e+001 -2.017603e+001 3.791490e+000 -2.010044e+001 3.796410e+000 -3.575108e+001 1.498676e+001
434746093.75 -3.120820e+001 -1.723816e+001 -2.016806e+001 3.642285e+000 -2.002348e+001 3.307282e+000 -3.568269e+001 1.540583e+001
437864062.5 -3.120870e+001 -1.924536e+001 -2.016142e+001 4.209270e+000 -2.015094e+001 3.801741e+000 -3.556077e+001 1.474380e+001
440982031.25 -3.141905e+001 -1.618847e+001 -2.011421e+001 4.070018e+000 -2.013698e+001 3.841958e+000 -3.540547e+001 1.472161e+001
444100000 -3.137530e+001 -1.698025e+001 -2.010499e+001 4.393240e+000 -2.019338e+001 3.831010e+000 -3.573667e+001 1.389479e+001
447217968.75 -3.137613e+001 -1.878662e+001 -2.016319e+001 4.475639e+000 -2.017359e+001 3.546555e+000 -3.581872e+001 1.074617e+001
450335937.5 -3.146896e+001 -1.867330e+001 -2.013522e+001 4.588131e+000 -2.015492e+001 4.024012e+000 -3.577242e+001 1.215889e+001
453453906.25 -3.140519e+001 -1.770007e+001 -2.014769e+001 4.532379e+000 -2.012778e+001 3.649386e+000 -3.572974e+001 1.290506e+001
456571875 -3.125987e+001 -1.695583e+001 -2.017546e+001 4.177913e+000 -2.014055e+001 3.883124e+000 -3.576748e+001 1.473037e+001
459689843.75 -3.130468e+001 -1.654726e+001 -2.007584e+001 4.104144e+000 -2.015254e+001 4.196210e+000 -3.554593e+001 1.314765e+001
462807812.5 -3.127131e+001 -1.587129e+001 -2.013428e+001 4.533385e+000 -2.010928e+001 3.975724e+000 -3.565026e+001 1.503322e+001
465925781.25 -3.159195e+001 -1.729642e+001 -2.014317e+001 4.310639e+000 -2.018365e+001 3.799526e+000 -3.522359e+001 1.565216e+001
469043750 -3.140073e+001 -1.756861e+001 -2.018134e+001 4.439003e+000 -2.017432e+001 3.850515e+000 -3.559229e+001 1.225983e+001
472161718.75 -3.143527e+001 -1.819311e+001 -2.006229e+001 4.167646e+000 -2.016200e+001 4.010842e+000 -3.554717e+001 9.450455e+000
475279687.5 -3.176565e+001 -1.715037e+001 -2.015436e+001 4.402903e+000 -2.013430e+001 4.308822e+000 -3.538622e+001 1.093124e+001
478397656.25 -3.176535e+001 -1.624409e+001 -2.012651e+001 4.381363e+000 -2.014442e+001 4.245266e+000 -3.507799e+001 1.107211e+001
481515625 -3.173177e+001 -1.705146e+001 -2.012399e+001 4.305124e+000 -2.016511e+001 3.950951e+000 -3.533995e+001 8.248534e+000
484633593.75 -3.166784e+001 -1.556654e+001 -2.014266e+001 4.703039e+000 -2.015875e+001 3.805152e+000 -3.502679e+001 6.975674e+000
487751562.5 -3.182979e+001 -1.666502e+001 -2.012549e+001 4.722126e+000 -2.013919e+001 3.980403e+000 -3.483992e+001 8.424400e+000
490869531.25 -3.170032e+001 -1.755858e+001 -2.019241e+001 4.539421e+000 -2.014470e+001 4.016034e+000 -3.479475e+001 8.158795e+000
493987500 -3.207253e+001 -1.850646e+001 -2.017141e+001 4.397850e+000 -2.014419e+001 3.873119e+000 -3.514467e+001 1.081276e+001
497105468.75 -3.209983e+001 -1.836556e+001 -2.015458e+001 4.383664e+000 -2.013839e+001 4.175193e+000 -3.481334e+001 8.732533e+000
500223437.5 -3.237352e+001 -1.738383e+001 -2.020543e+001 4.912882e+000 -2.017430e+001 4.449388e+000 -3.485661e+001 7.206393e+000
503341406.25 -3.210856e+001 -1.870377e+001 -2.013828e+001 4.400050e+000 -2.013586e+001 4.351518e+000 -3.494858e+001 7.846725e+000
506459375 -3.214681e+001 -1.936233e+001 -2.017767e+001 4.755819e+000 -2.012590e+001 4.151887e+000 -3.496488e+001 9.108095e+000
509577343.75 -3.216877e+001 -2.119571e+001 -2.012663e+001 5.054215e+000 -2.015720e+001 4.549057e+000 -3.493958e+001 8.228193e+000
512695312.5 -3.197457e+001 -2.190444e+001 -2.021491e+001 4.792751e+000 -2.011127e+001 4.382014e+000 -3.472237e+001 9.555593e+000
