!Agilent Technologies,E8364A,US41440322,A.04.87.01
!Agilent E8364A: A.04.87.01
!Date: Thursday, July 18, 2024 08:48:46
!Correction: S11(Full 2 Port SOLT,1,2) S21(Full 2 Port SOLT,1,2) S12(Full 2 Port SOLT,1,2) S22(Full 2 Port SOLT,1,2)
!S2P File: Measurements: S11, S21, S12, S22:
# Hz S  dB   R 50
45000000 -2.680156e+001 3.705910e+001 -2.048362e+001 1.279987e+002 -2.338344e+001 1.227309e+002 -3.459895e+001 1.015066e+002
48117968.75 -2.761881e+001 1.380452e+001 -2.014074e+001 1.113963e+002 -2.274599e+001 1.205918e+002 -4.015813e+001 5.246497e+001
51235937.5 -2.633490e+001 1.801494e+001 -1.969427e+001 1.131366e+002 -1.969884e+001 8.351339e+001 -3.904611e+001 1.480618e+002
54353906.25 -2.780426e+001 4.383402e+001 -1.971703e+001 7.832735e+001 -2.067505e+001 7.574513e+001 -3.933978e+001 1.737258e+002
57471875 -3.113487e+001 2.544281e+000 -1.912025e+001 6.090283e+001 -1.974837e+001 5.277850e+001 -4.085660e+001 8.501839e+001
60589843.75 -3.350159e+001 2.994789e+001 -2.115352e+001 4.610210e+001 -2.042185e+001 3.295416e+001 -3.753775e+001 4.968145e+001
63707812.5 -3.372081e+001 -1.007918e+001 -2.001591e+001 3.291435e+001 -2.002729e+001 2.346002e+001 -3.041947e+001 4.994456e+001
66825781.25 -3.040504e+001 -1.547462e+001 -1.994431e+001 8.753547e+000 -2.100154e+001 7.754732e+000 -3.384706e+001 4.210198e+001
69943750 -3.270316e+001 1.039566e+001 -2.087865e+001 -5.215974e+000 -2.031895e+001 -9.306881e+000 -3.121075e+001 1.602461e+000
73061718.75 -3.109307e+001 8.845326e+000 -2.037105e+001 -2.300023e+001 -2.104107e+001 -1.651818e+001 -3.518796e+001 -3.499379e+001
76179687.5 -3.125552e+001 1.035678e+001 -1.974644e+001 -3.738324e+001 -2.021270e+001 -3.888212e+001 -3.395277e+001 -2.289756e+001
79297656.25 -3.194131e+001 -3.717044e+000 -2.192624e+001 -4.568560e+001 -2.023405e+001 -5.218362e+001 -3.680069e+001 -3.057884e+001
82415625 -3.173590e+001 5.010347e+000 -2.051635e+001 -7.004272e+001 -2.041943e+001 -7.304556e+001 -4.700938e+001 -9.441174e+001
85533593.75 -2.957789e+001 1.939515e+000 -2.035810e+001 -8.954074e+001 -2.034666e+001 -8.728937e+001 -4.343519e+001 1.779334e+002
88651562.5 -2.952926e+001 9.962726e+000 -2.030962e+001 -1.029924e+002 -2.031055e+001 -1.055296e+002 -3.846096e+001 -1.792550e+002
91769531.25 -3.167031e+001 9.150723e+000 -2.065706e+001 -1.207752e+002 -2.039532e+001 -1.205005e+002 -5.325763e+001 -6.827942e+001
94887500 -3.037586e+001 -4.476407e+000 -2.065930e+001 -1.384955e+002 -1.989665e+001 -1.376132e+002 -4.383228e+001 1.535061e+002
98005468.75 -3.051616e+001 2.576409e+000 -1.985364e+001 -1.526504e+002 -2.078701e+001 -1.512733e+002 -3.788179e+001 3.665743e+001
101123437.5 -3.135936e+001 3.846821e-001 -2.004664e+001 -1.669688e+002 -2.074455e+001 -1.685757e+002 -3.442549e+001 3.881929e+001
104241406.25 -3.190636e+001 1.433114e+001 -2.067260e+001 1.735413e+002 -2.067238e+001 1.760182e+002 -3.623952e+001 -2.628693e+001
107359375 -3.179207e+001 1.394238e+000 -2.048631e+001 1.612850e+002 -2.029449e+001 1.597262e+002 -3.882677e+001 -3.110441e+001
110477343.75 -3.087817e+001 6.605875e-001 -2.093105e+001 1.428902e+002 -2.057769e+001 1.410411e+002 -3.278016e+001 -4.825220e+001
113595312.5 -3.153615e+001 -9.669824e+000 -2.046906e+001 1.244278e+002 -2.058487e+001 1.288822e+002 -4.017397e+001 -5.098612e+001
116713281.25 -3.333152e+001 5.184560e+000 -2.051860e+001 1.143496e+002 -2.044676e+001 1.098273e+002 -3.648005e+001 -8.845093e+001
119831250 -3.132574e+001 -6.939449e+000 -2.027930e+001 9.120587e+001 -2.076224e+001 9.350648e+001 -3.736214e+001 -1.224148e+002
122949218.75 -3.030793e+001 -3.939996e+000 -2.038968e+001 7.832062e+001 -2.046155e+001 7.684358e+001 -4.371672e+001 -1.686944e+002
126067187.5 -3.072853e+001 -1.086166e+000 -2.085986e+001 6.354680e+001 -2.077097e+001 6.207509e+001 -4.171017e+001 1.516511e+002
129185156.25 -3.052632e+001 -1.857282e+000 -2.036135e+001 4.539438e+001 -2.077369e+001 4.519245e+001 -3.812460e+001 8.327469e+001
132303125 -3.147506e+001 -1.057721e+001 -2.070321e+001 3.044209e+001 -2.064555e+001 2.893573e+001 -3.671595e+001 4.656397e+001
135421093.75 -3.039295e+001 -9.387774e+000 -2.051641e+001 1.334397e+001 -2.033276e+001 1.437165e+001 -3.558681e+001 3.429938e+001
138539062.5 -3.210234e+001 -1.003255e+001 -2.068443e+001 -1.385787e+000 -2.030897e+001 -3.908968e+000 -3.503153e+001 1.457590e+001
141657031.25 -3.049452e+001 -6.102592e+000 -2.075023e+001 -1.798169e+001 -2.064134e+001 -1.896790e+001 -3.460094e+001 -3.401576e+000
144775000 -3.153000e+001 -1.443266e+001 -2.061365e+001 -3.616283e+001 -2.061478e+001 -3.376590e+001 -3.688877e+001 -2.779696e+001
147892968.75 -3.050163e+001 -1.092767e+001 -2.064350e+001 -5.178989e+001 -2.072266e+001 -5.265413e+001 -3.660679e+001 -5.698224e+001
151010937.5 -3.062182e+001 -5.867574e+000 -2.060025e+001 -6.737257e+001 -2.072816e+001 -6.679348e+001 -3.861588e+001 -8.316489e+001
154128906.25 -3.152943e+001 -1.108514e+001 -2.071784e+001 -8.316093e+001 -2.075360e+001 -8.375359e+001 -4.136904e+001 -9.003584e+001
157246875 -3.038454e+001 -5.187605e+000 -2.069526e+001 -9.891421e+001 -2.063727e+001 -9.898946e+001 -4.561077e+001 -1.040187e+002
160364843.75 -3.061708e+001 -4.647215e+000 -2.091337e+001 -1.147682e+002 -2.072043e+001 -1.181228e+002 -5.099243e+001 1.551019e+001
163482812.5 -3.145850e+001 -4.609415e+000 -2.066458e+001 -1.330326e+002 -2.055464e+001 -1.335551e+002 -3.597062e+001 5.040062e+001
166600781.25 -3.127012e+001 -2.833745e+000 -2.054138e+001 -1.479373e+002 -2.083849e+001 -1.483773e+002 -3.633363e+001 3.434882e+001
169718750 -3.163172e+001 -9.422441e-001 -2.086730e+001 -1.656924e+002 -2.083522e+001 -1.655775e+002 -3.429503e+001 1.362312e+001
172836718.75 -3.041793e+001 -5.427406e+000 -2.067266e+001 1.783206e+002 -2.059113e+001 1.779341e+002 -3.402736e+001 -8.493183e-001
175954687.5 -3.011813e+001 -3.485708e+000 -2.072160e+001 1.616935e+002 -2.058140e+001 1.625457e+002 -3.367205e+001 -1.077686e+001
179072656.25 -3.011014e+001 -6.393571e+000 -2.052095e+001 1.467658e+002 -2.056833e+001 1.459477e+002 -3.567569e+001 -3.432196e+001
182190625 -3.094195e+001 -7.384755e+000 -2.048050e+001 1.297608e+002 -2.058392e+001 1.302340e+002 -3.699246e+001 -4.939568e+001
185308593.75 -3.073452e+001 -4.740762e+000 -2.073270e+001 1.141636e+002 -2.072417e+001 1.140838e+002 -4.333771e+001 -6.676784e+001
188426562.5 -3.031537e+001 -1.561562e+000 -2.071478e+001 9.806080e+001 -2.076981e+001 9.702759e+001 -4.441254e+001 -1.329938e+002
191544531.25 -3.024987e+001 -4.987788e+000 -2.069621e+001 8.190198e+001 -2.089417e+001 8.033701e+001 -4.737665e+001 1.411946e+002
194662500 -3.044616e+001 -2.635068e+000 -2.059501e+001 6.505319e+001 -2.080418e+001 6.566653e+001 -4.151973e+001 8.817404e+001
197780468.75 -3.075664e+001 7.888923e-001 -2.069300e+001 4.895841e+001 -2.067292e+001 4.949190e+001 -3.663282e+001 7.007892e+001
200898437.5 -3.095410e+001 -4.008316e+000 -2.093119e+001 3.247407e+001 -2.077682e+001 3.236557e+001 -3.454531e+001 4.966323e+001
204016406.25 -3.101690e+001 -5.323454e+000 -2.056248e+001 1.640801e+001 -2.081081e+001 1.649220e+001 -3.590294e+001 3.169471e+001
207134375 -3.122094e+001 2.975156e-001 -2.061877e+001 1.590514e-001 -2.083555e+001 1.057572e+000 -3.501902e+001 1.154217e+001
210252343.75 -3.140754e+001 1.375813e+000 -2.069992e+001 -1.593010e+001 -2.075843e+001 -1.533855e+001 -3.490158e+001 -4.355762e+000
213370312.5 -3.141050e+001 -3.255769e-001 -2.070951e+001 -3.120433e+001 -2.071406e+001 -3.279987e+001 -3.630312e+001 -1.643700e+001
216488281.25 -3.115456e+001 4.365309e-001 -2.076034e+001 -4.746603e+001 -2.062103e+001 -4.839477e+001 -3.912008e+001 -3.514897e+001
219606250 -3.090101e+001 6.869140e-001 -2.068406e+001 -6.344464e+001 -2.093609e+001 -6.447664e+001 -4.259341e+001 -3.934272e+001
222724218.75 -3.136317e+001 5.824710e-002 -2.079630e+001 -8.007365e+001 -2.063985e+001 -8.158071e+001 -5.246847e+001 3.619662e+001
225842187.5 -3.140376e+001 2.441687e+000 -2.084576e+001 -9.708018e+001 -2.056019e+001 -9.790535e+001 -4.577766e+001 7.746442e+001
228960156.25 -3.163524e+001 1.306144e+000 -2.070743e+001 -1.132119e+002 -2.067620e+001 -1.131866e+002 -4.165717e+001 8.479231e+001
232078125 -3.143879e+001 4.078907e+000 -2.081972e+001 -1.287492e+002 -2.060346e+001 -1.299183e+002 -3.912050e+001 6.433952e+001
235196093.75 -3.113776e+001 5.051893e+000 -2.064951e+001 -1.455165e+002 -2.072476e+001 -1.467230e+002 -3.772635e+001 5.332893e+001
238314062.5 -3.173382e+001 2.513022e+000 -2.078280e+001 -1.614339e+002 -2.089666e+001 -1.631131e+002 -3.556473e+001 2.038486e+001
241432031.25 -3.114885e+001 5.995583e+000 -2.081493e+001 -1.772569e+002 -2.094502e+001 -1.770480e+002 -3.438553e+001 -5.413990e-001
244550000 -3.161838e+001 3.137998e+000 -2.084235e+001 1.658656e+002 -2.087016e+001 1.666695e+002 -3.622802e+001 -7.228161e+000
247667968.75 -3.090871e+001 4.140182e+000 -2.071481e+001 1.490838e+002 -2.084707e+001 1.487965e+002 -3.728112e+001 -2.476310e+001
250785937.5 -3.108775e+001 2.884833e+000 -2.087354e+001 1.346519e+002 -2.072174e+001 1.327183e+002 -4.009865e+001 -5.679265e+001
253903906.25 -3.172029e+001 8.388848e+000 -2.084508e+001 1.178097e+002 -2.081729e+001 1.157606e+002 -4.502789e+001 -8.526126e+001
257021875 -3.183461e+001 3.319325e+000 -2.081243e+001 9.944746e+001 -2.073348e+001 9.948296e+001 -4.770768e+001 -1.448698e+002
260139843.75 -3.185820e+001 -1.285705e-001 -2.066079e+001 8.392757e+001 -2.084887e+001 8.293938e+001 -4.188665e+001 1.295237e+002
263257812.5 -3.177996e+001 4.412776e+000 -2.091481e+001 6.778268e+001 -2.075471e+001 6.847604e+001 -3.874620e+001 1.040194e+002
266375781.25 -3.223483e+001 -2.386552e-001 -2.072783e+001 5.117652e+001 -2.090305e+001 5.298281e+001 -3.642997e+001 7.506586e+001
269493750 -3.265415e+001 2.939217e+000 -2.095851e+001 3.545979e+001 -2.101193e+001 3.615763e+001 -3.534436e+001 5.357880e+001
272611718.75 -3.284654e+001 4.040354e+000 -2.090780e+001 1.907498e+001 -2.089837e+001 2.138807e+001 -3.378413e+001 2.952277e+001
275729687.5 -3.239285e+001 1.656718e+000 -2.090631e+001 3.596077e+000 -2.100151e+001 3.353447e+000 -3.356290e+001 8.571955e+000
278847656.25 -3.205943e+001 2.800054e+000 -2.077757e+001 -1.278730e+001 -2.075127e+001 -1.323267e+001 -3.320778e+001 -7.067515e+000
281965625 -3.165475e+001 4.336025e+000 -2.080621e+001 -2.791067e+001 -2.093106e+001 -2.872126e+001 -3.597417e+001 -1.457300e+001
285083593.75 -3.162465e+001 5.039971e+000 -2.089982e+001 -4.541884e+001 -2.086483e+001 -4.506571e+001 -3.672123e+001 -3.078437e+001
288201562.5 -3.245373e+001 1.684526e+000 -2.087782e+001 -6.149209e+001 -2.082795e+001 -6.110430e+001 -4.084742e+001 -4.230719e+001
291319531.25 -3.237316e+001 -7.692815e-002 -2.087680e+001 -7.721881e+001 -2.086082e+001 -7.776494e+001 -4.768472e+001 -7.386068e+001
294437500 -3.222429e+001 -2.151910e+000 -2.084535e+001 -9.380151e+001 -2.082049e+001 -9.403265e+001 -5.239807e+001 9.207354e+001
297555468.75 -3.288013e+001 -2.731268e+000 -2.079012e+001 -1.099586e+002 -2.089089e+001 -1.102270e+002 -4.423746e+001 8.919785e+001
300673437.5 -3.329641e+001 -3.637700e+000 -2.093181e+001 -1.260508e+002 -2.079123e+001 -1.262519e+002 -3.916828e+001 5.650380e+001
303791406.25 -3.316454e+001 -2.224316e+000 -2.094317e+001 -1.419328e+002 -2.088561e+001 -1.424666e+002 -3.709154e+001 4.279922e+001
306909375 -3.332473e+001 -2.913980e+000 -2.094365e+001 -1.585341e+002 -2.084915e+001 -1.587752e+002 -3.585487e+001 2.571056e+001
310027343.75 -3.271452e+001 -1.080392e+000 -2.092085e+001 -1.747005e+002 -2.081751e+001 -1.746621e+002 -3.540092e+001 1.060157e+001
313145312.5 -3.263148e+001 -2.152330e+000 -2.085961e+001 1.692200e+002 -2.091645e+001 1.686805e+002 -3.498691e+001 -6.561441e+000
316263281.25 -3.318094e+001 -2.199034e+000 -2.080793e+001 1.544214e+002 -2.090061e+001 1.524877e+002 -3.515477e+001 -3.116470e+001
319381250 -3.319653e+001 -2.760419e+000 -2.095114e+001 1.366150e+002 -2.093570e+001 1.355598e+002 -3.770670e+001 -5.127014e+001
322499218.75 -3.319612e+001 -2.768297e+000 -2.090915e+001 1.216980e+002 -2.083926e+001 1.199712e+002 -4.163995e+001 -7.620689e+001
325617187.5 -3.322931e+001 -6.489952e+000 -2.089689e+001 1.040978e+002 -2.091408e+001 1.043668e+002 -4.454564e+001 -1.196914e+002
328735156.25 -3.290085e+001 -6.958417e+000 -2.087979e+001 8.815308e+001 -2.090005e+001 8.756910e+001 -5.029469e+001 1.777339e+002
331853125 -3.313494e+001 -9.344534e+000 -2.089993e+001 7.225100e+001 -2.086780e+001 7.138126e+001 -4.337125e+001 1.012934e+002
334971093.75 -3.296873e+001 -7.746406e+000 -2.095977e+001 5.578848e+001 -2.092959e+001 5.554083e+001 -3.920550e+001 7.423494e+001
338089062.5 -3.297196e+001 -7.110262e+000 -2.083113e+001 3.985303e+001 -2.094540e+001 3.935389e+001 -3.637596e+001 5.228365e+001
341207031.25 -3.331888e+001 -6.513328e+000 -2.085111e+001 2.400400e+001 -2.088593e+001 2.308912e+001 -3.501208e+001 3.111084e+001
344325000 -3.304277e+001 -7.017832e+000 -2.094535e+001 7.079023e+000 -2.086254e+001 6.383272e+000 -3.414375e+001 1.581970e+001
347442968.75 -3.297756e+001 -1.171958e+001 -2.083908e+001 -9.025581e+000 -2.100835e+001 -9.905292e+000 -3.467484e+001 2.031434e-001
350560937.5 -3.305523e+001 -1.171019e+001 -2.094345e+001 -2.506302e+001 -2.093044e+001 -2.592865e+001 -3.626799e+001 -1.735175e+001
353678906.25 -3.275679e+001 -1.133251e+001 -2.098144e+001 -4.255650e+001 -2.095558e+001 -4.202987e+001 -3.808853e+001 -3.949845e+001
356796875 -3.265998e+001 -1.098969e+001 -2.104618e+001 -5.796681e+001 -2.090447e+001 -5.756003e+001 -4.058988e+001 -5.181198e+001
359914843.75 -3.267859e+001 -1.196307e+001 -2.092933e+001 -7.342886e+001 -2.098593e+001 -7.424619e+001 -4.739655e+001 -8.445970e+001
363032812.5 -3.291856e+001 -1.578245e+001 -2.096064e+001 -9.002510e+001 -2.096531e+001 -9.003973e+001 -6.073885e+001 1.620700e+002
366150781.25 -3.254056e+001 -1.250075e+001 -2.095671e+001 -1.065703e+002 -2.093436e+001 -1.062594e+002 -4.406486e+001 9.010816e+001
369268750 -3.273637e+001 -1.272012e+001 -2.091990e+001 -1.221602e+002 -2.107797e+001 -1.228805e+002 -4.011988e+001 6.967939e+001
372386718.75 -3.230996e+001 -1.120877e+001 -2.086519e+001 -1.387747e+002 -2.096644e+001 -1.395774e+002 -3.753492e+001 5.056647e+001
375504687.5 -3.207442e+001 -1.416922e+001 -2.085733e+001 -1.549341e+002 -2.094821e+001 -1.552639e+002 -3.618432e+001 3.195376e+001
378622656.25 -3.208755e+001 -1.306832e+001 -2.092661e+001 -1.713602e+002 -2.094435e+001 -1.714897e+002 -3.538046e+001 1.228603e+001
381740625 -3.209734e+001 -1.399826e+001 -2.096431e+001 1.728894e+002 -2.101768e+001 1.724575e+002 -3.645820e+001 -5.355626e+000
384858593.75 -3.209230e+001 -1.256060e+001 -2.098461e+001 1.565447e+002 -2.099885e+001 1.559621e+002 -3.706400e+001 -2.098669e+001
387976562.5 -3.176659e+001 -1.335220e+001 -2.094806e+001 1.404451e+002 -2.098086e+001 1.401903e+002 -3.889199e+001 -4.505043e+001
391094531.25 -3.174383e+001 -1.247504e+001 -2.102122e+001 1.247191e+002 -2.095361e+001 1.239462e+002 -4.284979e+001 -7.552334e+001
394212500 -3.221091e+001 -1.450851e+001 -2.095630e+001 1.081815e+002 -2.093398e+001 1.075998e+002 -4.676348e+001 -1.447222e+002
397330468.75 -3.174597e+001 -1.474419e+001 -2.100462e+001 9.184222e+001 -2.102321e+001 9.156871e+001 -4.539317e+001 1.517826e+002
400448437.5 -3.178358e+001 -1.437172e+001 -2.101417e+001 7.577085e+001 -2.096510e+001 7.532578e+001 -4.043103e+001 1.153884e+002
403566406.25 -3.159410e+001 -1.321046e+001 -2.097616e+001 5.954391e+001 -2.099932e+001 5.924136e+001 -3.760262e+001 8.644793e+001
406684375 -3.169335e+001 -1.346919e+001 -2.100698e+001 4.360070e+001 -2.103700e+001 4.280617e+001 -3.650782e+001 7.326779e+001
409802343.75 -3.168129e+001 -1.509464e+001 -2.098166e+001 2.699423e+001 -2.103847e+001 2.661817e+001 -3.550535e+001 5.265396e+001
412920312.5 -3.149688e+001 -1.328438e+001 -2.098335e+001 1.070238e+001 -2.098111e+001 1.000625e+001 -3.474941e+001 3.357456e+001
416038281.25 -3.165243e+001 -1.205030e+001 -2.102687e+001 -5.014125e+000 -2.099778e+001 -5.890231e+000 -3.497947e+001 1.808957e+001
419156250 -3.145171e+001 -1.066722e+001 -2.104484e+001 -2.164873e+001 -2.098360e+001 -2.206661e+001 -3.600819e+001 5.240006e+000
422274218.75 -3.191567e+001 -1.229654e+001 -2.107012e+001 -3.770597e+001 -2.101711e+001 -3.834702e+001 -3.879697e+001 -1.480037e+001
425392187.5 -3.163273e+001 -1.108702e+001 -2.103476e+001 -5.414725e+001 -2.103245e+001 -5.414888e+001 -4.299770e+001 -2.315344e+001
428510156.25 -3.173412e+001 -9.566577e+000 -2.102939e+001 -7.044947e+001 -2.098388e+001 -7.022916e+001 -4.955808e+001 -1.255541e+001
431628125 -3.187981e+001 -8.820434e+000 -2.102447e+001 -8.669515e+001 -2.099843e+001 -8.669380e+001 -4.910538e+001 7.244060e+001
434746093.75 -3.178285e+001 -8.804084e+000 -2.101420e+001 -1.030076e+002 -2.099756e+001 -1.032435e+002 -4.305535e+001 7.305038e+001
437864062.5 -3.163733e+001 -1.038979e+001 -2.099945e+001 -1.189990e+002 -2.103711e+001 -1.195805e+002 -3.889879e+001 6.081077e+001
440982031.25 -3.171624e+001 -8.721353e+000 -2.104364e+001 -1.351410e+002 -2.105814e+001 -1.355694e+002 -3.741782e+001 4.346818e+001
444100000 -3.178621e+001 -8.158948e+000 -2.109589e+001 -1.515282e+002 -2.100125e+001 -1.517837e+002 -3.571418e+001 2.587672e+001
447217968.75 -3.179893e+001 -9.481229e+000 -2.106355e+001 -1.674344e+002 -2.110505e+001 -1.684169e+002 -3.553119e+001 8.218919e+000
450335937.5 -3.196081e+001 -1.011327e+001 -2.107095e+001 1.764576e+002 -2.106347e+001 1.759084e+002 -3.582126e+001 -1.207672e+001
453453906.25 -3.187476e+001 -8.219517e+000 -2.094918e+001 1.602057e+002 -2.105313e+001 1.596012e+002 -3.673351e+001 -3.284555e+001
456571875 -3.176321e+001 -7.176815e+000 -2.106197e+001 1.435547e+002 -2.105388e+001 1.437725e+002 -3.892084e+001 -5.333771e+001
459689843.75 -3.183107e+001 -8.476719e+000 -2.108317e+001 1.278192e+002 -2.095893e+001 1.269767e+002 -4.285620e+001 -8.754768e+001
462807812.5 -3.191543e+001 -6.318725e+000 -2.110909e+001 1.115783e+002 -2.112280e+001 1.109505e+002 -4.486781e+001 -1.473492e+002
465925781.25 -3.194494e+001 -8.093931e+000 -2.108261e+001 9.570728e+001 -2.105211e+001 9.457696e+001 -4.252547e+001 1.554146e+002
469043750 -3.207199e+001 -6.927928e+000 -2.108293e+001 7.868285e+001 -2.108897e+001 7.904408e+001 -3.965061e+001 1.194209e+002
472161718.75 -3.233603e+001 -8.423164e+000 -2.111106e+001 6.270300e+001 -2.110662e+001 6.230520e+001 -3.675131e+001 9.471446e+001
475279687.5 -3.207737e+001 -7.795483e+000 -2.102394e+001 4.666548e+001 -2.104732e+001 4.610678e+001 -3.548720e+001 7.391015e+001
478397656.25 -3.230761e+001 -7.190359e+000 -2.107507e+001 3.052671e+001 -2.105927e+001 2.960210e+001 -3.438363e+001 5.374532e+001
481515625 -3.223701e+001 -6.053784e+000 -2.111212e+001 1.448555e+001 -2.112875e+001 1.335559e+001 -3.373436e+001 3.486124e+001
484633593.75 -3.235691e+001 -6.357554e+000 -2.108822e+001 -1.414369e+000 -2.110826e+001 -2.401150e+000 -3.404700e+001 1.678785e+001
487751562.5 -3.249060e+001 -6.925833e+000 -2.106473e+001 -1.817490e+001 -2.110393e+001 -1.886429e+001 -3.498273e+001 7.168227e-001
490869531.25 -3.239323e+001 -6.694763e+000 -2.114072e+001 -3.414883e+001 -2.116315e+001 -3.468492e+001 -3.703468e+001 -1.377657e+001
493987500 -3.266050e+001 -1.000475e+001 -2.113310e+001 -5.065861e+001 -2.107663e+001 -5.132618e+001 -4.084080e+001 -2.817140e+001
497105468.75 -3.261868e+001 -1.040515e+001 -2.112336e+001 -6.669838e+001 -2.109908e+001 -6.719962e+001 -4.588643e+001 -3.722150e+001
500223437.5 -3.269495e+001 -7.943645e+000 -2.113093e+001 -8.317044e+001 -2.111584e+001 -8.342839e+001 -5.461753e+001 5.346614e+001
503341406.25 -3.273257e+001 -9.217773e+000 -2.109652e+001 -9.924481e+001 -2.103633e+001 -9.996523e+001 -4.460845e+001 8.011340e+001
506459375 -3.289243e+001 -1.069429e+001 -2.114598e+001 -1.154203e+002 -2.104082e+001 -1.162288e+002 -3.988457e+001 6.719064e+001
509577343.75 -3.291755e+001 -1.084081e+001 -2.108423e+001 -1.319861e+002 -2.106065e+001 -1.323015e+002 -3.648965e+001 5.280062e+001
