!Agilent Technologies,E8364A,US41440322,A.04.87.01
!Agilent E8364A: A.04.87.01
!Date: Thursday, July 11, 2024 14:21:50
!Correction: S11(Full 2 Port SOLT,1,2) S21(Full 2 Port SOLT,1,2) S12(Full 2 Port SOLT,1,2) S22(Full 2 Port SOLT,1,2)
!S2P File: Measurements: S11, S21, S12, S22:
# Hz S  dB   R 50
45000000 -9.733808e+000 1.620127e+002 -3.617094e+000 -2.837432e+001 -3.671546e+000 -2.828664e+001 -9.710897e+000 1.309535e+002
48117968.75 -9.850724e+000 1.657238e+002 -3.371131e+000 -3.146762e+001 -3.715708e+000 -3.106785e+001 -1.015810e+001 1.283058e+002
51235937.5 -1.030435e+001 1.670179e+002 -3.441182e+000 -3.124607e+001 -3.574015e+000 -3.270990e+001 -1.021640e+001 1.290465e+002
54353906.25 -9.723633e+000 1.638100e+002 -3.847844e+000 -3.611281e+001 -3.568820e+000 -3.748687e+001 -1.025607e+001 1.277374e+002
57471875 -9.708589e+000 1.638091e+002 -3.912172e+000 -3.806870e+001 -3.811184e+000 -3.994922e+001 -1.020691e+001 1.169099e+002
60589843.75 -9.899607e+000 1.600217e+002 -3.676183e+000 -4.115402e+001 -3.521844e+000 -4.191955e+001 -1.047768e+001 1.160462e+002
63707812.5 -9.864940e+000 1.610364e+002 -3.600301e+000 -4.554319e+001 -3.598043e+000 -4.320836e+001 -9.570293e+000 1.152555e+002
66825781.25 -9.790578e+000 1.626006e+002 -3.798862e+000 -4.379421e+001 -3.400884e+000 -4.508294e+001 -9.710278e+000 1.098830e+002
69943750 -9.645113e+000 1.587302e+002 -3.796749e+000 -4.557323e+001 -3.562644e+000 -4.735934e+001 -1.035000e+001 1.010315e+002
73061718.75 -9.685276e+000 1.563483e+002 -3.642279e+000 -4.859249e+001 -3.583091e+000 -5.037152e+001 -9.892314e+000 1.012240e+002
76179687.5 -9.520391e+000 1.557432e+002 -3.661838e+000 -5.068370e+001 -3.778384e+000 -5.250413e+001 -1.023228e+001 9.296141e+001
79297656.25 -9.577044e+000 1.558034e+002 -3.745953e+000 -5.173147e+001 -3.625278e+000 -5.374527e+001 -1.029399e+001 9.220828e+001
82415625 -9.364534e+000 1.548116e+002 -3.599682e+000 -5.542885e+001 -3.628857e+000 -5.486325e+001 -1.022924e+001 8.981662e+001
85533593.75 -9.999906e+000 1.528420e+002 -3.648528e+000 -5.668666e+001 -3.701676e+000 -5.778727e+001 -1.031512e+001 8.975577e+001
88651562.5 -9.882145e+000 1.511730e+002 -3.623635e+000 -5.887475e+001 -3.646902e+000 -5.919363e+001 -1.024274e+001 8.543761e+001
91769531.25 -9.766005e+000 1.527016e+002 -3.701488e+000 -6.062504e+001 -3.603181e+000 -6.092964e+001 -1.070848e+001 8.200791e+001
94887500 -9.712687e+000 1.513680e+002 -3.715663e+000 -6.365150e+001 -3.576103e+000 -6.365071e+001 -1.058005e+001 7.860532e+001
98005468.75 -9.810696e+000 1.504936e+002 -3.631665e+000 -6.532297e+001 -3.608313e+000 -6.527531e+001 -1.050321e+001 7.537607e+001
101123437.5 -9.751106e+000 1.498454e+002 -3.752806e+000 -6.783893e+001 -3.545839e+000 -6.809064e+001 -1.024400e+001 7.187646e+001
104241406.25 -9.792719e+000 1.486068e+002 -3.666625e+000 -6.964887e+001 -3.666038e+000 -6.993207e+001 -1.039916e+001 6.980042e+001
107359375 -9.683556e+000 1.477613e+002 -3.643741e+000 -7.133763e+001 -3.668971e+000 -7.200269e+001 -1.034827e+001 6.500082e+001
110477343.75 -9.599536e+000 1.469009e+002 -3.738594e+000 -7.424339e+001 -3.720564e+000 -7.380945e+001 -1.061218e+001 6.122035e+001
113595312.5 -9.768316e+000 1.457872e+002 -3.709491e+000 -7.628794e+001 -3.646655e+000 -7.607249e+001 -1.043520e+001 5.759850e+001
116713281.25 -9.864972e+000 1.451861e+002 -3.745123e+000 -7.828262e+001 -3.640846e+000 -7.821034e+001 -1.033976e+001 5.397029e+001
119831250 -9.554353e+000 1.443397e+002 -3.610919e+000 -8.062142e+001 -3.703708e+000 -8.012282e+001 -1.052570e+001 5.078115e+001
122949218.75 -9.718959e+000 1.428981e+002 -3.692577e+000 -8.202782e+001 -3.618972e+000 -8.258147e+001 -1.063836e+001 4.839953e+001
126067187.5 -9.748289e+000 1.410059e+002 -3.688922e+000 -8.414285e+001 -3.664129e+000 -8.456897e+001 -1.053143e+001 4.629949e+001
129185156.25 -9.636830e+000 1.405561e+002 -3.662665e+000 -8.655336e+001 -3.648890e+000 -8.626442e+001 -1.050193e+001 4.206301e+001
132303125 -9.844276e+000 1.407688e+002 -3.683150e+000 -8.850522e+001 -3.682760e+000 -8.815249e+001 -1.049995e+001 3.798011e+001
135421093.75 -9.798487e+000 1.392471e+002 -3.704220e+000 -9.047802e+001 -3.685951e+000 -9.037846e+001 -1.060415e+001 3.481471e+001
138539062.5 -9.669230e+000 1.382009e+002 -3.674117e+000 -9.229089e+001 -3.705240e+000 -9.274744e+001 -1.060010e+001 3.185807e+001
141657031.25 -9.796464e+000 1.369979e+002 -3.777024e+000 -9.453526e+001 -3.659458e+000 -9.457161e+001 -1.059579e+001 2.915051e+001
144775000 -9.740885e+000 1.355912e+002 -3.699558e+000 -9.716974e+001 -3.683590e+000 -9.670338e+001 -1.059866e+001 2.466852e+001
147892968.75 -9.752025e+000 1.356766e+002 -3.720172e+000 -9.934162e+001 -3.730701e+000 -9.867888e+001 -1.073658e+001 2.070081e+001
151010937.5 -9.690347e+000 1.340744e+002 -3.719280e+000 -1.008378e+002 -3.748885e+000 -1.009556e+002 -1.072288e+001 1.685537e+001
154128906.25 -9.666042e+000 1.334005e+002 -3.675654e+000 -1.028732e+002 -3.732112e+000 -1.030264e+002 -1.081043e+001 1.318325e+001
157246875 -9.658761e+000 1.318857e+002 -3.721106e+000 -1.048517e+002 -3.641152e+000 -1.051063e+002 -1.074434e+001 9.098215e+000
160364843.75 -9.616001e+000 1.308352e+002 -3.739568e+000 -1.072542e+002 -3.648227e+000 -1.072676e+002 -1.068391e+001 5.860442e+000
163482812.5 -9.670862e+000 1.296214e+002 -3.728624e+000 -1.091957e+002 -3.646149e+000 -1.093805e+002 -1.061707e+001 3.487992e+000
166600781.25 -9.705346e+000 1.285186e+002 -3.703564e+000 -1.115848e+002 -3.708622e+000 -1.115973e+002 -1.060034e+001 3.741159e-003
169718750 -9.629551e+000 1.276269e+002 -3.714911e+000 -1.131824e+002 -3.710073e+000 -1.135635e+002 -1.058122e+001 -3.748547e+000
172836718.75 -9.589453e+000 1.261501e+002 -3.717964e+000 -1.154095e+002 -3.669931e+000 -1.158332e+002 -1.062218e+001 -6.908277e+000
175954687.5 -9.667698e+000 1.256266e+002 -3.677275e+000 -1.177268e+002 -3.685766e+000 -1.176654e+002 -1.064222e+001 -1.043842e+001
179072656.25 -9.639092e+000 1.243805e+002 -3.705450e+000 -1.196540e+002 -3.627817e+000 -1.194669e+002 -1.069965e+001 -1.352476e+001
182190625 -9.653880e+000 1.234659e+002 -3.672775e+000 -1.217032e+002 -3.622776e+000 -1.216260e+002 -1.069856e+001 -1.699116e+001
185308593.75 -9.634480e+000 1.221385e+002 -3.680513e+000 -1.235838e+002 -3.628073e+000 -1.237882e+002 -1.063468e+001 -2.011541e+001
188426562.5 -9.632961e+000 1.212715e+002 -3.719288e+000 -1.255190e+002 -3.667994e+000 -1.260509e+002 -1.072909e+001 -2.533192e+001
191544531.25 -9.670731e+000 1.205465e+002 -3.671875e+000 -1.279951e+002 -3.643306e+000 -1.281144e+002 -1.072449e+001 -2.817610e+001
194662500 -9.680704e+000 1.195366e+002 -3.680107e+000 -1.299618e+002 -3.707036e+000 -1.302629e+002 -1.069703e+001 -3.217949e+001
197780468.75 -9.746540e+000 1.187277e+002 -3.693635e+000 -1.318946e+002 -3.709218e+000 -1.322374e+002 -1.066098e+001 -3.606731e+001
200898437.5 -9.652423e+000 1.171267e+002 -3.671909e+000 -1.340206e+002 -3.668398e+000 -1.344025e+002 -1.063764e+001 -3.932317e+001
204016406.25 -9.690998e+000 1.164818e+002 -3.730380e+000 -1.361059e+002 -3.725316e+000 -1.364737e+002 -1.068721e+001 -4.253562e+001
207134375 -9.745388e+000 1.153229e+002 -3.671564e+000 -1.382816e+002 -3.694741e+000 -1.386166e+002 -1.067119e+001 -4.680793e+001
210252343.75 -9.720785e+000 1.142467e+002 -3.685297e+000 -1.406720e+002 -3.695353e+000 -1.407041e+002 -1.074027e+001 -5.013144e+001
213370312.5 -9.720855e+000 1.126924e+002 -3.691128e+000 -1.427902e+002 -3.695834e+000 -1.427176e+002 -1.073884e+001 -5.321613e+001
216488281.25 -9.794919e+000 1.123022e+002 -3.702318e+000 -1.446366e+002 -3.721434e+000 -1.446446e+002 -1.069825e+001 -5.718904e+001
219606250 -9.771834e+000 1.111042e+002 -3.686460e+000 -1.465507e+002 -3.711449e+000 -1.469012e+002 -1.064751e+001 -6.080354e+001
222724218.75 -9.807812e+000 1.101768e+002 -3.724503e+000 -1.487191e+002 -3.721592e+000 -1.491462e+002 -1.068782e+001 -6.392186e+001
225842187.5 -9.807510e+000 1.091922e+002 -3.674888e+000 -1.507821e+002 -3.721750e+000 -1.514908e+002 -1.064021e+001 -6.746920e+001
228960156.25 -9.871499e+000 1.077875e+002 -3.720845e+000 -1.528714e+002 -3.718681e+000 -1.535956e+002 -1.058953e+001 -7.169460e+001
232078125 -9.890550e+000 1.067815e+002 -3.728980e+000 -1.551967e+002 -3.683635e+000 -1.553239e+002 -1.054871e+001 -7.515966e+001
235196093.75 -9.881074e+000 1.055828e+002 -3.699099e+000 -1.570567e+002 -3.684049e+000 -1.575549e+002 -1.051988e+001 -7.883244e+001
238314062.5 -9.979342e+000 1.045014e+002 -3.741547e+000 -1.590962e+002 -3.768901e+000 -1.596596e+002 -1.048573e+001 -8.177548e+001
241432031.25 -9.949069e+000 1.046839e+002 -3.674845e+000 -1.611531e+002 -3.847385e+000 -1.609233e+002 -1.046564e+001 -8.556522e+001
244550000 -1.005258e+001 1.037260e+002 -3.744692e+000 -1.633935e+002 -3.791867e+000 -1.625851e+002 -1.042651e+001 -8.883517e+001
247667968.75 -9.969338e+000 1.016990e+002 -3.771998e+000 -1.652751e+002 -3.746649e+000 -1.652466e+002 -1.045223e+001 -9.196504e+001
250785937.5 -9.985522e+000 1.006494e+002 -3.861517e+000 -1.664276e+002 -3.654521e+000 -1.683028e+002 -1.043368e+001 -9.500970e+001
253903906.25 -9.955089e+000 9.955697e+001 -3.759177e+000 -1.687610e+002 -3.683045e+000 -1.706032e+002 -1.038100e+001 -9.825275e+001
257021875 -1.001245e+001 9.820159e+001 -3.659549e+000 -1.720555e+002 -3.826807e+000 -1.723595e+002 -1.035069e+001 -1.022505e+002
260139843.75 -1.005818e+001 9.651940e+001 -3.673736e+000 -1.747594e+002 -3.809440e+000 -1.741832e+002 -1.030389e+001 -1.055924e+002
263257812.5 -1.014834e+001 9.621280e+001 -3.775072e+000 -1.761421e+002 -3.788692e+000 -1.754362e+002 -1.023369e+001 -1.081091e+002
266375781.25 -1.023631e+001 9.463388e+001 -3.831350e+000 -1.790984e+002 -3.908282e+000 -1.766380e+002 -1.040134e+001 -1.104304e+002
269493750 -1.029296e+001 9.397675e+001 -3.890669e+000 1.792528e+002 -3.875059e+000 -1.787087e+002 -1.031401e+001 -1.137076e+002
272611718.75 -1.031824e+001 9.367061e+001 -3.870929e+000 1.777271e+002 -3.713273e+000 1.786714e+002 -1.013734e+001 -1.174377e+002
275729687.5 -1.034163e+001 9.317596e+001 -3.906421e+000 1.762634e+002 -3.689776e+000 1.765579e+002 -1.008887e+001 -1.202939e+002
278847656.25 -1.029572e+001 9.208523e+001 -3.832401e+000 1.741409e+002 -3.739454e+000 1.738070e+002 -1.011424e+001 -1.244403e+002
281965625 -1.029961e+001 9.082991e+001 -3.858368e+000 1.723288e+002 -3.731472e+000 1.714251e+002 -1.010852e+001 -1.287251e+002
285083593.75 -1.031418e+001 8.990928e+001 -3.819801e+000 1.700192e+002 -3.767695e+000 1.695352e+002 -1.013465e+001 -1.318543e+002
288201562.5 -1.029815e+001 8.915828e+001 -3.839790e+000 1.679043e+002 -3.758360e+000 1.676522e+002 -1.015162e+001 -1.350176e+002
291319531.25 -1.038073e+001 8.816168e+001 -3.845284e+000 1.659886e+002 -3.736273e+000 1.652134e+002 -1.018813e+001 -1.384204e+002
294437500 -1.032804e+001 8.684993e+001 -3.817273e+000 1.637741e+002 -3.757645e+000 1.632499e+002 -1.017086e+001 -1.413008e+002
297555468.75 -1.039949e+001 8.564182e+001 -3.816575e+000 1.615561e+002 -3.784324e+000 1.609637e+002 -1.015427e+001 -1.449131e+002
300673437.5 -1.045657e+001 8.492343e+001 -3.825294e+000 1.597646e+002 -3.804739e+000 1.592404e+002 -1.017569e+001 -1.478941e+002
303791406.25 -1.045869e+001 8.421555e+001 -3.834637e+000 1.579154e+002 -3.830892e+000 1.573233e+002 -1.019511e+001 -1.510163e+002
306909375 -1.046158e+001 8.307126e+001 -3.843971e+000 1.555997e+002 -3.847862e+000 1.550654e+002 -1.019746e+001 -1.548092e+002
310027343.75 -1.042501e+001 8.235978e+001 -3.814651e+000 1.536814e+002 -3.836281e+000 1.531499e+002 -1.018027e+001 -1.579653e+002
313145312.5 -1.046533e+001 8.106605e+001 -3.808668e+000 1.513884e+002 -3.829604e+000 1.512795e+002 -1.019641e+001 -1.611005e+002
316263281.25 -1.047687e+001 8.045148e+001 -3.780892e+000 1.492180e+002 -3.835353e+000 1.489865e+002 -1.011600e+001 -1.644578e+002
319381250 -1.048200e+001 7.950744e+001 -3.794683e+000 1.470862e+002 -3.811766e+000 1.468771e+002 -1.008778e+001 -1.678078e+002
322499218.75 -1.050397e+001 7.861497e+001 -3.856050e+000 1.449995e+002 -3.875008e+000 1.449482e+002 -1.010529e+001 -1.710096e+002
325617187.5 -1.049669e+001 7.778974e+001 -3.827836e+000 1.430948e+002 -3.900362e+000 1.431035e+002 -1.009499e+001 -1.743486e+002
328735156.25 -1.055063e+001 7.671577e+001 -3.848456e+000 1.410119e+002 -3.889251e+000 1.409949e+002 -1.006228e+001 -1.777169e+002
331853125 -1.057316e+001 7.586464e+001 -3.830929e+000 1.390469e+002 -3.866586e+000 1.389820e+002 -1.001778e+001 1.790247e+002
334971093.75 -1.058430e+001 7.477589e+001 -3.849483e+000 1.369802e+002 -3.898271e+000 1.369289e+002 -1.002175e+001 1.755500e+002
338089062.5 -1.059254e+001 7.407108e+001 -3.872132e+000 1.348027e+002 -3.873315e+000 1.353375e+002 -1.000103e+001 1.723344e+002
341207031.25 -1.057683e+001 7.368729e+001 -3.842453e+000 1.328757e+002 -3.846823e+000 1.330567e+002 -9.971045e+000 1.691756e+002
344325000 -1.059828e+001 7.239062e+001 -3.885576e+000 1.306908e+002 -3.838036e+000 1.310502e+002 -9.908699e+000 1.656462e+002
347442968.75 -1.058709e+001 7.147244e+001 -3.900407e+000 1.285383e+002 -3.861616e+000 1.289717e+002 -9.880213e+000 1.624117e+002
350560937.5 -1.057802e+001 7.056370e+001 -3.904575e+000 1.263930e+002 -3.841771e+000 1.267540e+002 -9.843752e+000 1.590638e+002
353678906.25 -1.059640e+001 7.006244e+001 -3.885391e+000 1.247842e+002 -3.855071e+000 1.249059e+002 -9.857523e+000 1.560485e+002
356796875 -1.058359e+001 6.903655e+001 -3.881629e+000 1.226777e+002 -3.852219e+000 1.228805e+002 -9.830302e+000 1.527358e+002
359914843.75 -1.062868e+001 6.814577e+001 -3.933918e+000 1.207815e+002 -3.852978e+000 1.207329e+002 -9.755501e+000 1.494874e+002
363032812.5 -1.064571e+001 6.737131e+001 -3.933655e+000 1.189461e+002 -3.875944e+000 1.185731e+002 -9.749185e+000 1.462359e+002
366150781.25 -1.067022e+001 6.630689e+001 -3.946456e+000 1.167742e+002 -3.844157e+000 1.165112e+002 -9.672950e+000 1.430733e+002
369268750 -1.062140e+001 6.546671e+001 -3.882000e+000 1.149173e+002 -3.838886e+000 1.143930e+002 -9.698421e+000 1.401757e+002
372386718.75 -1.068628e+001 6.474657e+001 -3.901967e+000 1.127666e+002 -3.810418e+000 1.124160e+002 -9.640649e+000 1.371673e+002
375504687.5 -1.067917e+001 6.348986e+001 -3.900163e+000 1.106195e+002 -3.812330e+000 1.102370e+002 -9.603764e+000 1.339471e+002
378622656.25 -1.070640e+001 6.294020e+001 -3.887643e+000 1.087554e+002 -3.858304e+000 1.080287e+002 -9.652587e+000 1.306550e+002
381740625 -1.073027e+001 6.185251e+001 -3.887868e+000 1.065231e+002 -3.826335e+000 1.063050e+002 -9.615691e+000 1.277905e+002
384858593.75 -1.072350e+001 6.112405e+001 -3.859173e+000 1.045653e+002 -3.816871e+000 1.040353e+002 -9.654939e+000 1.246082e+002
387976562.5 -1.065319e+001 6.034624e+001 -3.830461e+000 1.026296e+002 -3.826871e+000 1.017468e+002 -9.637309e+000 1.213558e+002
391094531.25 -1.072759e+001 5.973861e+001 -3.868620e+000 1.004878e+002 -3.831268e+000 9.990010e+001 -9.621706e+000 1.184694e+002
394212500 -1.074065e+001 5.869163e+001 -3.860185e+000 9.813440e+001 -3.864024e+000 9.784719e+001 -9.620325e+000 1.153273e+002
397330468.75 -1.068055e+001 5.820543e+001 -3.831692e+000 9.633064e+001 -3.860518e+000 9.598674e+001 -9.655519e+000 1.124247e+002
400448437.5 -1.075297e+001 5.692756e+001 -3.872079e+000 9.395919e+001 -3.894391e+000 9.390738e+001 -9.698189e+000 1.092788e+002
403566406.25 -1.075819e+001 5.610558e+001 -3.850568e+000 9.209620e+001 -3.893818e+000 9.181758e+001 -9.710082e+000 1.061919e+002
406684375 -1.076620e+001 5.539540e+001 -3.849627e+000 8.983282e+001 -3.876690e+000 8.988529e+001 -9.741185e+000 1.034271e+002
409802343.75 -1.072975e+001 5.426205e+001 -3.835761e+000 8.766708e+001 -3.895845e+000 8.766259e+001 -9.769313e+000 1.000687e+002
412920312.5 -1.075087e+001 5.357768e+001 -3.837933e+000 8.574246e+001 -3.882765e+000 8.550704e+001 -9.829835e+000 9.666505e+001
416038281.25 -1.072964e+001 5.256960e+001 -3.867565e+000 8.353416e+001 -3.867863e+000 8.350312e+001 -9.786042e+000 9.344247e+001
419156250 -1.072699e+001 5.174996e+001 -3.888096e+000 8.158043e+001 -3.911473e+000 8.160570e+001 -9.848391e+000 9.029003e+001
422274218.75 -1.072980e+001 5.089884e+001 -3.898749e+000 7.959220e+001 -3.885710e+000 7.966746e+001 -9.858386e+000 8.742920e+001
425392187.5 -1.072156e+001 5.006814e+001 -3.901626e+000 7.755651e+001 -3.885629e+000 7.786359e+001 -9.921688e+000 8.439225e+001
428510156.25 -1.072274e+001 4.910770e+001 -3.903925e+000 7.559907e+001 -3.889826e+000 7.590323e+001 -9.972335e+000 8.120325e+001
431628125 -1.066962e+001 4.822728e+001 -3.913439e+000 7.370810e+001 -3.853376e+000 7.383002e+001 -9.985279e+000 7.790680e+001
434746093.75 -1.070687e+001 4.697966e+001 -3.874821e+000 7.149577e+001 -3.856398e+000 7.170978e+001 -1.003645e+001 7.470216e+001
437864062.5 -1.068756e+001 4.626296e+001 -3.904382e+000 6.959676e+001 -3.826588e+000 6.961426e+001 -1.006210e+001 7.089461e+001
440982031.25 -1.067375e+001 4.500779e+001 -3.862164e+000 6.765821e+001 -3.867941e+000 6.754096e+001 -1.010105e+001 6.751412e+001
444100000 -1.068363e+001 4.389133e+001 -3.862616e+000 6.568414e+001 -3.829691e+000 6.549228e+001 -1.011561e+001 6.400076e+001
447217968.75 -1.069882e+001 4.312409e+001 -3.851096e+000 6.371759e+001 -3.817736e+000 6.344023e+001 -1.016064e+001 6.069102e+001
450335937.5 -1.071724e+001 4.184818e+001 -3.815390e+000 6.153873e+001 -3.819904e+000 6.141959e+001 -1.016246e+001 5.723468e+001
453453906.25 -1.070407e+001 4.063322e+001 -3.832508e+000 5.939864e+001 -3.807373e+000 5.930248e+001 -1.020543e+001 5.385188e+001
456571875 -1.063683e+001 3.955786e+001 -3.777738e+000 5.725446e+001 -3.827016e+000 5.710970e+001 -1.024962e+001 5.024023e+001
459689843.75 -1.063479e+001 3.849799e+001 -3.800849e+000 5.512622e+001 -3.783536e+000 5.481199e+001 -1.027453e+001 4.644288e+001
462807812.5 -1.062351e+001 3.736901e+001 -3.791729e+000 5.298903e+001 -3.762477e+000 5.263062e+001 -1.025829e+001 4.316523e+001
465925781.25 -1.068200e+001 3.635157e+001 -3.787544e+000 5.096363e+001 -3.763830e+000 5.073756e+001 -1.026776e+001 3.968407e+001
469043750 -1.064087e+001 3.523377e+001 -3.761494e+000 4.881440e+001 -3.787489e+000 4.881944e+001 -1.032786e+001 3.633028e+001
472161718.75 -1.068135e+001 3.402186e+001 -3.763416e+000 4.651970e+001 -3.782580e+000 4.646955e+001 -1.036423e+001 3.250095e+001
475279687.5 -1.067104e+001 3.332096e+001 -3.747991e+000 4.453367e+001 -3.781201e+000 4.432592e+001 -1.034164e+001 2.882137e+001
478397656.25 -1.066718e+001 3.218347e+001 -3.778318e+000 4.248558e+001 -3.800331e+000 4.229172e+001 -1.036094e+001 2.523134e+001
481515625 -1.066069e+001 3.091884e+001 -3.776125e+000 4.028715e+001 -3.791098e+000 4.022340e+001 -1.038687e+001 2.187829e+001
484633593.75 -1.062730e+001 3.000078e+001 -3.781354e+000 3.832349e+001 -3.787781e+000 3.808879e+001 -1.037586e+001 1.830584e+001
487751562.5 -1.062294e+001 2.878399e+001 -3.770108e+000 3.628007e+001 -3.795366e+000 3.596418e+001 -1.038248e+001 1.468951e+001
490869531.25 -1.063957e+001 2.765713e+001 -3.764030e+000 3.400045e+001 -3.797294e+000 3.381709e+001 -1.036375e+001 1.132241e+001
493987500 -1.064244e+001 2.641812e+001 -3.787968e+000 3.183606e+001 -3.784451e+000 3.187305e+001 -1.038026e+001 8.118347e+000
497105468.75 -1.064398e+001 2.548897e+001 -3.799657e+000 3.001359e+001 -3.807949e+000 2.982006e+001 -1.040308e+001 4.681676e+000
500223437.5 -1.061158e+001 2.406722e+001 -3.793565e+000 2.777131e+001 -3.795542e+000 2.767068e+001 -1.039856e+001 1.185087e+000
503341406.25 -1.066521e+001 2.330773e+001 -3.801117e+000 2.572270e+001 -3.800680e+000 2.564417e+001 -1.043130e+001 -2.094761e+000
506459375 -1.064255e+001 2.231060e+001 -3.801351e+000 2.394452e+001 -3.760787e+000 2.358288e+001 -1.042028e+001 -5.460542e+000
509577343.75 -1.063099e+001 2.092153e+001 -3.812832e+000 2.177305e+001 -3.753537e+000 2.167644e+001 -1.039044e+001 -9.187114e+000
512695312.5 -1.065334e+001 1.982618e+001 -3.793844e+000 1.972817e+001 -3.748890e+000 1.960251e+001 -1.042456e+001 -1.241250e+001
