!Agilent Technologies,E8364A,US41440322,A.04.87.01
!Agilent E8364A: A.04.87.01
!Date: Thursday, July 11, 2024 14:20:59
!Correction: S11(Full 2 Port SOLT,1,2) S21(Full 2 Port SOLT,1,2) S12(Full 2 Port SOLT,1,2) S22(Full 2 Port SOLT,1,2)
!S2P File: Measurements: S11, S21, S12, S22:
# Hz S  dB   R 50
45000000 -9.509438e+000 1.668116e+002 -3.418515e+000 -2.694315e+001 -3.885108e+000 -3.121452e+001 -9.005337e+000 1.282917e+002
46558984.375 -9.736693e+000 1.616211e+002 -3.320350e+000 -2.844946e+001 -3.778258e+000 -2.933899e+001 -1.018411e+001 1.331761e+002
48117968.75 -9.837253e+000 1.661682e+002 -3.397982e+000 -2.947300e+001 -3.523142e+000 -3.194534e+001 -1.113346e+001 1.326214e+002
49676953.125 -9.555807e+000 1.636369e+002 -3.456108e+000 -3.174232e+001 -4.016690e+000 -3.361831e+001 -1.044864e+001 1.270113e+002
51235937.5 -9.566880e+000 1.598219e+002 -3.693095e+000 -3.491946e+001 -3.681371e+000 -3.443445e+001 -1.041749e+001 1.251153e+002
52794921.875 -9.579454e+000 1.610127e+002 -3.759915e+000 -3.770124e+001 -3.664495e+000 -3.481018e+001 -1.020188e+001 1.276788e+002
54353906.25 -1.001143e+001 1.637486e+002 -3.836353e+000 -3.666068e+001 -3.367923e+000 -3.855053e+001 -1.026651e+001 1.187489e+002
55912890.625 -9.940419e+000 1.612030e+002 -3.997681e+000 -3.650980e+001 -3.674932e+000 -3.935798e+001 -1.079933e+001 1.235993e+002
57471875 -9.885828e+000 1.626316e+002 -3.939416e+000 -3.760897e+001 -3.416745e+000 -4.018359e+001 -1.036401e+001 1.228884e+002
59030859.375 -9.827382e+000 1.630601e+002 -3.480275e+000 -3.845876e+001 -3.853351e+000 -4.004528e+001 -1.104475e+001 1.162212e+002
60589843.75 -9.679523e+000 1.615636e+002 -3.801512e+000 -4.172385e+001 -3.691268e+000 -4.034184e+001 -1.013661e+001 1.179433e+002
62148828.125 -1.013270e+001 1.615992e+002 -4.009445e+000 -4.252947e+001 -3.665894e+000 -4.162160e+001 -1.004899e+001 1.167956e+002
63707812.5 -9.539061e+000 1.596312e+002 -4.205163e+000 -4.293165e+001 -3.573417e+000 -4.359796e+001 -9.550158e+000 1.111677e+002
65266796.875 -1.000620e+001 1.624079e+002 -3.919969e+000 -4.386852e+001 -3.458845e+000 -4.467173e+001 -9.481350e+000 1.099823e+002
66825781.25 -9.696673e+000 1.620950e+002 -3.827202e+000 -4.556312e+001 -3.515359e+000 -4.404868e+001 -9.767840e+000 1.064581e+002
68384765.625 -9.900599e+000 1.603941e+002 -3.640444e+000 -4.388954e+001 -3.595833e+000 -4.473397e+001 -9.916989e+000 1.042586e+002
69943750 -9.957486e+000 1.593896e+002 -3.641485e+000 -4.747236e+001 -3.574775e+000 -4.692953e+001 -1.037833e+001 1.050301e+002
71502734.375 -9.503653e+000 1.597500e+002 -3.826055e+000 -4.743747e+001 -3.479674e+000 -4.743842e+001 -1.004962e+001 1.039128e+002
73061718.75 -9.758387e+000 1.573403e+002 -3.535803e+000 -4.816894e+001 -3.482321e+000 -5.006333e+001 -9.959280e+000 9.985098e+001
74620703.125 -9.702184e+000 1.563634e+002 -3.591707e+000 -5.012143e+001 -3.769738e+000 -5.085246e+001 -9.877271e+000 9.870876e+001
76179687.5 -9.492969e+000 1.546020e+002 -3.822879e+000 -5.112295e+001 -3.776570e+000 -5.213404e+001 -1.015314e+001 9.626075e+001
77738671.875 -9.421682e+000 1.563536e+002 -3.714325e+000 -5.218079e+001 -3.704947e+000 -5.266423e+001 -1.038057e+001 9.634750e+001
79297656.25 -9.653049e+000 1.563985e+002 -3.639605e+000 -5.319369e+001 -3.675753e+000 -5.350179e+001 -1.001027e+001 9.366431e+001
80856640.625 -9.691649e+000 1.544501e+002 -3.741472e+000 -5.315178e+001 -3.747566e+000 -5.445781e+001 -9.764714e+000 9.034783e+001
82415625 -9.648536e+000 1.540894e+002 -3.670012e+000 -5.448231e+001 -3.839649e+000 -5.537780e+001 -1.002556e+001 9.075085e+001
83974609.375 -9.559045e+000 1.538407e+002 -3.597698e+000 -5.527362e+001 -3.616612e+000 -5.586479e+001 -1.009042e+001 9.061036e+001
85533593.75 -9.804044e+000 1.531341e+002 -3.705488e+000 -5.700776e+001 -3.737801e+000 -5.669064e+001 -1.021274e+001 8.982664e+001
87092578.125 -1.006414e+001 1.523658e+002 -3.611876e+000 -5.850114e+001 -3.758444e+000 -5.824089e+001 -1.011141e+001 8.706924e+001
88651562.5 -9.837838e+000 1.506653e+002 -3.700460e+000 -5.871240e+001 -3.655376e+000 -5.914632e+001 -1.060468e+001 8.456424e+001
90210546.875 -9.834825e+000 1.515803e+002 -3.567179e+000 -5.999240e+001 -3.690289e+000 -5.991282e+001 -1.043848e+001 8.343671e+001
91769531.25 -9.736496e+000 1.508290e+002 -3.759604e+000 -6.148100e+001 -3.680109e+000 -6.156317e+001 -1.043223e+001 8.224306e+001
93328515.625 -9.852146e+000 1.515738e+002 -3.767735e+000 -6.157273e+001 -3.653138e+000 -6.238595e+001 -1.056954e+001 8.025796e+001
94887500 -9.876659e+000 1.511277e+002 -3.717526e+000 -6.282144e+001 -3.587476e+000 -6.322564e+001 -1.059398e+001 7.960944e+001
96446484.375 -9.677186e+000 1.516522e+002 -3.690975e+000 -6.359571e+001 -3.554409e+000 -6.482966e+001 -1.049200e+001 7.783218e+001
98005468.75 -9.697233e+000 1.505174e+002 -3.780525e+000 -6.506876e+001 -3.654092e+000 -6.508091e+001 -1.060858e+001 7.483327e+001
99564453.125 -9.707139e+000 1.495527e+002 -3.693047e+000 -6.638550e+001 -3.637707e+000 -6.646701e+001 -1.049926e+001 7.538857e+001
101123437.5 -9.728700e+000 1.494682e+002 -3.728561e+000 -6.746819e+001 -3.650664e+000 -6.742693e+001 -1.016428e+001 7.241764e+001
102682421.875 -9.752784e+000 1.487133e+002 -3.632500e+000 -6.845492e+001 -3.609285e+000 -6.843909e+001 -1.029199e+001 7.008561e+001
104241406.25 -9.568425e+000 1.495292e+002 -3.637862e+000 -6.980502e+001 -3.689909e+000 -6.935844e+001 -1.025268e+001 6.830647e+001
105800390.625 -9.766887e+000 1.487650e+002 -3.625374e+000 -7.022048e+001 -3.699087e+000 -7.109539e+001 -1.035117e+001 6.572649e+001
107359375 -9.668765e+000 1.481806e+002 -3.578934e+000 -7.106696e+001 -3.694542e+000 -7.214735e+001 -1.042505e+001 6.571414e+001
108918359.375 -9.581900e+000 1.470405e+002 -3.600098e+000 -7.269183e+001 -3.629644e+000 -7.322211e+001 -1.036523e+001 6.327086e+001
110477343.75 -9.645545e+000 1.474960e+002 -3.645099e+000 -7.384789e+001 -3.702714e+000 -7.343810e+001 -1.036663e+001 6.170954e+001
112036328.125 -9.616361e+000 1.459966e+002 -3.725659e+000 -7.498614e+001 -3.674641e+000 -7.501850e+001 -1.046273e+001 5.962703e+001
113595312.5 -9.690852e+000 1.459745e+002 -3.733831e+000 -7.636392e+001 -3.686019e+000 -7.607848e+001 -1.044500e+001 5.749014e+001
115154296.875 -9.721005e+000 1.455985e+002 -3.636968e+000 -7.705371e+001 -3.719766e+000 -7.744550e+001 -1.040684e+001 5.613824e+001
116713281.25 -9.809976e+000 1.454348e+002 -3.682993e+000 -7.791546e+001 -3.758816e+000 -7.818712e+001 -1.030872e+001 5.287039e+001
118272265.625 -9.607059e+000 1.454144e+002 -3.679678e+000 -7.903046e+001 -3.694254e+000 -7.908065e+001 -1.035370e+001 5.200703e+001
119831250 -9.613229e+000 1.443030e+002 -3.638653e+000 -7.980475e+001 -3.704812e+000 -7.996155e+001 -1.047200e+001 5.059351e+001
121390234.375 -9.677873e+000 1.434640e+002 -3.679506e+000 -8.117667e+001 -3.632498e+000 -8.101341e+001 -1.050345e+001 4.948924e+001
122949218.75 -9.780123e+000 1.437639e+002 -3.663517e+000 -8.196255e+001 -3.677608e+000 -8.262115e+001 -1.051560e+001 4.859253e+001
124508203.125 -9.676673e+000 1.419420e+002 -3.669607e+000 -8.309835e+001 -3.658470e+000 -8.348534e+001 -1.051522e+001 4.628868e+001
126067187.5 -9.820930e+000 1.412691e+002 -3.651262e+000 -8.431960e+001 -3.711202e+000 -8.431440e+001 -1.053984e+001 4.469553e+001
127626171.875 -9.653698e+000 1.410139e+002 -3.620654e+000 -8.533375e+001 -3.680773e+000 -8.528279e+001 -1.054823e+001 4.354973e+001
129185156.25 -9.685145e+000 1.406940e+002 -3.716969e+000 -8.627389e+001 -3.706808e+000 -8.648526e+001 -1.059901e+001 4.103294e+001
130744140.625 -9.678938e+000 1.407288e+002 -3.644344e+000 -8.691621e+001 -3.749390e+000 -8.766004e+001 -1.050701e+001 4.026572e+001
132303125 -9.807093e+000 1.404862e+002 -3.713676e+000 -8.855412e+001 -3.672869e+000 -8.863298e+001 -1.068685e+001 3.867685e+001
133862109.375 -9.766667e+000 1.398550e+002 -3.666893e+000 -8.949678e+001 -3.714440e+000 -8.926094e+001 -1.064369e+001 3.707171e+001
135421093.75 -9.752172e+000 1.389106e+002 -3.665708e+000 -9.028344e+001 -3.684229e+000 -9.043118e+001 -1.058667e+001 3.461295e+001
136980078.125 -9.711607e+000 1.384075e+002 -3.668973e+000 -9.130192e+001 -3.639481e+000 -9.127791e+001 -1.061401e+001 3.360197e+001
138539062.5 -9.762733e+000 1.389100e+002 -3.753950e+000 -9.264970e+001 -3.682315e+000 -9.234552e+001 -1.058890e+001 3.182220e+001
140098046.875 -9.668348e+000 1.376687e+002 -3.672055e+000 -9.361943e+001 -3.698694e+000 -9.380658e+001 -1.064138e+001 2.992509e+001
141657031.25 -9.755698e+000 1.371663e+002 -3.680746e+000 -9.491788e+001 -3.660424e+000 -9.465725e+001 -1.063850e+001 2.834363e+001
143216015.625 -9.702857e+000 1.365842e+002 -3.678222e+000 -9.573085e+001 -3.670685e+000 -9.546430e+001 -1.057034e+001 2.689925e+001
144775000 -9.677724e+000 1.368519e+002 -3.648845e+000 -9.692319e+001 -3.717544e+000 -9.659985e+001 -1.065961e+001 2.462190e+001
146333984.375 -9.742337e+000 1.352738e+002 -3.730035e+000 -9.761255e+001 -3.680854e+000 -9.772970e+001 -1.072931e+001 2.304619e+001
147892968.75 -9.687792e+000 1.351496e+002 -3.675794e+000 -9.890011e+001 -3.708224e+000 -9.874863e+001 -1.072270e+001 2.115132e+001
149451953.125 -9.590472e+000 1.352536e+002 -3.678067e+000 -9.968333e+001 -3.712690e+000 -1.000034e+002 -1.057631e+001 1.920526e+001
151010937.5 -9.587120e+000 1.342619e+002 -3.690660e+000 -1.007574e+002 -3.705898e+000 -1.011567e+002 -1.072466e+001 1.747567e+001
152569921.875 -9.695086e+000 1.335952e+002 -3.641640e+000 -1.019243e+002 -3.744984e+000 -1.015843e+002 -1.076774e+001 1.595455e+001
154128906.25 -9.660789e+000 1.326118e+002 -3.717012e+000 -1.028789e+002 -3.719208e+000 -1.029451e+002 -1.074817e+001 1.356337e+001
155687890.625 -9.546485e+000 1.320173e+002 -3.628509e+000 -1.039252e+002 -3.714577e+000 -1.038253e+002 -1.072262e+001 1.135316e+001
157246875 -9.620209e+000 1.312435e+002 -3.699985e+000 -1.051374e+002 -3.670884e+000 -1.050397e+002 -1.064266e+001 9.884986e+000
158805859.375 -9.676632e+000 1.309542e+002 -3.724960e+000 -1.059500e+002 -3.683472e+000 -1.059780e+002 -1.077114e+001 7.915225e+000
160364843.75 -9.603910e+000 1.310561e+002 -3.742414e+000 -1.070223e+002 -3.683705e+000 -1.067821e+002 -1.067910e+001 6.516713e+000
161923828.125 -9.670657e+000 1.303655e+002 -3.719182e+000 -1.079948e+002 -3.694259e+000 -1.083550e+002 -1.059185e+001 3.945456e+000
163482812.5 -9.606236e+000 1.295198e+002 -3.717767e+000 -1.091688e+002 -3.705219e+000 -1.089429e+002 -1.054470e+001 3.847685e+000
165041796.875 -9.637940e+000 1.289420e+002 -3.697664e+000 -1.101569e+002 -3.694558e+000 -1.103000e+002 -1.056044e+001 2.502393e+000
166600781.25 -9.670090e+000 1.286271e+002 -3.744585e+000 -1.110083e+002 -3.673645e+000 -1.112465e+002 -1.054248e+001 1.600518e-002
168159765.625 -9.653563e+000 1.282950e+002 -3.717195e+000 -1.119476e+002 -3.704679e+000 -1.120969e+002 -1.058575e+001 -1.121188e+000
169718750 -9.650769e+000 1.276763e+002 -3.720889e+000 -1.128720e+002 -3.725463e+000 -1.133977e+002 -1.065258e+001 -3.150980e+000
171277734.375 -9.570559e+000 1.273145e+002 -3.647425e+000 -1.142653e+002 -3.693697e+000 -1.142326e+002 -1.054341e+001 -4.814531e+000
172836718.75 -9.632319e+000 1.265601e+002 -3.654008e+000 -1.151757e+002 -3.641866e+000 -1.154148e+002 -1.060078e+001 -6.455676e+000
174395703.125 -9.702677e+000 1.259285e+002 -3.712390e+000 -1.167203e+002 -3.668141e+000 -1.164271e+002 -1.061208e+001 -8.388282e+000
175954687.5 -9.658644e+000 1.251020e+002 -3.693472e+000 -1.173844e+002 -3.671113e+000 -1.176326e+002 -1.053866e+001 -1.011785e+001
177513671.875 -9.647386e+000 1.249844e+002 -3.686333e+000 -1.187996e+002 -3.641499e+000 -1.185866e+002 -1.065164e+001 -1.199304e+001
179072656.25 -9.650337e+000 1.243777e+002 -3.683359e+000 -1.196200e+002 -3.603689e+000 -1.199480e+002 -1.059270e+001 -1.410766e+001
180631640.625 -9.645131e+000 1.242636e+002 -3.726981e+000 -1.206576e+002 -3.635281e+000 -1.206251e+002 -1.066177e+001 -1.557842e+001
182190625 -9.711653e+000 1.234870e+002 -3.691947e+000 -1.216052e+002 -3.617730e+000 -1.217268e+002 -1.059888e+001 -1.758773e+001
183749609.375 -9.666373e+000 1.229175e+002 -3.707982e+000 -1.226540e+002 -3.649298e+000 -1.230175e+002 -1.071674e+001 -1.874752e+001
185308593.75 -9.706960e+000 1.224441e+002 -3.707190e+000 -1.236929e+002 -3.656121e+000 -1.236552e+002 -1.069663e+001 -2.049529e+001
186867578.125 -9.598490e+000 1.220955e+002 -3.706761e+000 -1.244438e+002 -3.642211e+000 -1.246732e+002 -1.070816e+001 -2.265207e+001
188426562.5 -9.636000e+000 1.214095e+002 -3.685669e+000 -1.255383e+002 -3.658044e+000 -1.259587e+002 -1.066699e+001 -2.509935e+001
189985546.875 -9.656531e+000 1.210237e+002 -3.676722e+000 -1.266950e+002 -3.656814e+000 -1.266634e+002 -1.070762e+001 -2.638428e+001
191544531.25 -9.681717e+000 1.205064e+002 -3.694472e+000 -1.277929e+002 -3.686000e+000 -1.279228e+002 -1.068386e+001 -2.784324e+001
193103515.625 -9.653655e+000 1.200744e+002 -3.676268e+000 -1.288836e+002 -3.679474e+000 -1.289659e+002 -1.074163e+001 -3.037499e+001
194662500 -9.627467e+000 1.194016e+002 -3.657851e+000 -1.298265e+002 -3.705113e+000 -1.302027e+002 -1.065730e+001 -3.192519e+001
196221484.375 -9.666521e+000 1.188580e+002 -3.727355e+000 -1.307227e+002 -3.733870e+000 -1.311242e+002 -1.066804e+001 -3.395236e+001
197780468.75 -9.681547e+000 1.185447e+002 -3.686551e+000 -1.319320e+002 -3.709109e+000 -1.321566e+002 -1.066344e+001 -3.567333e+001
199339453.125 -9.700682e+000 1.180883e+002 -3.688071e+000 -1.329771e+002 -3.688365e+000 -1.333344e+002 -1.056317e+001 -3.745610e+001
200898437.5 -9.662392e+000 1.175142e+002 -3.675602e+000 -1.338672e+002 -3.719867e+000 -1.342926e+002 -1.061148e+001 -3.887543e+001
202457421.875 -9.642814e+000 1.171033e+002 -3.680050e+000 -1.351571e+002 -3.671779e+000 -1.352879e+002 -1.068072e+001 -4.064600e+001
204016406.25 -9.696628e+000 1.162057e+002 -3.677814e+000 -1.361252e+002 -3.707353e+000 -1.364318e+002 -1.062659e+001 -4.322260e+001
205575390.625 -9.670964e+000 1.156412e+002 -3.669503e+000 -1.375293e+002 -3.706112e+000 -1.374710e+002 -1.077199e+001 -4.506487e+001
207134375 -9.707136e+000 1.152635e+002 -3.715079e+000 -1.382605e+002 -3.709525e+000 -1.385812e+002 -1.073563e+001 -4.647052e+001
208693359.375 -9.712809e+000 1.148882e+002 -3.652815e+000 -1.393315e+002 -3.731145e+000 -1.394873e+002 -1.070712e+001 -4.792707e+001
210252343.75 -9.746122e+000 1.139337e+002 -3.671227e+000 -1.406495e+002 -3.667701e+000 -1.406181e+002 -1.068826e+001 -4.991193e+001
211811328.125 -9.749623e+000 1.134720e+002 -3.680519e+000 -1.417876e+002 -3.718258e+000 -1.417100e+002 -1.073896e+001 -5.205816e+001
213370312.5 -9.732820e+000 1.128153e+002 -3.668051e+000 -1.427950e+002 -3.708793e+000 -1.422953e+002 -1.071607e+001 -5.325934e+001
214929296.875 -9.807910e+000 1.124403e+002 -3.678321e+000 -1.437521e+002 -3.736084e+000 -1.435602e+002 -1.062571e+001 -5.519678e+001
216488281.25 -9.797067e+000 1.115219e+002 -3.707989e+000 -1.445886e+002 -3.718763e+000 -1.444837e+002 -1.066965e+001 -5.673146e+001
218047265.625 -9.773810e+000 1.116515e+002 -3.682094e+000 -1.455118e+002 -3.713190e+000 -1.456554e+002 -1.066448e+001 -5.891734e+001
219606250 -9.810415e+000 1.105145e+002 -3.671928e+000 -1.466461e+002 -3.700099e+000 -1.469314e+002 -1.065541e+001 -6.043001e+001
221165234.375 -9.738227e+000 1.105126e+002 -3.696444e+000 -1.476800e+002 -3.711879e+000 -1.479941e+002 -1.075149e+001 -6.227747e+001
222724218.75 -9.804799e+000 1.099546e+002 -3.699631e+000 -1.485020e+002 -3.703285e+000 -1.492188e+002 -1.061649e+001 -6.371407e+001
224283203.125 -9.762469e+000 1.103556e+002 -3.703060e+000 -1.494864e+002 -3.686451e+000 -1.502750e+002 -1.061620e+001 -6.539768e+001
225842187.5 -9.825264e+000 1.090049e+002 -3.709988e+000 -1.506451e+002 -3.714431e+000 -1.511421e+002 -1.060235e+001 -6.783417e+001
227401171.875 -9.759353e+000 1.085512e+002 -3.663097e+000 -1.516678e+002 -3.663149e+000 -1.524694e+002 -1.064977e+001 -6.947060e+001
228960156.25 -9.864759e+000 1.080251e+002 -3.719980e+000 -1.529332e+002 -3.721206e+000 -1.533892e+002 -1.064670e+001 -7.151891e+001
230519140.625 -9.814353e+000 1.072603e+002 -3.677266e+000 -1.540889e+002 -3.715748e+000 -1.543773e+002 -1.062772e+001 -7.322668e+001
232078125 -9.906500e+000 1.070659e+002 -3.711704e+000 -1.550157e+002 -3.716213e+000 -1.553855e+002 -1.058802e+001 -7.551167e+001
233637109.375 -9.852281e+000 1.068322e+002 -3.718560e+000 -1.557952e+002 -3.709321e+000 -1.565567e+002 -1.056262e+001 -7.709330e+001
235196093.75 -9.888303e+000 1.055450e+002 -3.699793e+000 -1.570332e+002 -3.696832e+000 -1.574755e+002 -1.053697e+001 -7.865910e+001
236755078.125 -9.829250e+000 1.053031e+002 -3.700543e+000 -1.579907e+002 -3.742941e+000 -1.589104e+002 -1.045042e+001 -8.039574e+001
238314062.5 -9.961175e+000 1.049250e+002 -3.676954e+000 -1.591965e+002 -3.720121e+000 -1.595162e+002 -1.042466e+001 -8.195860e+001
239873046.875 -9.896481e+000 1.042325e+002 -3.720095e+000 -1.604102e+002 -3.767926e+000 -1.606017e+002 -1.040007e+001 -8.381966e+001
241432031.25 -9.980529e+000 1.051698e+002 -3.679182e+000 -1.609666e+002 -3.825732e+000 -1.608105e+002 -1.037844e+001 -8.549772e+001
242991015.625 -1.000117e+001 1.043155e+002 -3.691693e+000 -1.624721e+002 -3.838388e+000 -1.614409e+002 -1.039821e+001 -8.685275e+001
244550000 -1.005556e+001 1.042324e+002 -3.749006e+000 -1.632462e+002 -3.829403e+000 -1.621122e+002 -1.040330e+001 -8.841408e+001
246108984.375 -9.937321e+000 1.029804e+002 -3.768127e+000 -1.642876e+002 -3.764436e+000 -1.637560e+002 -1.047242e+001 -9.035252e+001
247667968.75 -9.951443e+000 1.019198e+002 -3.751147e+000 -1.649820e+002 -3.735885e+000 -1.649868e+002 -1.049532e+001 -9.213584e+001
249226953.125 -9.967551e+000 1.011794e+002 -3.850913e+000 -1.659710e+002 -3.668948e+000 -1.671190e+002 -1.048322e+001 -9.355814e+001
250785937.5 -9.942773e+000 1.007089e+002 -3.907878e+000 -1.664236e+002 -3.650250e+000 -1.682931e+002 -1.049043e+001 -9.456495e+001
252344921.875 -9.943155e+000 1.003812e+002 -3.870987e+000 -1.673361e+002 -3.614031e+000 -1.696013e+002 -1.041741e+001 -9.658752e+001
253903906.25 -9.921903e+000 9.961327e+001 -3.751236e+000 -1.685101e+002 -3.656085e+000 -1.707043e+002 -1.036918e+001 -9.810237e+001
255462890.625 -9.925749e+000 9.915508e+001 -3.658728e+000 -1.707181e+002 -3.791438e+000 -1.710595e+002 -1.040042e+001 -1.003502e+002
257021875 -9.968712e+000 9.825437e+001 -3.668752e+000 -1.720014e+002 -3.777031e+000 -1.725691e+002 -1.032246e+001 -1.019570e+002
258580859.375 -9.949718e+000 9.754752e+001 -3.627106e+000 -1.733735e+002 -3.778278e+000 -1.733775e+002 -1.027765e+001 -1.045482e+002
260139843.75 -9.981650e+000 9.670530e+001 -3.626419e+000 -1.747329e+002 -3.781892e+000 -1.740682e+002 -1.030425e+001 -1.053221e+002
261698828.125 -1.006899e+001 9.645333e+001 -3.736323e+000 -1.756465e+002 -3.775626e+000 -1.747688e+002 -1.029933e+001 -1.069764e+002
263257812.5 -1.017702e+001 9.594587e+001 -3.791500e+000 -1.762640e+002 -3.779372e+000 -1.754540e+002 -1.028273e+001 -1.076111e+002
264816796.875 -1.014775e+001 9.520519e+001 -3.802521e+000 -1.777918e+002 -3.895624e+000 -1.758552e+002 -1.045393e+001 -1.087837e+002
266375781.25 -1.020143e+001 9.436584e+001 -3.838071e+000 -1.791215e+002 -3.907943e+000 -1.765088e+002 -1.042110e+001 -1.105878e+002
267934765.625 -1.024211e+001 9.400261e+001 -3.850710e+000 1.799970e+002 -3.851301e+000 -1.775365e+002 -1.037022e+001 -1.121070e+002
269493750 -1.026068e+001 9.365729e+001 -3.883758e+000 1.792051e+002 -3.816873e+000 -1.786556e+002 -1.033783e+001 -1.131556e+002
271052734.375 -1.028854e+001 9.421013e+001 -3.865357e+000 1.788312e+002 -3.765966e+000 1.797337e+002 -1.018343e+001 -1.155059e+002
272611718.75 -1.029415e+001 9.414641e+001 -3.899416e+000 1.782059e+002 -3.780721e+000 1.789997e+002 -1.018756e+001 -1.171125e+002
274170703.125 -1.035154e+001 9.337954e+001 -3.876947e+000 1.774005e+002 -3.672253e+000 1.777835e+002 -1.016083e+001 -1.188190e+002
275729687.5 -1.032213e+001 9.303708e+001 -3.903654e+000 1.763173e+002 -3.718825e+000 1.767607e+002 -1.017122e+001 -1.204388e+002
