!Agilent Technologies,E8364A,US41440322,A.04.87.01
!Agilent E8364A: A.04.87.01
!Date: Tuesday, July 16, 2024 12:11:38
!Correction: S11(Full 2 Port SOLT,1,2) S21(Full 2 Port SOLT,1,2) S12(Full 2 Port SOLT,1,2) S22(Full 2 Port SOLT,1,2)
!S2P File: Measurements: S11, S21, S12, S22:
# Hz S  dB   R 50
45000000 -3.878128e+001 -1.484259e+000 -3.425138e+001 1.386614e+002 -3.076357e+001 3.133833e+001 -8.525894e-002 -2.471023e+000
48117968.75 -3.094114e+001 3.655524e+001 -3.228477e+001 -1.509882e+002 -3.340594e+001 1.788275e+002 8.427013e-002 1.383988e+000
51235937.5 -3.805473e+001 7.573640e+001 -4.152814e+001 -8.634702e+001 -3.176082e+001 -1.021814e+002 -8.864098e-002 -1.505600e+000
54353906.25 -3.657356e+001 1.613288e+002 -3.906128e+001 1.577479e+002 -4.316286e+001 2.239402e+001 -1.852055e-001 2.225317e+000
57471875 -4.508498e+001 -3.502240e+001 -4.757413e+001 -7.846490e+001 -3.830109e+001 -1.565870e+002 4.764185e-002 1.737866e+000
60589843.75 -4.022020e+001 5.181020e+001 -3.718705e+001 1.472284e+002 -4.530508e+001 -6.260756e+001 -8.786816e-004 1.596369e+000
63707812.5 -3.895684e+001 6.105127e+001 -4.080193e+001 -6.798819e+001 -4.308406e+001 4.226564e+001 4.189335e-002 2.824933e+000
66825781.25 -4.348360e+001 -1.140178e+002 -3.767841e+001 -1.712325e+002 -5.674968e+001 -8.840694e+001 8.067445e-002 2.394072e+000
69943750 -5.735200e+001 -1.140428e+002 -7.065924e+001 5.582806e+001 -4.184259e+001 -4.434931e+001 -5.345351e-002 1.308034e+000
73061718.75 -4.622616e+001 -8.082830e+001 -4.119169e+001 -1.415141e+002 -4.302338e+001 4.130806e+001 -7.195596e-002 2.230159e+000
76179687.5 -6.142318e+001 -3.151859e+001 -4.118681e+001 -9.388232e+001 -4.251147e+001 -3.234085e+001 -7.115725e-002 1.966767e+000
79297656.25 -4.386659e+001 9.832520e+001 -3.548456e+001 -1.725300e+002 -5.672430e+001 7.821729e+001 -2.210354e-002 2.263604e+000
82415625 -5.324377e+001 -1.731259e+002 -3.811883e+001 1.893113e+001 -4.328823e+001 -8.288406e+001 1.498321e-002 2.472178e+000
85533593.75 -3.914630e+001 2.140042e+001 -4.086643e+001 -6.419850e+001 -4.391851e+001 2.923416e+001 3.348522e-002 2.806962e+000
88651562.5 -4.682482e+001 -1.343832e+001 -4.768281e+001 1.085092e+002 -5.372182e+001 9.576797e+001 8.552039e-003 2.760498e+000
91769531.25 -5.242036e+001 7.218155e+001 -6.217801e+001 1.793235e+002 -5.433986e+001 2.578026e+001 1.211612e-002 2.649605e+000
94887500 -4.419948e+001 -7.456764e+000 -5.163684e+001 -7.179533e+001 -4.867973e+001 1.503380e+002 -1.631504e-001 3.051856e+000
98005468.75 -4.243756e+001 4.533384e+001 -5.223970e+001 -1.654771e+002 -4.862079e+001 -1.495005e+002 -5.877215e-002 3.247247e+000
101123437.5 -5.538874e+001 1.283512e+002 -4.543285e+001 5.722844e+001 -6.838676e+001 -9.870890e+001 2.527784e-002 3.164830e+000
104241406.25 -4.659755e+001 7.555717e+001 -5.281599e+001 1.061466e+001 -5.150098e+001 -3.134103e+001 -4.601233e-002 3.517692e+000
107359375 -5.082025e+001 1.543934e+002 -5.235178e+001 1.113442e+002 -4.980926e+001 5.771407e+001 2.446211e-002 3.039749e+000
110477343.75 -4.778666e+001 7.653005e+001 -4.171349e+001 -1.255271e+001 -4.496833e+001 1.132416e+002 6.263035e-002 3.303163e+000
113595312.5 -6.638946e+001 -8.725993e+001 -4.507187e+001 1.126525e+001 -4.754294e+001 1.079815e+002 1.067059e-001 3.548679e+000
116713281.25 -6.129723e+001 3.654152e+001 -4.966454e+001 1.273687e+001 -4.614645e+001 -6.526912e+001 8.238242e-003 3.595090e+000
119831250 -5.257864e+001 -1.529500e+002 -5.828766e+001 2.515021e+001 -5.176788e+001 -3.992397e+001 8.310215e-002 3.842953e+000
122949218.75 -4.888651e+001 9.932664e+001 -4.820689e+001 7.500355e+001 -5.775081e+001 1.631605e+002 2.335173e-002 4.481115e+000
126067187.5 -4.364232e+001 4.053082e+001 -5.510733e+001 5.462060e+001 -5.827306e+001 1.275670e+002 4.661757e-002 4.865859e+000
129185156.25 -4.711998e+001 3.500634e+001 -4.946550e+001 9.791190e+001 -5.672894e+001 1.238905e+002 4.422256e-002 5.063208e+000
132303125 -4.610920e+001 -4.643361e+001 -5.020059e+001 -6.933710e+001 -4.587960e+001 -1.067585e+002 9.631306e-003 4.869629e+000
135421093.75 -5.995568e+001 5.377846e+001 -5.050325e+001 -4.935198e+001 -5.122727e+001 -3.487191e-001 2.322033e-002 4.891912e+000
138539062.5 -4.916199e+001 -8.226318e+001 -5.199038e+001 -1.197896e+001 -5.480762e+001 -8.513229e+001 -2.362492e-002 5.036773e+000
141657031.25 -4.755676e+001 -2.914496e+001 -5.165754e+001 6.171350e+001 -4.810516e+001 7.362087e+001 -1.721895e-003 4.925281e+000
144775000 -5.587862e+001 -3.724660e+001 -5.430196e+001 1.373585e+001 -5.420139e+001 -5.687447e+001 -1.087653e-002 5.146212e+000
147892968.75 -5.309853e+001 1.385488e+001 -4.397747e+001 -6.882311e+001 -6.112619e+001 -2.716614e+001 2.183021e-002 5.283785e+000
151010937.5 -5.213102e+001 4.298088e+001 -5.564083e+001 4.209086e+001 -5.166988e+001 -1.774476e+002 -3.179497e-002 5.422931e+000
154128906.25 -5.411969e+001 -8.023228e+001 -5.484864e+001 -1.210079e+002 -5.510389e+001 -1.036549e+002 -2.432917e-002 5.439130e+000
157246875 -5.775174e+001 5.286561e+001 -5.599337e+001 -1.276744e+002 -5.279053e+001 -9.636210e+001 5.261824e-003 5.488193e+000
160364843.75 -4.992379e+001 3.565200e+001 -6.049943e+001 1.652643e+002 -6.137847e+001 -2.235494e+001 -2.169976e-003 5.208323e+000
163482812.5 -6.064194e+001 3.737410e+001 -6.497375e+001 -9.120316e+001 -6.291460e+001 4.262139e+001 -1.221324e-002 5.454305e+000
166600781.25 -5.109095e+001 -3.067559e+001 -5.266710e+001 -1.066485e+002 -6.103766e+001 -1.660839e+002 4.757043e-002 5.903060e+000
169718750 -5.940427e+001 1.624440e+002 -6.126666e+001 -1.461129e+002 -5.909496e+001 -1.650085e+002 4.737009e-002 5.785612e+000
172836718.75 -5.042695e+001 6.047787e+001 -6.993153e+001 -1.721010e+002 -5.935141e+001 4.444650e+001 -2.000996e-002 6.150632e+000
175954687.5 -5.177382e+001 2.670994e+001 -5.508184e+001 9.577785e+001 -6.438763e+001 1.509113e+002 -6.298226e-003 6.257695e+000
179072656.25 -5.064693e+001 -5.710881e+000 -5.740222e+001 1.409616e+001 -5.069442e+001 6.203589e+001 4.042319e-002 6.299546e+000
182190625 -5.333105e+001 6.849503e+001 -5.737506e+001 -7.244331e+000 -5.847564e+001 9.013320e+001 6.291158e-002 6.185857e+000
185308593.75 -5.059566e+001 7.922373e+001 -5.453408e+001 6.603842e+001 -6.324213e+001 5.651580e+001 9.346600e-002 6.447253e+000
188426562.5 -5.139967e+001 9.874198e+001 -5.480246e+001 -9.187889e+001 -4.979829e+001 3.092953e+001 3.826880e-002 6.739365e+000
191544531.25 -4.892797e+001 6.248671e+001 -7.116771e+001 -4.486266e+001 -5.931818e+001 3.835198e+001 8.040733e-002 6.257339e+000
194662500 -5.836500e+001 1.122720e+002 -6.451146e+001 1.152377e+002 -5.568844e+001 -1.361672e+002 1.299961e-001 6.635240e+000
197780468.75 -5.455310e+001 5.317686e+001 -5.749414e+001 1.261974e+001 -6.321923e+001 -1.473558e+002 7.813515e-002 6.928649e+000
200898437.5 -5.882505e+001 -1.730086e+002 -5.556258e+001 -2.705909e+001 -7.512331e+001 1.510607e+002 9.322946e-002 7.157176e+000
204016406.25 -4.885645e+001 1.417493e+002 -6.048911e+001 6.348259e+001 -5.287475e+001 -1.389052e+002 -1.457033e-003 7.442197e+000
207134375 -5.192639e+001 1.229725e+002 -6.464731e+001 1.382152e+002 -6.271364e+001 -3.353371e+001 2.331251e-002 7.269447e+000
210252343.75 -5.784719e+001 1.015552e+002 -5.789327e+001 -1.240185e+002 -7.156301e+001 1.544078e+002 3.335738e-002 7.298055e+000
213370312.5 -6.452473e+001 9.563621e+001 -5.732575e+001 -1.789693e+002 -7.019284e+001 -5.768143e+001 5.797619e-002 7.490787e+000
216488281.25 -5.485670e+001 8.981058e+001 -5.593748e+001 9.810057e+001 -6.303363e+001 -1.668091e+001 6.143377e-002 7.716317e+000
219606250 -5.327079e+001 1.168046e+002 -6.772590e+001 1.485050e+002 -5.719761e+001 1.368164e+002 9.870051e-002 7.925745e+000
222724218.75 -5.208704e+001 -1.207681e+002 -6.306966e+001 -1.246899e+002 -5.593735e+001 1.222481e+002 7.172229e-002 7.902356e+000
225842187.5 -6.242386e+001 1.511717e+002 -6.018070e+001 8.216968e+000 -5.855700e+001 -4.380388e+001 5.447654e-002 7.846838e+000
228960156.25 -5.286181e+001 1.604338e+002 -5.741989e+001 6.945625e+001 -6.829812e+001 1.091599e+002 2.934461e-002 8.132852e+000
232078125 -5.555548e+001 1.548173e+002 -5.332511e+001 1.118081e+002 -6.000465e+001 6.433533e+001 4.894768e-002 8.071187e+000
235196093.75 -5.683776e+001 1.117358e+002 -6.530542e+001 -6.556367e+001 -6.204494e+001 -6.853331e+001 4.386099e-002 7.826010e+000
238314062.5 -4.901841e+001 1.476495e+002 -5.820713e+001 6.150571e+001 -6.658562e+001 1.721666e+002 4.691781e-002 8.059846e+000
241432031.25 -6.037849e+001 1.777569e+002 -6.413086e+001 1.366419e+002 -5.868193e+001 -5.458429e+001 5.839457e-002 8.094742e+000
244550000 -5.698256e+001 8.415969e+001 -5.541515e+001 -1.984053e+001 -5.811860e+001 -1.184236e+001 3.284748e-002 8.027096e+000
247667968.75 -6.434748e+001 5.106295e+001 -5.810321e+001 -4.280186e+001 -6.562473e+001 1.179365e+002 -2.243067e-003 8.184871e+000
250785937.5 -5.830476e+001 1.012395e+002 -6.544477e+001 -2.547507e+001 -6.016102e+001 1.740295e+002 2.011407e-003 8.599892e+000
253903906.25 -5.505267e+001 1.126825e+002 -6.063118e+001 1.739315e+002 -5.765253e+001 8.139157e+001 3.739969e-002 8.595189e+000
257021875 -5.710888e+001 9.446622e+001 -6.227783e+001 1.320046e+002 -5.796705e+001 -1.364562e+002 9.566551e-002 7.911192e+000
260139843.75 -5.701814e+001 -1.515045e+002 -5.905333e+001 -1.540686e+002 -5.984357e+001 9.015316e+001 3.934037e-002 7.892170e+000
263257812.5 -5.917410e+001 1.054240e+002 -5.971329e+001 -3.111281e+001 -5.268525e+001 1.400376e+002 -4.461971e-003 8.608381e+000
266375781.25 -5.205631e+001 1.433215e+002 -5.838115e+001 6.857700e+001 -5.275116e+001 -1.695287e+002 -1.587965e-001 9.614658e+000
269493750 -5.156662e+001 -1.677440e+002 -6.209226e+001 8.094424e+001 -5.914324e+001 1.343819e+002 -1.353838e-001 9.957609e+000
272611718.75 -5.116011e+001 1.697688e+002 -6.456688e+001 -1.011431e+002 -5.273527e+001 4.987031e+000 -1.976837e-002 9.946909e+000
275729687.5 -5.857616e+001 1.230331e+002 -6.612447e+001 -1.222048e+002 -5.552728e+001 1.264190e+002 7.683273e-002 1.014979e+001
278847656.25 -5.230489e+001 1.577252e+002 -6.176949e+001 -1.056490e+002 -5.626975e+001 -1.559776e+002 5.387495e-002 9.393245e+000
281965625 -5.078089e+001 9.109488e+001 -6.892746e+001 -1.770686e+002 -6.217315e+001 7.879083e+001 9.024160e-002 8.932298e+000
285083593.75 -5.368524e+001 9.784300e+001 -6.519204e+001 1.452822e+002 -6.048136e+001 -4.381936e+001 8.628380e-002 9.269398e+000
288201562.5 -5.314075e+001 1.392120e+002 -6.635880e+001 1.273850e+002 -5.346995e+001 -4.960366e+001 2.062619e-002 9.490053e+000
291319531.25 -6.331747e+001 1.385850e+002 -5.482842e+001 1.386992e+002 -6.797779e+001 1.763889e+002 1.406726e-002 9.429175e+000
294437500 -5.978281e+001 1.473470e+002 -5.991186e+001 -1.512060e+002 -6.682226e+001 5.582353e+001 -2.393601e-002 9.892320e+000
297555468.75 -5.930368e+001 1.544300e+002 -5.576268e+001 7.380689e+001 -6.304824e+001 6.239261e+000 1.634865e-002 9.846929e+000
300673437.5 -5.466492e+001 -1.742640e+002 -6.706165e+001 5.745310e+000 -6.232893e+001 -2.805732e+001 7.753860e-003 9.884935e+000
303791406.25 -5.088966e+001 1.738310e+002 -6.371619e+001 -1.153574e+002 -5.776729e+001 -2.100856e+000 -1.604353e-002 1.020825e+001
306909375 -5.290883e+001 1.439885e+002 -6.207214e+001 7.222227e+001 -6.340042e+001 1.493873e+002 -1.888640e-002 1.015302e+001
310027343.75 -5.186506e+001 1.380249e+002 -6.930980e+001 6.874208e+001 -6.120334e+001 -1.014929e+001 -1.263280e-002 1.054710e+001
313145312.5 -5.157970e+001 1.532747e+002 -7.064625e+001 -1.711913e+002 -6.605844e+001 -1.738907e+002 1.908165e-003 1.041405e+001
316263281.25 -5.224896e+001 1.709583e+002 -7.027015e+001 -1.079495e+002 -6.169773e+001 1.460852e+002 -1.785008e-002 1.040667e+001
319381250 -5.333924e+001 1.607975e+002 -5.986338e+001 2.367515e+001 -6.325066e+001 1.513533e+002 -2.685201e-002 1.066882e+001
322499218.75 -5.532067e+001 1.361742e+002 -6.222950e+001 1.075446e+002 -6.497219e+001 -5.145407e+001 -2.438036e-002 1.074179e+001
325617187.5 -5.418735e+001 1.370391e+002 -6.203954e+001 1.248307e+002 -6.047940e+001 -4.251139e+001 -3.309077e-002 1.081400e+001
328735156.25 -5.751170e+001 1.785408e+002 -6.178062e+001 -1.607585e+002 -6.252548e+001 7.695738e+001 -4.736072e-003 1.086471e+001
331853125 -5.489965e+001 1.706676e+002 -6.159843e+001 -7.175477e-001 -6.636588e+001 4.611650e+001 2.433885e-002 1.108943e+001
334971093.75 -5.599865e+001 1.517310e+002 -7.180157e+001 1.429540e+002 -6.498145e+001 -1.495943e+002 3.216260e-002 1.123533e+001
338089062.5 -4.983070e+001 1.477378e+002 -6.542261e+001 -5.093497e+001 -7.271797e+001 7.426944e+001 2.024855e-002 1.123927e+001
341207031.25 -5.059903e+001 1.312611e+002 -6.826585e+001 1.456604e+002 -9.765452e+001 2.524264e+000 2.746807e-002 1.131989e+001
344325000 -5.051860e+001 1.391716e+002 -6.494610e+001 4.195363e+001 -6.265072e+001 1.531397e+002 2.521955e-002 1.146774e+001
347442968.75 -4.960125e+001 1.398557e+002 -5.775666e+001 1.753449e+002 -5.840783e+001 1.181541e+002 -4.013598e-003 1.167978e+001
350560937.5 -5.176926e+001 1.281670e+002 -6.419495e+001 -8.151596e+001 -6.288845e+001 1.095207e+002 3.087421e-002 1.204302e+001
353678906.25 -5.010141e+001 1.439317e+002 -6.214607e+001 -1.878945e+001 -6.531072e+001 -9.763470e+001 1.229313e-002 1.215829e+001
356796875 -5.127293e+001 1.364482e+002 -7.467893e+001 1.242122e+002 -6.726227e+001 -7.832454e+001 -8.422556e-003 1.233292e+001
359914843.75 -5.114433e+001 1.329354e+002 -6.951852e+001 6.293165e+001 -6.220268e+001 1.779550e+002 1.288168e-002 1.253318e+001
363032812.5 -5.182530e+001 1.569595e+002 -6.931357e+001 -2.365903e+001 -6.755750e+001 2.246432e+001 -2.457771e-002 1.269247e+001
366150781.25 -4.984336e+001 1.666923e+002 -6.582551e+001 1.253320e+002 -6.033749e+001 -6.668764e+001 8.808151e-003 1.294670e+001
369268750 -5.050875e+001 1.540096e+002 -6.938563e+001 1.600033e+002 -6.398954e+001 1.171130e+002 2.606808e-002 1.264534e+001
372386718.75 -5.339414e+001 1.620148e+002 -6.605444e+001 -1.269196e+002 -6.421888e+001 -1.744462e+002 2.409678e-002 1.310670e+001
375504687.5 -5.335302e+001 1.628131e+002 -7.114846e+001 1.369943e+002 -6.451806e+001 5.470296e+001 2.992842e-002 1.320211e+001
378622656.25 -5.136495e+001 1.685045e+002 -6.549734e+001 9.691401e+001 -6.468410e+001 -6.515086e+001 1.586047e-002 1.344298e+001
381740625 -5.211849e+001 1.673120e+002 -9.096024e+001 5.011308e+001 -6.341889e+001 -8.993895e+001 2.399953e-002 1.351990e+001
384858593.75 -5.321470e+001 1.423036e+002 -6.488274e+001 -9.022762e+001 -6.191786e+001 6.581570e+001 2.719185e-002 1.339338e+001
387976562.5 -5.192714e+001 1.486809e+002 -6.680215e+001 -1.459070e+002 -7.014249e+001 -5.268833e+001 3.654382e-002 1.349156e+001
391094531.25 -5.024875e+001 1.624195e+002 -5.965860e+001 -1.021585e+002 -8.594200e+001 -6.272366e+001 9.958841e-003 1.356211e+001
394212500 -5.125367e+001 1.626980e+002 -6.756534e+001 1.875647e+001 -6.531623e+001 -1.870136e+001 3.607124e-002 1.369381e+001
397330468.75 -4.963530e+001 1.720819e+002 -6.744579e+001 7.186297e+001 -7.228842e+001 5.465032e+001 5.378237e-002 1.396583e+001
400448437.5 -4.970468e+001 1.686990e+002 -6.039760e+001 1.762607e+002 -6.137254e+001 1.692938e+002 4.386770e-002 1.409535e+001
403566406.25 -5.068805e+001 -1.756422e+002 -7.028431e+001 1.087437e+002 -7.132941e+001 -7.925721e+001 5.192744e-002 1.402509e+001
406684375 -5.128899e+001 -1.762535e+002 -6.219606e+001 1.027615e+002 -7.171960e+001 -1.272839e+002 2.398018e-002 1.425707e+001
409802343.75 -4.874687e+001 1.777671e+002 -6.382915e+001 -1.676249e+002 -6.727528e+001 1.249747e+002 2.535993e-002 1.431599e+001
412920312.5 -5.155236e+001 -1.691642e+002 -6.053263e+001 -4.612722e+001 -6.762273e+001 -9.994044e+001 4.394983e-002 1.427146e+001
416038281.25 -5.167330e+001 1.788017e+002 -6.247339e+001 -1.761662e+002 -6.396936e+001 9.430421e+001 4.515279e-002 1.451965e+001
419156250 -5.330340e+001 1.607353e+002 -6.039937e+001 -4.798376e+001 -6.344271e+001 -1.752612e+002 2.991731e-002 1.435471e+001
422274218.75 -5.264071e+001 -1.667309e+002 -7.423382e+001 6.604192e+000 -6.301866e+001 6.901348e+001 5.422196e-002 1.460208e+001
425392187.5 -5.233255e+001 -1.614558e+002 -1.213147e+002 -5.838433e+001 -7.480972e+001 -1.745225e+001 6.022919e-002 1.464294e+001
428510156.25 -4.889575e+001 -1.791807e+002 -7.067840e+001 -1.543408e+002 -6.076242e+001 -1.661790e+002 6.625861e-002 1.485846e+001
431628125 -5.625591e+001 -1.792721e+002 -6.381234e+001 3.964724e+001 -6.702443e+001 1.078873e+000 4.058951e-002 1.492133e+001
434746093.75 -5.023635e+001 -1.743766e+002 -6.471562e+001 -1.713124e+002 -7.133564e+001 1.153145e+002 4.768345e-002 1.492104e+001
437864062.5 -5.141656e+001 1.795381e+002 -7.304919e+001 -1.539583e+002 -6.395839e+001 -5.193242e+001 5.542892e-002 1.496112e+001
440982031.25 -5.066091e+001 -1.754320e+002 -7.117015e+001 -8.826666e+001 -6.926606e+001 -4.318718e+001 3.329607e-002 1.491270e+001
444100000 -5.205298e+001 -1.694695e+002 -7.377589e+001 -1.102723e+002 -7.646605e+001 8.069644e+001 4.026171e-002 1.493804e+001
447217968.75 -5.053478e+001 -1.592815e+002 -6.379832e+001 -9.860033e+001 -6.732124e+001 -2.203402e+001 6.564275e-002 1.515601e+001
450335937.5 -4.762382e+001 -1.522350e+002 -6.574590e+001 -9.850676e+001 -6.438426e+001 -1.707011e+002 5.913997e-002 1.530342e+001
453453906.25 -4.851920e+001 -1.587165e+002 -6.694304e+001 -1.078695e+002 -6.597069e+001 -1.281745e+002 5.406999e-002 1.526430e+001
456571875 -5.038167e+001 -1.632854e+002 -6.336832e+001 -4.271363e+001 -6.811558e+001 -9.723269e+001 5.754869e-002 1.534002e+001
459689843.75 -5.263735e+001 -1.653494e+002 -6.339434e+001 -1.141024e+001 -6.917667e+001 -1.071218e+002 3.730458e-002 1.532225e+001
462807812.5 -5.093925e+001 -1.711240e+002 -6.490760e+001 -1.307036e+002 -6.923831e+001 -7.651164e+001 7.439177e-002 1.548837e+001
465925781.25 -4.966012e+001 -1.515626e+002 -7.301643e+001 -1.469477e+001 -6.752052e+001 -6.684492e+000 5.699005e-002 1.546112e+001
469043750 -5.036986e+001 -1.610243e+002 -6.452320e+001 1.761640e+002 -6.340423e+001 1.574104e+002 6.720463e-002 1.548922e+001
472161718.75 -5.013353e+001 -1.656676e+002 -6.917540e+001 -6.110597e+001 -7.339202e+001 -2.286586e+001 5.436465e-002 1.569169e+001
475279687.5 -5.219274e+001 -1.573856e+002 -6.195244e+001 -1.631248e+002 -6.672161e+001 2.553200e+001 2.854711e-002 1.555389e+001
478397656.25 -5.035931e+001 -1.726407e+002 -7.100311e+001 3.780823e+001 -6.128625e+001 7.197922e+001 3.138585e-002 1.577760e+001
481515625 -5.297026e+001 -1.595270e+002 -6.779404e+001 -8.778980e+001 -7.201147e+001 3.623404e+000 2.223351e-002 1.577017e+001
484633593.75 -5.512525e+001 -1.622403e+002 -6.659856e+001 -7.966900e+001 -6.863385e+001 9.782536e+001 3.412383e-002 1.593222e+001
487751562.5 -4.898335e+001 -1.689314e+002 -6.628645e+001 4.065784e+001 -6.813407e+001 -1.298969e+001 2.660112e-002 1.595873e+001
490869531.25 -5.134479e+001 -1.615616e+002 -6.001462e+001 -2.522360e+001 -7.706017e+001 1.399053e+002 2.609605e-002 1.602442e+001
493987500 -5.179453e+001 -1.517567e+002 -6.609729e+001 -6.783175e+001 -6.331349e+001 1.730847e+001 1.070716e-002 1.615887e+001
497105468.75 -5.316209e+001 -1.641087e+002 -6.158871e+001 8.323841e+001 -6.569372e+001 1.585518e+002 9.737777e-003 1.624986e+001
500223437.5 -4.998973e+001 -1.529036e+002 -6.741874e+001 -5.270565e+001 -6.812409e+001 -1.381920e+002 -7.036550e-003 1.637422e+001
503341406.25 -5.004733e+001 -1.566436e+002 -6.316069e+001 -1.034942e+002 -7.172874e+001 1.190760e+002 -1.510644e-002 1.654515e+001
506459375 -5.199773e+001 -1.480104e+002 -6.495226e+001 6.925667e+001 -6.878351e+001 7.337813e+001 -1.409508e-002 1.652733e+001
509577343.75 -5.231123e+001 -1.411929e+002 -6.396889e+001 -4.637471e+001 -7.767612e+001 -8.566766e+001 -1.417784e-003 1.702805e+001
512695312.5 -5.302611e+001 -1.350068e+002 -6.788771e+001 -6.160027e+001 -6.840629e+001 1.881464e+001 7.139688e-003 1.703429e+001
515813281.25 -5.392265e+001 -1.494383e+002 -6.677124e+001 -1.209646e+002 -6.298956e+001 -9.734651e+001 1.513105e-002 1.701458e+001
