Title: * `ngspice` sim input for `tb`
Date: Fri Jul 28 12:07:07  2023
Plotname: Transient Analysis
Flags: real
No. Variables: 3
No. Points: 142
Variables:
	0	time	time
	1	v(xtop.vout)	voltage
	2	i(v.xtop.vvdc)	current
Values:
0		0.000000000000000e+00
	0.000000000000000e+00
	0.000000000000000e+00
1		1.000000000000000e-05
	0.000000000000000e+00
	0.000000000000000e+00
2		2.000000000000000e-05
	0.000000000000000e+00
	0.000000000000000e+00
3		4.000000000000000e-05
	0.000000000000000e+00
	0.000000000000000e+00
4		8.000000000000001e-05
	0.000000000000000e+00
	0.000000000000000e+00
5		1.600000000000000e-04
	0.000000000000000e+00
	0.000000000000000e+00
6		3.200000000000000e-04
	0.000000000000000e+00
	0.000000000000000e+00
7		6.400000000000001e-04
	0.000000000000000e+00
	0.000000000000000e+00
8		1.000000000000000e-03
	0.000000000000000e+00
	0.000000000000000e+00
9		1.064000000000000e-03
	6.400000000000004e-02
	-6.400000000000004e-08
10		1.192000000000000e-03
	1.920000000000001e-01
	-1.920000000000001e-07
11		1.448000000000000e-03
	4.480000000000001e-01
	-4.480000000000000e-07
12		1.960000000000000e-03
	9.599999999999999e-01
	-9.599999999999999e-07
13		2.000000000000000e-03
	1.000000000000000e+00
	-1.000000000000000e-06
14		2.080000000000000e-03
	1.000000000000000e+00
	-1.000000000000000e-06
15		2.240000000000001e-03
	1.000000000000000e+00
	-1.000000000000000e-06
16		2.560000000000002e-03
	1.000000000000000e+00
	-1.000000000000000e-06
17		3.200000000000003e-03
	1.000000000000000e+00
	-1.000000000000000e-06
18		4.200000000000003e-03
	1.000000000000000e+00
	-1.000000000000000e-06
19		5.200000000000003e-03
	1.000000000000000e+00
	-1.000000000000000e-06
20		6.200000000000003e-03
	1.000000000000000e+00
	-1.000000000000000e-06
21		7.200000000000003e-03
	1.000000000000000e+00
	-1.000000000000000e-06
22		8.200000000000002e-03
	1.000000000000000e+00
	-1.000000000000000e-06
23		9.200000000000003e-03
	1.000000000000000e+00
	-1.000000000000000e-06
24		1.020000000000000e-02
	1.000000000000000e+00
	-1.000000000000000e-06
25		1.120000000000001e-02
	2.000000000000040e-01
	-2.000000000000040e-07
26		1.200000000000000e-02
	9.999999999999991e-01
	-9.999999999999991e-07
27		1.210000000000000e-02
	1.000000000000000e+00
	-1.000000000000000e-06
28		1.230000000000000e-02
	1.000000000000000e+00
	-1.000000000000000e-06
29		1.270000000000000e-02
	1.000000000000000e+00
	-1.000000000000000e-06
30		1.350000000000000e-02
	1.000000000000000e+00
	-1.000000000000000e-06
31		1.450000000000000e-02
	1.000000000000000e+00
	-1.000000000000000e-06
32		1.550000000000000e-02
	1.000000000000000e+00
	-1.000000000000000e-06
33		1.650000000000000e-02
	1.000000000000000e+00
	-1.000000000000000e-06
34		1.750000000000000e-02
	1.000000000000000e+00
	-1.000000000000000e-06
35		1.850000000000000e-02
	1.000000000000000e+00
	-1.000000000000000e-06
36		1.950000000000000e-02
	1.000000000000000e+00
	-1.000000000000000e-06
37		2.050000000000000e-02
	1.000000000000000e+00
	-1.000000000000000e-06
38		2.150000000000001e-02
	5.000000000000039e-01
	-5.000000000000039e-07
39		2.200000000000000e-02
	9.999999999999974e-01
	-9.999999999999974e-07
40		2.210000000000000e-02
	1.000000000000000e+00
	-1.000000000000000e-06
41		2.230000000000000e-02
	1.000000000000000e+00
	-1.000000000000000e-06
42		2.270000000000000e-02
	1.000000000000000e+00
	-1.000000000000000e-06
43		2.350000000000000e-02
	1.000000000000000e+00
	-1.000000000000000e-06
44		2.450000000000000e-02
	1.000000000000000e+00
	-1.000000000000000e-06
45		2.550000000000000e-02
	1.000000000000000e+00
	-1.000000000000000e-06
46		2.650000000000000e-02
	1.000000000000000e+00
	-1.000000000000000e-06
47		2.750000000000000e-02
	1.000000000000000e+00
	-1.000000000000000e-06
48		2.850000000000000e-02
	1.000000000000000e+00
	-1.000000000000000e-06
49		2.950000000000000e-02
	1.000000000000000e+00
	-1.000000000000000e-06
50		3.050000000000000e-02
	1.000000000000000e+00
	-1.000000000000000e-06
51		3.150000000000000e-02
	5.000000000000004e-01
	-5.000000000000004e-07
52		3.200000000000000e-02
	1.000000000000000e+00
	-1.000000000000000e-06
53		3.210000000000000e-02
	1.000000000000000e+00
	-1.000000000000000e-06
54		3.230000000000000e-02
	1.000000000000000e+00
	-1.000000000000000e-06
55		3.270000000000000e-02
	1.000000000000000e+00
	-1.000000000000000e-06
56		3.350000000000000e-02
	1.000000000000000e+00
	-1.000000000000000e-06
57		3.450000000000000e-02
	1.000000000000000e+00
	-1.000000000000000e-06
58		3.550000000000000e-02
	1.000000000000000e+00
	-1.000000000000000e-06
59		3.650000000000000e-02
	1.000000000000000e+00
	-1.000000000000000e-06
60		3.750000000000001e-02
	1.000000000000000e+00
	-1.000000000000000e-06
61		3.850000000000001e-02
	1.000000000000000e+00
	-1.000000000000000e-06
62		3.950000000000001e-02
	1.000000000000000e+00
	-1.000000000000000e-06
63		4.050000000000001e-02
	1.000000000000000e+00
	-1.000000000000000e-06
64		4.150000000000001e-02
	5.000000000000073e-01
	-5.000000000000073e-07
65		4.200000000000000e-02
	1.000000000000000e+00
	-1.000000000000000e-06
66		4.210000000000001e-02
	1.000000000000000e+00
	-1.000000000000000e-06
67		4.230000000000000e-02
	1.000000000000000e+00
	-1.000000000000000e-06
68		4.270000000000000e-02
	1.000000000000000e+00
	-1.000000000000000e-06
69		4.350000000000000e-02
	1.000000000000000e+00
	-1.000000000000000e-06
70		4.450000000000000e-02
	1.000000000000000e+00
	-1.000000000000000e-06
71		4.550000000000001e-02
	1.000000000000000e+00
	-1.000000000000000e-06
72		4.650000000000001e-02
	1.000000000000000e+00
	-1.000000000000000e-06
73		4.750000000000001e-02
	1.000000000000000e+00
	-1.000000000000000e-06
74		4.850000000000001e-02
	1.000000000000000e+00
	-1.000000000000000e-06
75		4.950000000000001e-02
	1.000000000000000e+00
	-1.000000000000000e-06
76		5.050000000000001e-02
	1.000000000000000e+00
	-1.000000000000000e-06
77		5.150000000000001e-02
	5.000000000000073e-01
	-5.000000000000073e-07
78		5.200000000000000e-02
	1.000000000000000e+00
	-1.000000000000000e-06
79		5.210000000000001e-02
	1.000000000000000e+00
	-1.000000000000000e-06
80		5.230000000000001e-02
	1.000000000000000e+00
	-1.000000000000000e-06
81		5.270000000000000e-02
	1.000000000000000e+00
	-1.000000000000000e-06
82		5.350000000000001e-02
	1.000000000000000e+00
	-1.000000000000000e-06
83		5.450000000000001e-02
	1.000000000000000e+00
	-1.000000000000000e-06
84		5.550000000000001e-02
	1.000000000000000e+00
	-1.000000000000000e-06
85		5.650000000000001e-02
	1.000000000000000e+00
	-1.000000000000000e-06
86		5.750000000000001e-02
	1.000000000000000e+00
	-1.000000000000000e-06
87		5.850000000000001e-02
	1.000000000000000e+00
	-1.000000000000000e-06
88		5.950000000000001e-02
	1.000000000000000e+00
	-1.000000000000000e-06
89		6.050000000000001e-02
	1.000000000000000e+00
	-1.000000000000000e-06
90		6.150000000000001e-02
	5.000000000000143e-01
	-5.000000000000143e-07
91		6.200000000000001e-02
	1.000000000000000e+00
	-1.000000000000000e-06
92		6.210000000000001e-02
	1.000000000000000e+00
	-1.000000000000000e-06
93		6.230000000000001e-02
	1.000000000000000e+00
	-1.000000000000000e-06
94		6.270000000000001e-02
	1.000000000000000e+00
	-1.000000000000000e-06
95		6.350000000000000e-02
	1.000000000000000e+00
	-1.000000000000000e-06
96		6.450000000000000e-02
	1.000000000000000e+00
	-1.000000000000000e-06
97		6.550000000000000e-02
	1.000000000000000e+00
	-1.000000000000000e-06
98		6.650000000000000e-02
	1.000000000000000e+00
	-1.000000000000000e-06
99		6.750000000000000e-02
	1.000000000000000e+00
	-1.000000000000000e-06
100		6.850000000000001e-02
	1.000000000000000e+00
	-1.000000000000000e-06
101		6.950000000000001e-02
	1.000000000000000e+00
	-1.000000000000000e-06
102		7.050000000000001e-02
	1.000000000000000e+00
	-1.000000000000000e-06
103		7.150000000000001e-02
	5.000000000000004e-01
	-5.000000000000004e-07
104		7.199999999999999e-02
	9.999999999999870e-01
	-9.999999999999870e-07
105		7.210000000000000e-02
	1.000000000000000e+00
	-1.000000000000000e-06
106		7.230000000000000e-02
	1.000000000000000e+00
	-1.000000000000000e-06
107		7.270000000000000e-02
	1.000000000000000e+00
	-1.000000000000000e-06
108		7.350000000000000e-02
	1.000000000000000e+00
	-1.000000000000000e-06
109		7.450000000000000e-02
	1.000000000000000e+00
	-1.000000000000000e-06
110		7.550000000000000e-02
	1.000000000000000e+00
	-1.000000000000000e-06
111		7.650000000000000e-02
	1.000000000000000e+00
	-1.000000000000000e-06
112		7.750000000000000e-02
	1.000000000000000e+00
	-1.000000000000000e-06
113		7.850000000000000e-02
	1.000000000000000e+00
	-1.000000000000000e-06
114		7.950000000000000e-02
	1.000000000000000e+00
	-1.000000000000000e-06
115		8.050000000000000e-02
	1.000000000000000e+00
	-1.000000000000000e-06
116		8.150000000000000e-02
	5.000000000000004e-01
	-5.000000000000004e-07
117		8.200000000000000e-02
	1.000000000000000e+00
	-1.000000000000000e-06
118		8.210000000000001e-02
	1.000000000000000e+00
	-1.000000000000000e-06
119		8.230000000000001e-02
	1.000000000000000e+00
	-1.000000000000000e-06
120		8.270000000000001e-02
	1.000000000000000e+00
	-1.000000000000000e-06
121		8.350000000000000e-02
	1.000000000000000e+00
	-1.000000000000000e-06
122		8.450000000000001e-02
	1.000000000000000e+00
	-1.000000000000000e-06
123		8.550000000000001e-02
	1.000000000000000e+00
	-1.000000000000000e-06
124		8.650000000000001e-02
	1.000000000000000e+00
	-1.000000000000000e-06
125		8.750000000000001e-02
	1.000000000000000e+00
	-1.000000000000000e-06
126		8.850000000000001e-02
	1.000000000000000e+00
	-1.000000000000000e-06
127		8.950000000000001e-02
	1.000000000000000e+00
	-1.000000000000000e-06
128		9.050000000000001e-02
	1.000000000000000e+00
	-1.000000000000000e-06
129		9.150000000000001e-02
	5.000000000000143e-01
	-5.000000000000143e-07
130		9.200000000000000e-02
	1.000000000000000e+00
	-1.000000000000000e-06
131		9.210000000000000e-02
	1.000000000000000e+00
	-1.000000000000000e-06
132		9.230000000000001e-02
	1.000000000000000e+00
	-1.000000000000000e-06
133		9.270000000000000e-02
	1.000000000000000e+00
	-1.000000000000000e-06
134		9.350000000000000e-02
	1.000000000000000e+00
	-1.000000000000000e-06
135		9.450000000000000e-02
	1.000000000000000e+00
	-1.000000000000000e-06
136		9.550000000000000e-02
	1.000000000000000e+00
	-1.000000000000000e-06
137		9.650000000000000e-02
	1.000000000000000e+00
	-1.000000000000000e-06
138		9.750000000000000e-02
	1.000000000000000e+00
	-1.000000000000000e-06
139		9.850000000000000e-02
	1.000000000000000e+00
	-1.000000000000000e-06
140		9.950000000000001e-02
	1.000000000000000e+00
	-1.000000000000000e-06
141		1.000000000000000e-01
	1.000000000000000e+00
	-1.000000000000000e-06
