!Agilent Technologies,E8364A,US41440322,A.04.87.01
!Agilent E8364A: A.04.87.01
!Date: Tuesday, July 16, 2024 12:12:28
!Correction: S11(Full 2 Port SOLT,1,2) S21(Full 2 Port SOLT,1,2) S12(Full 2 Port SOLT,1,2) S22(Full 2 Port SOLT,1,2)
!S2P File: Measurements: S11, S21, S12, S22:
# Hz S  dB   R 50
45000000 8.116148e-002 4.323987e+000 -3.027946e+001 1.786845e+001 -3.337426e+001 9.250246e+001 -3.803361e+001 -1.401231e+002
48117968.75 9.755778e-002 4.347958e+000 -4.650999e+001 1.035851e+002 -4.546784e+001 -1.371981e+002 -4.100486e+001 -2.830059e+000
51235937.5 1.533829e-001 5.292596e+000 -5.678672e+001 -8.466930e+001 -4.269353e+001 1.702760e+002 -4.404748e+001 1.792135e+001
54353906.25 3.264597e-002 1.809745e+000 -3.650324e+001 -3.482502e+001 -3.625870e+001 -7.800112e+001 -3.782621e+001 -4.310471e+001
57471875 -1.574348e-001 3.263988e-001 -3.475694e+001 -3.575630e+001 -4.127309e+001 -1.213057e+002 -3.219142e+001 1.598854e+002
60589843.75 -1.013491e-001 8.618482e-001 -5.490061e+001 -1.233509e+002 -3.522195e+001 -8.633659e+001 -3.983725e+001 1.053662e+002
63707812.5 1.290843e-002 5.823221e-001 -3.961035e+001 1.020475e+002 -4.983160e+001 1.714101e+002 -3.542569e+001 1.460791e+002
66825781.25 -2.119107e-002 1.090329e+000 -3.742657e+001 -4.342002e+001 -4.039418e+001 -4.202834e+001 -5.201646e+001 -1.543265e+001
69943750 7.698780e-002 1.804562e+000 -4.022418e+001 6.734352e+000 -3.840891e+001 -2.753621e+001 -4.669030e+001 7.914228e+001
73061718.75 6.571016e-002 2.162917e+000 -3.642726e+001 1.206575e+002 -4.294938e+001 5.143510e+001 -4.149271e+001 8.021825e+001
76179687.5 1.248421e-001 2.255477e+000 -4.850512e+001 -2.430054e+001 -5.812557e+001 1.448746e+002 -3.939375e+001 2.268194e+001
79297656.25 -3.999771e-002 2.481786e+000 -4.560693e+001 1.393051e+002 -4.875393e+001 -2.377228e+001 -4.575415e+001 -2.425813e+001
82415625 -3.811860e-002 2.441126e+000 -4.830724e+001 -3.160504e+001 -5.362362e+001 -7.259572e+001 -3.997235e+001 1.331142e+002
85533593.75 3.097493e-002 2.682682e+000 -5.204431e+001 -5.632458e+001 -4.913615e+001 -2.760314e+000 -4.659249e+001 7.094749e+001
88651562.5 -2.418251e-002 3.307127e+000 -4.757174e+001 1.446433e+002 -4.448017e+001 5.746157e+001 -3.987677e+001 1.409069e+002
91769531.25 4.393803e-002 3.320400e+000 -5.196049e+001 1.257398e+002 -4.615902e+001 -1.838758e-001 -4.154183e+001 -1.005756e+002
94887500 7.918587e-002 2.936048e+000 -4.764093e+001 -7.729229e+001 -4.652217e+001 -4.781432e+001 -4.363710e+001 -9.190420e+001
98005468.75 6.120992e-002 3.137602e+000 -5.978400e+001 -1.136821e+001 -4.827646e+001 2.343176e+001 -4.223507e+001 -1.106554e+002
101123437.5 3.393094e-002 3.563837e+000 -5.544058e+001 1.448881e+002 -4.764424e+001 1.276271e+002 -4.568240e+001 4.847694e+001
104241406.25 -1.361495e-002 3.757921e+000 -4.867554e+001 -1.110018e+002 -5.399676e+001 3.415255e+001 -4.564883e+001 -5.092970e+001
107359375 -8.910389e-003 3.091299e+000 -4.528036e+001 -1.681993e+002 -6.751047e+001 -1.213215e+002 -4.777736e+001 -3.763028e+001
110477343.75 3.895186e-002 3.681253e+000 -4.912967e+001 1.561830e+001 -6.136411e+001 1.040954e+002 -5.878277e+001 3.992226e+001
113595312.5 4.722725e-002 4.351563e+000 -4.533096e+001 -1.637382e+002 -4.697942e+001 7.450270e+001 -4.274461e+001 -2.682793e+001
116713281.25 2.019558e-002 4.119333e+000 -4.532895e+001 -1.184264e+002 -4.879745e+001 1.141059e+002 -4.197653e+001 -3.658788e+000
119831250 9.738321e-003 4.437656e+000 -5.099686e+001 -1.070045e+002 -5.339115e+001 -1.973142e+001 -4.735547e+001 -1.239670e+002
122949218.75 2.320009e-002 4.099649e+000 -3.759010e+001 -5.630640e+001 -5.998456e+001 5.995468e+001 -5.030453e+001 -9.995699e+001
126067187.5 5.344493e-002 4.266673e+000 -4.500616e+001 -1.193836e+002 -5.730416e+001 -4.333240e+000 -5.065469e+001 -1.529319e+002
129185156.25 9.847590e-002 4.612012e+000 -5.158518e+001 -6.856180e+001 -5.163102e+001 -1.610570e+002 -5.305201e+001 -9.695934e+001
132303125 4.961695e-002 4.362659e+000 -4.948955e+001 -1.543404e+002 -5.005260e+001 2.717968e+001 -5.514611e+001 -1.360787e+002
135421093.75 2.566566e-002 4.717278e+000 -4.501779e+001 -7.790020e+001 -5.085756e+001 4.119058e+001 -5.072195e+001 1.097957e+002
138539062.5 3.679891e-002 4.777505e+000 -5.428798e+001 1.726895e+002 -5.586449e+001 3.839114e+001 -6.587714e+001 -2.651775e+001
141657031.25 4.389146e-002 4.971272e+000 -5.695332e+001 8.762924e+001 -5.265354e+001 1.331223e+002 -4.932771e+001 1.096317e+002
144775000 4.652915e-002 4.828347e+000 -5.452478e+001 -1.228559e+002 -5.378706e+001 3.395384e+001 -6.818456e+001 -1.045545e+002
147892968.75 2.555982e-002 4.971172e+000 -4.943060e+001 8.109289e+001 -5.572050e+001 1.742776e+002 -4.920581e+001 4.165891e+001
151010937.5 3.231580e-002 5.201167e+000 -6.205044e+001 1.446107e+002 -6.034257e+001 1.210390e+002 -5.574561e+001 -1.134265e+002
154128906.25 7.002760e-002 5.394664e+000 -5.074258e+001 4.501711e+001 -5.550285e+001 -1.572114e+002 -5.925863e+001 -6.651466e+001
157246875 7.948148e-002 5.361479e+000 -5.718531e+001 1.295578e+001 -5.000750e+001 -1.147156e+002 -5.333104e+001 -5.731200e+001
160364843.75 2.315634e-002 5.362761e+000 -5.444814e+001 -3.862456e+001 -5.257974e+001 1.179555e+002 -4.413446e+001 -1.753155e+001
163482812.5 3.659007e-002 5.511539e+000 -5.936881e+001 -1.338457e+002 -5.540352e+001 -7.339639e+001 -4.636169e+001 5.041941e+001
166600781.25 -9.948994e-003 5.564492e+000 -5.840862e+001 1.269440e+002 -6.101885e+001 -1.172164e+002 -4.521754e+001 3.424234e+001
169718750 1.674956e-002 5.845577e+000 -5.988257e+001 -5.610894e+001 -5.410826e+001 1.470169e+002 -4.695890e+001 3.702961e+001
172836718.75 1.554543e-002 5.837570e+000 -5.806490e+001 1.387393e+001 -5.870540e+001 -3.689564e+001 -4.535004e+001 4.044996e+001
175954687.5 1.044422e-002 6.123894e+000 -5.803400e+001 -7.057019e+001 -5.529395e+001 -1.233931e+002 -4.285301e+001 2.931116e+001
179072656.25 3.529404e-002 5.982249e+000 -6.248452e+001 -4.147150e+001 -5.943550e+001 4.808724e+001 -4.395082e+001 3.891523e+001
182190625 2.779740e-002 6.070811e+000 -6.415291e+001 -6.473494e+001 -5.537688e+001 4.713177e+001 -4.508165e+001 4.334055e+001
185308593.75 -1.322672e-002 6.443593e+000 -5.801905e+001 1.438228e+002 -5.961641e+001 7.955309e+001 -4.462646e+001 3.327558e+001
188426562.5 2.924551e-002 6.384491e+000 -5.517173e+001 -3.540020e+001 -5.720694e+001 -1.163871e+001 -4.693752e+001 5.548920e+001
191544531.25 2.360910e-002 6.581423e+000 -5.409728e+001 -1.217690e+002 -5.700064e+001 -8.803067e+001 -4.638556e+001 8.847326e+001
194662500 2.295356e-003 6.665333e+000 -5.330857e+001 1.114442e+002 -6.255859e+001 -6.241074e+001 -4.683613e+001 4.996962e+001
197780468.75 1.366489e-003 6.725680e+000 -6.085200e+001 -2.338626e+001 -5.962750e+001 -1.763420e+002 -4.903782e+001 3.842157e+001
200898437.5 -1.206074e-003 6.893026e+000 -5.709370e+001 1.252312e+002 -5.956964e+001 3.633516e+001 -6.581749e+001 9.274297e-001
204016406.25 -2.232560e-002 6.855302e+000 -5.602082e+001 -1.550208e+002 -5.935181e+001 -1.669499e+002 -7.036153e+001 1.199330e+002
207134375 4.702238e-003 6.898057e+000 -5.261689e+001 -4.825549e+001 -5.991851e+001 1.186318e+002 -5.016014e+001 1.541088e+002
210252343.75 1.437481e-002 7.322711e+000 -5.656351e+001 -1.103696e+002 -6.687303e+001 1.777574e+002 -5.574461e+001 -1.625139e+002
213370312.5 4.072039e-003 7.026551e+000 -5.305178e+001 -6.814815e+001 -5.507455e+001 1.215749e+002 -5.263955e+001 1.231891e+002
216488281.25 3.677762e-002 6.970581e+000 -6.497042e+001 -4.896877e+000 -6.122047e+001 -1.654777e+002 -4.857357e+001 1.075569e+002
219606250 2.017343e-002 7.208484e+000 -5.860129e+001 -6.858590e+001 -6.017590e+001 -4.191769e+000 -4.546942e+001 1.195434e+002
222724218.75 -2.188118e-002 7.460218e+000 -5.849091e+001 -1.538128e+002 -5.792542e+001 -1.528411e+001 -4.287986e+001 1.089234e+002
225842187.5 -1.200856e-002 7.758689e+000 -5.306773e+001 1.577495e+002 -5.877844e+001 1.311920e+002 -4.415738e+001 1.166229e+002
228960156.25 -2.087288e-002 7.977377e+000 -5.337304e+001 -4.291653e+001 -5.834009e+001 -6.811615e+001 -4.442945e+001 1.415927e+002
232078125 -4.080716e-002 7.953552e+000 -6.291141e+001 1.265320e+002 -7.035244e+001 1.065853e+002 -4.547666e+001 1.569571e+002
235196093.75 1.696551e-003 7.787524e+000 -6.255748e+001 1.441427e+002 -5.879942e+001 -1.526396e+002 -4.718640e+001 1.564155e+002
238314062.5 -3.313591e-002 7.762676e+000 -6.597522e+001 4.357019e+001 -6.000105e+001 -3.783716e+001 -4.693515e+001 1.334083e+002
241432031.25 -8.215836e-002 8.680539e+000 -6.438942e+001 -1.783267e+002 -6.124961e+001 5.092567e+001 -4.947545e+001 1.444388e+002
244550000 -3.704739e-002 9.321023e+000 -5.382473e+001 -1.484753e+002 -5.734460e+001 -1.423925e+002 -5.437151e+001 8.409787e+001
247667968.75 3.074754e-002 8.395923e+000 -7.380978e+001 -3.309806e+001 -5.489834e+001 -1.747934e+002 -5.179034e+001 1.336573e+002
250785937.5 2.340731e-002 8.292589e+000 -6.301519e+001 3.272319e+001 -6.757474e+001 1.561051e+002 -5.012565e+001 8.963376e+001
253903906.25 8.014110e-003 8.370409e+000 -5.874302e+001 -7.885657e+001 -6.229414e+001 -7.991866e+001 -5.394295e+001 7.786983e+001
257021875 4.088721e-002 8.082560e+000 -6.011444e+001 1.797516e+002 -6.293464e+001 4.748468e+001 -5.786547e+001 1.037085e+002
260139843.75 7.989099e-002 8.278155e+000 -6.134028e+001 -2.985487e+001 -6.096992e+001 -1.671267e+002 -4.905038e+001 9.224553e+001
263257812.5 2.906356e-002 8.904965e+000 -6.034716e+001 -1.378943e+002 -5.994321e+001 1.239188e+002 -5.504948e+001 1.233189e+002
266375781.25 -1.361778e-003 7.929718e+000 -5.809567e+001 -5.032754e+001 -5.981165e+001 1.484944e+002 -5.248563e+001 -1.716616e+002
269493750 6.993576e-003 8.377440e+000 -6.039024e+001 -1.592453e+002 -6.427991e+001 1.355603e+002 -5.541074e+001 -1.682201e+002
272611718.75 -9.572308e-002 9.309179e+000 -5.859781e+001 1.661661e+002 -6.363018e+001 8.230422e+001 -4.832943e+001 -1.000221e+002
275729687.5 -8.064196e-002 9.652948e+000 -6.950566e+001 -1.382064e+002 -6.322303e+001 6.426810e+001 -5.617940e+001 -9.525008e+001
278847656.25 -2.765364e-002 9.599237e+000 -6.129457e+001 -1.028551e+002 -6.746409e+001 -6.608106e+001 -5.176630e+001 -9.135703e+001
281965625 -1.629955e-003 1.002229e+001 -6.831475e+001 8.124213e+001 -6.446220e+001 -2.327872e+001 -5.504192e+001 1.128823e+002
285083593.75 9.860633e-003 9.913488e+000 -5.271202e+001 1.347236e+002 -5.624894e+001 1.029017e+002 -5.416008e+001 1.446603e+002
288201562.5 -7.650213e-003 9.788938e+000 -5.976348e+001 1.756860e+002 -7.498557e+001 -9.829005e+001 -5.529674e+001 9.048354e+001
291319531.25 -1.194113e-002 1.004305e+001 -5.964336e+001 1.443679e+002 -5.995340e+001 5.037859e+001 -6.568354e+001 6.998030e+001
294437500 -1.435230e-002 1.006881e+001 -7.523403e+001 1.025635e+002 -6.509084e+001 -7.354719e+001 -5.833786e+001 1.256907e+001
297555468.75 6.430438e-003 1.022777e+001 -6.180215e+001 -1.205631e+002 -6.408847e+001 -1.174372e+002 -5.339362e+001 1.560650e+001
300673437.5 1.309359e-002 1.038437e+001 -6.273789e+001 9.052529e+001 -5.841776e+001 -8.909541e+001 -5.952715e+001 -6.675797e+001
303791406.25 4.202836e-003 1.045634e+001 -6.739862e+001 -3.911245e+001 -5.743570e+001 7.222455e+001 -5.628769e+001 -4.479406e+000
306909375 3.282780e-004 1.054929e+001 -5.956213e+001 -8.522439e+001 -6.138252e+001 -2.296751e+001 -6.366143e+001 7.630910e+001
310027343.75 3.294139e-003 1.062184e+001 -6.292949e+001 -4.982705e+001 -6.791339e+001 -1.162209e+002 -5.354997e+001 5.177169e+001
313145312.5 -1.665268e-002 1.078629e+001 -6.131499e+001 -1.791902e+002 -6.236367e+001 1.047822e+002 -5.473165e+001 3.246761e+001
316263281.25 9.170877e-003 1.090453e+001 -6.693661e+001 -3.232661e+000 -6.371525e+001 -7.971010e+001 -4.941875e+001 2.271791e+001
319381250 2.677202e-002 1.104372e+001 -6.202926e+001 -5.125643e+001 -6.591185e+001 1.400848e+002 -5.396835e+001 4.957027e+001
322499218.75 3.794745e-002 1.113198e+001 -6.154898e+001 -1.465165e+002 -7.030085e+001 1.165033e+002 -5.572684e+001 -4.704024e+000
325617187.5 2.632434e-002 1.122059e+001 -6.922236e+001 -1.544263e+001 -6.645219e+001 5.379061e+001 -5.295164e+001 3.511865e+001
328735156.25 3.778222e-002 1.131960e+001 -5.694937e+001 1.600835e+002 -6.332200e+001 8.539732e+001 -5.452368e+001 2.132492e+001
331853125 2.165745e-002 1.147356e+001 -6.140216e+001 6.043302e+001 -6.739369e+001 1.134983e+002 -4.950314e+001 4.504379e+001
334971093.75 1.004952e-003 1.147977e+001 -6.517398e+001 -1.205437e+002 -6.795787e+001 7.786324e+001 -4.986961e+001 4.311907e+001
338089062.5 4.362349e-003 1.187408e+001 -6.357202e+001 -1.555153e+002 -6.077834e+001 2.489654e+000 -4.816041e+001 4.487328e+001
341207031.25 1.983569e-002 1.177043e+001 -6.302580e+001 -1.621476e+002 -6.538768e+001 8.077572e+000 -4.837492e+001 3.167618e+001
344325000 -8.990350e-003 1.165018e+001 -6.369125e+001 8.060136e+001 -6.072603e+001 -1.108446e+002 -4.479654e+001 4.526920e+001
347442968.75 1.755834e-002 1.176074e+001 -6.060875e+001 -1.151150e+002 -6.632105e+001 -1.091898e+002 -4.584560e+001 5.269254e+001
350560937.5 1.762337e-002 1.193577e+001 -6.198109e+001 -9.564771e+001 -6.667657e+001 1.156603e+002 -4.582964e+001 5.981279e+001
353678906.25 1.499923e-002 1.201048e+001 -6.095105e+001 5.971435e+001 -6.457129e+001 1.369384e+002 -4.696840e+001 6.737818e+001
356796875 1.936811e-002 1.209012e+001 -6.155442e+001 8.975692e+001 -6.537110e+001 1.579323e+002 -4.930300e+001 5.592995e+001
359914843.75 2.557484e-002 1.231854e+001 -6.180427e+001 9.949150e+001 -6.088463e+001 5.173981e+001 -4.546554e+001 6.012024e+001
363032812.5 1.180339e-002 1.267763e+001 -6.415068e+001 1.245066e+002 -6.588936e+001 7.735224e+001 -4.556339e+001 7.628523e+001
366150781.25 1.668609e-002 1.253163e+001 -6.402160e+001 7.383088e+001 -6.160932e+001 1.566848e+002 -4.625019e+001 7.211137e+001
369268750 1.560871e-002 1.259454e+001 -5.830799e+001 -1.586677e+002 -6.419342e+001 9.288352e+001 -4.546032e+001 6.439376e+001
372386718.75 -1.732704e-002 1.286237e+001 -6.009401e+001 -1.368890e+002 -7.422502e+001 -1.796347e+002 -4.552518e+001 8.432092e+001
375504687.5 -1.530100e-002 1.287705e+001 -6.165593e+001 -1.296758e+002 -7.811531e+001 -1.636203e+002 -4.555471e+001 8.743375e+001
378622656.25 -6.675856e-003 1.316495e+001 -6.309993e+001 -1.578270e+002 -6.437751e+001 1.734791e+002 -4.581777e+001 8.495115e+001
381740625 -2.833520e-002 1.308682e+001 -7.217404e+001 1.598354e+002 -6.960674e+001 1.454944e+002 -4.561334e+001 8.678443e+001
384858593.75 -1.621732e-002 1.327337e+001 -6.772063e+001 -7.633261e+001 -6.912350e+001 -3.328893e+001 -4.668577e+001 7.607329e+001
387976562.5 -4.774248e-002 1.348190e+001 -6.029031e+001 -1.227519e+002 -6.556120e+001 -1.176651e+001 -4.539056e+001 7.879633e+001
391094531.25 -2.428116e-002 1.346193e+001 -6.547449e+001 1.150495e+002 -6.374390e+001 1.134615e+002 -4.460023e+001 7.948403e+001
394212500 -1.652437e-002 1.353535e+001 -6.946105e+001 7.888145e+001 -7.296968e+001 -7.031565e+000 -4.355657e+001 9.238165e+001
397330468.75 -1.785472e-002 1.374439e+001 -6.204158e+001 -1.189889e+002 -6.717264e+001 3.644041e+001 -4.539418e+001 1.055018e+002
400448437.5 -4.689148e-002 1.388667e+001 -7.305833e+001 1.595762e+002 -7.241647e+001 -6.408182e+001 -4.556699e+001 1.071973e+002
403566406.25 -4.021232e-002 1.396263e+001 -7.014100e+001 -1.585127e+002 -6.593785e+001 -3.434180e+000 -4.697479e+001 1.047249e+002
406684375 -3.228856e-002 1.403218e+001 -6.683001e+001 -1.510203e+002 -6.549085e+001 -1.584603e+001 -4.567603e+001 1.293039e+002
409802343.75 -3.901728e-003 1.401165e+001 -6.269050e+001 1.081459e+002 -6.860570e+001 1.005520e+002 -4.672942e+001 1.361857e+002
412920312.5 -7.846624e-003 1.418710e+001 -6.830769e+001 -7.188214e+001 -6.346696e+001 9.939851e+001 -4.628796e+001 1.292443e+002
416038281.25 -3.366308e-003 1.416857e+001 -6.805089e+001 -1.145711e+001 -7.434636e+001 1.171785e+002 -4.782913e+001 1.360175e+002
419156250 -1.847517e-002 1.431874e+001 -6.650639e+001 -3.478946e+001 -6.865919e+001 1.718127e+002 -4.493489e+001 1.353909e+002
422274218.75 -2.907740e-002 1.448084e+001 -7.237545e+001 8.875704e+001 -8.057841e+001 -2.893954e+001 -4.685274e+001 1.383188e+002
425392187.5 -2.222043e-002 1.464515e+001 -6.711501e+001 -1.306957e+002 -7.376385e+001 -2.845175e+001 -4.599448e+001 1.537810e+002
428510156.25 -2.318582e-002 1.465462e+001 -7.475291e+001 9.588490e+001 -7.050733e+001 -1.702370e+002 -4.568335e+001 1.552932e+002
431628125 -1.926007e-002 1.479755e+001 -6.416872e+001 5.237707e+000 -6.992403e+001 1.232969e+002 -4.532145e+001 1.549435e+002
434746093.75 -5.949032e-002 1.498649e+001 -6.497340e+001 1.109955e+002 -6.748729e+001 -2.717555e+001 -4.466369e+001 1.665090e+002
437864062.5 -3.930354e-002 1.499677e+001 -6.653632e+001 9.788663e+001 -6.562292e+001 -5.934890e+001 -4.507460e+001 1.597293e+002
440982031.25 -2.374677e-002 1.518532e+001 -6.617770e+001 1.596732e+002 -6.451273e+001 1.371329e+001 -4.691212e+001 1.695523e+002
444100000 -3.590938e-002 1.519878e+001 -6.723256e+001 -2.262550e+001 -7.123571e+001 1.392688e+002 -4.642277e+001 1.754482e+002
447217968.75 -4.016044e-002 1.530075e+001 -6.681202e+001 -1.304032e+002 -6.811210e+001 1.426015e+002 -4.540584e+001 1.785230e+002
450335937.5 -6.546336e-002 1.558741e+001 -6.232250e+001 -9.696726e+001 -7.429123e+001 -1.412400e+002 -4.671018e+001 1.740470e+002
453453906.25 -4.884152e-002 1.541747e+001 -7.055013e+001 1.170419e+002 -6.741796e+001 -2.787230e+001 -4.820133e+001 -1.739126e+002
456571875 -7.228158e-002 1.552135e+001 -6.283704e+001 -7.172406e+001 -6.945907e+001 1.501176e+002 -4.770826e+001 1.770459e+002
459689843.75 -6.789972e-002 1.575256e+001 -6.259429e+001 -3.167348e+001 -6.686249e+001 9.828646e+001 -4.881705e+001 -1.731877e+002
462807812.5 -5.903310e-002 1.576384e+001 -6.273261e+001 -9.334470e+001 -6.237735e+001 -9.744259e+001 -4.972910e+001 1.755919e+002
465925781.25 -3.779778e-002 1.605058e+001 -6.726546e+001 -1.072785e+002 -8.361626e+001 6.987711e+001 -5.232653e+001 -1.718974e+002
469043750 -4.772210e-002 1.598921e+001 -7.487932e+001 -6.977039e+001 -6.664313e+001 -8.454008e+001 -5.116276e+001 -1.640473e+002
472161718.75 -7.924534e-002 1.620759e+001 -6.682744e+001 3.973678e+001 -6.846904e+001 1.004381e+002 -5.231614e+001 -1.504770e+002
475279687.5 -4.522345e-002 1.626999e+001 -6.756470e+001 1.663848e+000 -6.850701e+001 1.655772e+002 -5.571280e+001 -1.462258e+002
478397656.25 -3.156277e-002 1.633638e+001 -6.475126e+001 -1.339620e+002 -7.174658e+001 -9.090132e+001 -5.797094e+001 -1.338831e+002
481515625 -3.984853e-002 1.648816e+001 -7.401380e+001 1.371507e+002 -6.282747e+001 4.938139e+001 -5.765840e+001 -1.297592e+002
484633593.75 -6.076170e-002 1.666269e+001 -7.272961e+001 -1.144170e+002 -6.416887e+001 2.050744e+001 -5.435789e+001 -1.002457e+002
487751562.5 -4.429063e-002 1.674689e+001 -7.016351e+001 7.336977e+001 -7.164602e+001 -1.584517e+002 -5.511445e+001 -7.702782e+001
490869531.25 -3.878964e-002 1.681376e+001 -6.964593e+001 1.527773e+002 -6.945251e+001 5.887427e+001 -5.653286e+001 -7.273576e+001
493987500 -2.396191e-002 1.692626e+001 -5.963469e+001 1.749134e+002 -6.365796e+001 -1.490187e+002 -5.971667e+001 -5.695368e+001
497105468.75 -4.412926e-002 1.696124e+001 -6.777127e+001 -1.545571e+002 -6.698016e+001 -8.424902e+001 -5.437738e+001 -3.068821e+001
500223437.5 -3.804073e-002 1.707599e+001 -6.678970e+001 3.754839e+001 -6.847153e+001 1.115172e+002 -5.236980e+001 -7.211720e+000
503341406.25 -2.148512e-002 1.729171e+001 -7.169759e+001 4.320353e+001 -6.845190e+001 1.507594e+002 -5.358202e+001 -2.173619e+001
506459375 -3.179216e-002 1.743377e+001 -6.484888e+001 2.434137e+001 -6.351908e+001 -6.172220e+001 -5.380256e+001 -6.979792e+000
509577343.75 -5.565564e-002 1.752422e+001 -7.316263e+001 1.772894e+002 -6.782510e+001 -1.217361e+002 -5.102590e+001 1.087755e+001
512695312.5 -4.489780e-002 1.764460e+001 -6.995979e+001 -1.090660e+002 -6.987465e+001 1.470780e+002 -4.969570e+001 1.613337e+001
